# Hz S RI R 50
50000 0.703284621 -0.017357515
119300 0.730820477 -0.042932275
188600 0.719521105 -0.043031569
258000 0.724937438 -0.056917391
327300 0.728416204 -0.075488656
396700 0.729572474 -0.095896631
466000 0.728373765 -0.116376169
535400 0.725377976 -0.137094929
604700 0.721123576 -0.156239926
674100 0.716892957 -0.174838587
743400 0.71204251 -0.192686244
812700 0.708023488 -0.211609348
882100 0.703255712 -0.231006681
951400 0.697418749 -0.251399517
1020800 0.689581096 -0.272258192
1090100 0.680779516 -0.292601376
1159500 0.670965075 -0.312359899
1228800 0.66011244 -0.332322478
1298200 0.647970795 -0.350799322
1367500 0.634711802 -0.369446635
1436900 0.62029016 -0.387000203
1506200 0.60544151 -0.404475212
1575500 0.589611053 -0.420714974
1644900 0.57288444 -0.436454981
1714200 0.555783331 -0.451790034
1783600 0.53820163 -0.46543926
1852900 0.51961404 -0.478829264
1922300 0.500553846 -0.491262167
1991600 0.481427967 -0.502732455
2061000 0.461427122 -0.513046622
2130300 0.441438853 -0.522828698
2199600 0.42115134 -0.531504571
2269000 0.40011394 -0.539689183
2338300 0.378951728 -0.546720862
2407700 0.358016937 -0.553183674
2477000 0.336371123 -0.558391213
2546400 0.315210342 -0.562680304
2615700 0.293418496 -0.566462099
2685100 0.271511763 -0.568992257
2754400 0.249859392 -0.571158528
2823800 0.228495866 -0.57194817
2893100 0.206527754 -0.571873664
2962400 0.185357734 -0.571242332
3031800 0.163790851 -0.569543421
3101100 0.14252609 -0.566715002
3170500 0.121723785 -0.563444077
3239800 0.101163335 -0.559460997
3309200 0.08122272 -0.554670512
3378500 0.06135752 -0.549243211
3447900 0.041391629 -0.543403804
3517200 0.022532897 -0.53696525
3586500 0.003975214 -0.530139327
3655900 -0.01469679 -0.522909164
3725200 -0.033323135 -0.515169441
3794600 -0.051346372 -0.507720589
3863900 -0.069656267 -0.498712718
3933300 -0.087406694 -0.490429788
4002600 -0.106250733 -0.481066346
4072000 -0.12439879 -0.471170157
4141300 -0.14284937 -0.460619866
4210700 -0.161854803 -0.449057698
4280000 -0.180190294 -0.436530083
4349300 -0.19890733 -0.423146337
4418700 -0.217234477 -0.408662378
4488000 -0.235289439 -0.39269948
4557400 -0.252708584 -0.375546932
4626700 -0.269857287 -0.357277631
4696100 -0.286075294 -0.337365001
4765400 -0.30153957 -0.316924363
4834800 -0.315943449 -0.294966995
4904100 -0.329013556 -0.272458761
4973400 -0.340769827 -0.24909003
5042800 -0.351545214 -0.224963933
5112100 -0.360512822 -0.200157836
5181500 -0.369186252 -0.174683392
5250800 -0.375086545 -0.149112537
5320200 -0.380609124 -0.123521193
5389500 -0.384560406 -0.097355447
5458900 -0.38717699 -0.070851281
5528200 -0.388257563 -0.044331286
5597600 -0.38843432 -0.018245078
5666900 -0.387033432 0.008076748
5736200 -0.384082704 0.033924449
5805600 -0.380428433 0.059688493
5874900 -0.375216841 0.085056893
5944300 -0.369188934 0.110413305
6013600 -0.360998988 0.135211512
6083000 -0.352843761 0.158666208
6152300 -0.343236565 0.183027118
6221700 -0.333082109 0.205977603
6291000 -0.322280764 0.228109359
6360300 -0.30994901 0.249338075
6429700 -0.29825586 0.270040482
6499000 -0.283922821 0.29087767
6568400 -0.26814571 0.310637652
6637700 -0.252386271 0.32881698
6707100 -0.235061123 0.347100496
6776400 -0.217570006 0.364060848
6845800 -0.199892386 0.379958271
6915100 -0.181463018 0.395512402
6984500 -0.162554696 0.409677952
7053845 -0.14355807 0.42378053
7123145 -0.12387412 0.436372429
7192445 -0.104060456 0.448016673
7261845 -0.083593435 0.459188759
7331145 -0.063146948 0.469286084
7400545 -0.042721942 0.479111015
7469845 -0.021633533 0.487810492
7539245 -0.000221514 0.495213925
7608545 0.020716587 0.502706348
7677945 0.042722757 0.50899291
7747245 0.063866704 0.514479517
7816545 0.085675567 0.519109904
7885945 0.107811383 0.523354887
7955245 0.130006715 0.526903569
8024645 0.151930898 0.529653072
8093945 0.174481704 0.531239867
8163345 0.196645855 0.532529413
8232645 0.219455808 0.532713532
8302045 0.241997241 0.531811892
8371345 0.264697074 0.530658185
8440745 0.287265926 0.528237104
8510045 0.310650229 0.525248885
8579345 0.333045393 0.520990252
8648745 0.356000006 0.51575005
8718045 0.378783077 0.509567856
8787445 0.401223421 0.502341508
8856745 0.423343598 0.494176715
8926145 0.445692896 0.484726816
8995445 0.467319339 0.47460103
9064845 0.488557517 0.462723284
9134145 0.508993148 0.450205713
9203445 0.529086589 0.436746716
9272845 0.548288524 0.422065079
9342145 0.566621243 0.406479328
9411545 0.5842821 0.390096843
9480845 0.600995361 0.373104542
9550245 0.615990042 0.355059951
9619545 0.630104005 0.337417542
9688945 0.644082307 0.318906664
9758245 0.656351566 0.299509406
9827645 0.667694687 0.280224114
9896945 0.678326725 0.261036932
9966245 0.687585353 0.241562768
10035645 0.69638133 0.222208976
10104945 0.703561723 0.202011108
10174345 0.710569798 0.182320669
10243645 0.716725349 0.163084521
10313045 0.722164988 0.143726155
10382345 0.726860344 0.124415509
10451745 0.730775356 0.105713829
10521045 0.734350919 0.086486414
10590345 0.736683726 0.067828595
10659745 0.739518821 0.048513405
10729045 0.741243243 0.030099123
10798445 0.742760121 0.01197082
10867745 0.742900848 -0.00652615
10937145 0.743219375 -0.024876981
11006445 0.743228316 -0.042890381
11075845 0.742471098 -0.060724675
11145145 0.741301357 -0.078796826
11214545 0.739798128 -0.096252359
11283845 0.737968802 -0.114352844
11353145 0.735229015 -0.13196437
11422545 0.732316911 -0.149542853
11491845 0.728762507 -0.166753962
11561245 0.724776566 -0.183864399
11630545 0.720482826 -0.201524987
11699945 0.715850412 -0.218188956
11769245 0.710751771 -0.235187143
11838645 0.704461395 -0.251965641
11907945 0.698106586 -0.2682769
11977245 0.691494226 -0.284677416
12046645 0.684011161 -0.301270335
12115945 0.676531612 -0.317111313
12185345 0.66858524 -0.333213269
12254645 0.659879326 -0.349237412
12324045 0.650728225 -0.364770233
12393345 0.641076564 -0.380178481
12462745 0.631285965 -0.395526707
12532045 0.620387136 -0.409951984
12601445 0.609295725 -0.424905985
12670745 0.597770988 -0.438919574
12740045 0.586023151 -0.45322743
12809445 0.573313355 -0.466829985
12878745 0.560746669 -0.480226129
12948145 0.546571314 -0.493341058
13017445 0.532568275 -0.506315708
13086845 0.518008112 -0.518722057
13156145 0.50306791 -0.530681252
13225545 0.487398833 -0.542586028
13294845 0.471376866 -0.553285241
13364145 0.454709768 -0.56403619
13433545 0.43767631 -0.574682772
13502845 0.419939547 -0.584265053
13572245 0.401628941 -0.593494832
13641545 0.382935881 -0.602258861
13710945 0.363373875 -0.610327541
13780245 0.344432741 -0.617565989
13849645 0.324258565 -0.624240756
13918945 0.30344668 -0.630620837
13988345 0.282815039 -0.635695755
14057690 0.260128557 -0.640087187
14126990 0.238523855 -0.644221901
14196290 0.216411307 -0.646740019
14265690 0.192849397 -0.649316012
14334990 0.170683011 -0.650262415
14404390 0.147098332 -0.650257289
14473690 0.122972644 -0.64988017
14543090 0.100849464 -0.647546827
14612390 0.075824454 -0.645172119
14681790 0.051281303 -0.640559613
14751090 0.026751687 -0.635035455
14820390 0.002182341 -0.628680765
14889790 -0.022656964 -0.620759844
14959090 -0.048215109 -0.610962688
15028490 -0.071339614 -0.600363194
15097790 -0.095978975 -0.588972032
15167190 -0.120436355 -0.575461328
15236490 -0.143200874 -0.560682892
15305890 -0.166677296 -0.543671667
15375190 -0.188729643 -0.526541233
15444590 -0.210460871 -0.506407141
15513890 -0.232237383 -0.485118299
15583190 -0.251827985 -0.46197474
15652590 -0.270872861 -0.438589513
15721890 -0.288616895 -0.413381814
15791290 -0.304379463 -0.386926591
15860590 -0.318805664 -0.357762455
15929990 -0.331918507 -0.328535467
15999290 -0.343038737 -0.297929435
16068690 -0.352587878 -0.266490012
16137990 -0.359472006 -0.235230371
16207290 -0.364416629 -0.201185107
16276690 -0.365719944 -0.168388962
16345990 -0.364622861 -0.133221864
16415390 -0.363739937 -0.099945552
16484690 -0.359262764 -0.06508027
16554090 -0.35113123 -0.030348183
16623390 -0.339727789 0.002009093
16692790 -0.32600826 0.033098973
16762090 -0.312355875 0.065936937
16831490 -0.295109152 0.096549488
16900790 -0.27564308 0.124550551
16970090 -0.252140998 0.150207296
17039490 -0.230741173 0.175484314
17108790 -0.205033272 0.199805617
17178190 -0.178232833 0.21992208
17247490 -0.15072599 0.238742724
17316890 -0.122661784 0.25480622
17386190 -0.092771187 0.269049912
17455590 -0.062504693 0.282083302
17524890 -0.030893472 0.293128281
17594190 8.4785e-05 0.301257759
17663590 0.030422249 0.305242687
17732890 0.061516966 0.308669745
17802290 0.095139525 0.310504853
17871590 0.127029687 0.310168236
17940990 0.159096166 0.305304706
18010290 0.188094213 0.299348801
18079690 0.218313634 0.290294796
18148990 0.249126046 0.278169155
18218390 0.276412904 0.266248583
18287690 0.302572518 0.252225607
18356990 0.325525999 0.235672861
18426390 0.348857194 0.218907669
18495690 0.371590733 0.197820529
18565090 0.392144024 0.176790758
18634390 0.409806162 0.153088003
18703790 0.424728691 0.130830869
18773090 0.437706381 0.106712847
18842490 0.449685275 0.082920342
18911790 0.459348797 0.057385224
18981090 0.468095272 0.032005399
19050490 0.470919579 0.007356123
19119790 0.47399491 -0.018594881
19189190 0.476933121 -0.042523939
19258490 0.477282881 -0.066233977
19327890 0.474589496 -0.091522127
19397190 0.471848666 -0.11067181
19466590 0.467202901 -0.133962213
19535890 0.460736125 -0.156346231
19605290 0.453315198 -0.177124649
19674590 0.443455129 -0.197325944
19743890 0.43320322 -0.215115875
19813290 0.422386258 -0.232854694
19882590 0.410210609 -0.251267135
19951990 0.39669156 -0.266515612
20021290 0.383106499 -0.281148731
20090690 0.367809623 -0.293989002
20159990 0.352060168 -0.307410776
20229390 0.335262179 -0.31753993
20298690 0.319776773 -0.326876461
20367990 0.302424401 -0.337073296
20437390 0.283815085 -0.340999811
20506690 0.267840981 -0.348039418
20576090 0.2505804 -0.352897584
20645390 0.23169896 -0.356933116
20714790 0.21458432 -0.359570324
20784090 0.195549458 -0.360825359
20853490 0.179930239 -0.360194355
20922790 0.160666808 -0.358416378
20992190 0.142805591 -0.356466144
21061536 0.136229097 -0.350823074
21130836 0.121212206 -0.347445964
21200136 0.1021301 -0.341004461
21269536 0.087744541 -0.335301369
21338836 0.070788368 -0.326347649
21408236 0.05628851 -0.319212496
21477536 0.040816392 -0.311555564
21546936 0.027070969 -0.299398064
21616236 0.014334402 -0.288307428
21685636 0.002095713 -0.274556785
21754936 -0.011174332 -0.261540889
21824236 -0.020596891 -0.249174982
21893636 -0.031237144 -0.233758836
21962936 -0.039665285 -0.217693015
22032336 -0.047740753 -0.201801031
22101636 -0.054210163 -0.184493571
22171036 -0.059889633 -0.16723591
22240336 -0.063810579 -0.148702144
22309736 -0.06681104 -0.129854485
22379036 -0.067860037 -0.110677987
22448436 -0.067948833 -0.091829419
22517736 -0.067626528 -0.07203377
22587036 -0.062536001 -0.05206982
22656436 -0.058585949 -0.032303035
22725736 -0.051823195 -0.014454231
22795136 -0.043831877 0.004332898
22864436 -0.033996257 0.022301679
22933836 -0.022043071 0.039075925
23003136 -0.0094722 0.05512686
23072536 0.00456126 0.069307602
23141836 0.019453763 0.082674778
23211136 0.035905081 0.094859704
23280536 0.053048823 0.105622313
23349836 0.070372365 0.114512652
23419236 0.089050024 0.12100666
23488536 0.107141122 0.127014428
23557936 0.125231266 0.130239546
23627236 0.142991349 0.133138135
23696636 0.161519572 0.134397879
23765936 0.178926184 0.133901193
23835336 0.196553289 0.133165463
23904636 0.212947309 0.130670964
23973936 0.227481931 0.127526253
24043336 0.243405148 0.12346661
24112636 0.258052557 0.118642888
24182036 0.27179113 0.113350003
24251336 0.28511697 0.107417218
24320736 0.297876507 0.100644581
24390036 0.309814333 0.094001658
24459436 0.321170449 0.086437448
24528736 0.332146883 0.079039052
24598036 0.342336177 0.071309953
24667436 0.352387666 0.063082486
24736736 0.361600816 0.054921347
24806136 0.370244294 0.046296514
24875436 0.378925383 0.037515059
24944836 0.386434376 0.028365274
25014136 0.394067585 0.019589012
25083536 0.400699496 0.010569349
25152836 0.407138377 0.001092639
25222236 0.413324683 -0.008358128
25291536 0.419304132 -0.017507871
25360836 0.424289405 -0.027431299
25430236 0.429732322 -0.03631518
25499536 0.434286355 -0.046171456
25568936 0.438551753 -0.055565651
25638236 0.44246453 -0.065183594
25707636 0.446017473 -0.074902504
25776936 0.449491649 -0.08423493
25846336 0.452262789 -0.094215855
25915636 0.45488277 -0.103716127
25984936 0.457537233 -0.11353214
26054336 0.459360212 -0.12318933
26123636 0.461166411 -0.132574886
26193036 0.462427556 -0.142558708
26262336 0.463610589 -0.151892349
26331736 0.464610964 -0.161260053
26401036 0.465161323 -0.170441493
26470436 0.465610891 -0.180182322
26539736 0.465682566 -0.189591541
26609136 0.465826004 -0.198885247
26678436 0.465210646 -0.207946255
26747736 0.46468383 -0.216969206
26817136 0.463656306 -0.225980997
26886436 0.462527334 -0.23528631
26955836 0.461342602 -0.243839189
27025136 0.459869712 -0.252790898
27094536 0.457929044 -0.261787563
27163836 0.456170946 -0.270315647
27233236 0.453718036 -0.278993129
27302536 0.451281636 -0.287424236
27371836 0.448466986 -0.295462399
27441236 0.445774734 -0.303902596
27510536 0.442385822 -0.311800718
27579936 0.439634501 -0.31981486
27649236 0.436107814 -0.327587425
27718636 0.432488322 -0.335576802
27787936 0.428642928 -0.343425482
27857336 0.424379318 -0.350890457
27926636 0.420488148 -0.358337223
27996036 0.416374742 -0.365487009
28065380 0.411875009 -0.372388422
28134680 0.407190859 -0.379446893
28203980 0.40210092 -0.386326193
28273380 0.397479712 -0.392724186
28342680 0.392610251 -0.39972645
28412080 0.387356698 -0.405900359
28481380 0.382019609 -0.412065207
28550780 0.376485288 -0.418232947
28620080 0.370622873 -0.424310475
28689480 0.36517775 -0.430256068
28758780 0.359128147 -0.43519926
28828080 0.353032708 -0.441040992
28897480 0.34716162 -0.446359932
28966780 0.340786725 -0.451081126
29036180 0.334358006 -0.455642014
29105480 0.327863395 -0.460584402
29174880 0.321317762 -0.464976459
29244180 0.314916342 -0.469661742
29313580 0.308392524 -0.473687767
29382880 0.301336735 -0.477745234
29452280 0.294371515 -0.481027126
29521580 0.287548363 -0.484657078
29590880 0.280411571 -0.488332122
29660280 0.273602157 -0.491587191
29729580 0.266275793 -0.494572758
29798980 0.259290218 -0.497261524
29868280 0.252030044 -0.499914079
29937680 0.244800284 -0.502233564
30006980 0.23739773 -0.504719734
30076380 0.230234667 -0.506236672
30145680 0.222807735 -0.508092522
30214980 0.215511918 -0.509912192
30284380 0.208236783 -0.511109113
30353680 0.200813278 -0.512132525
30423080 0.193160116 -0.513257026
30492380 0.185903459 -0.513710737
30561780 0.178891286 -0.514388263
30631080 0.171454071 -0.514626622
30700480 0.164081126 -0.515045583
30769780 0.157062694 -0.514915049
30839180 0.14949043 -0.514337778
30908480 0.143142417 -0.514118254
30977780 0.135489448 -0.51326406
31047180 0.12883915 -0.512266755
31116480 0.121828824 -0.51138091
31185880 0.114738166 -0.509579479
31255180 0.108282342 -0.508309543
31324580 0.101594224 -0.506860792
31393880 0.0950514 -0.505175888
31463280 0.08848381 -0.503068804
31532580 0.082276575 -0.500684738
31601880 0.075520731 -0.497868597
31671280 0.069362096 -0.495512604
31740580 0.063572861 -0.492901712
31809980 0.057563547 -0.48973757
31879280 0.051937643 -0.486924499
31948680 0.046436697 -0.483598679
32017980 0.040764972 -0.48016563
32087380 0.035479288 -0.476712763
32156680 0.030372833 -0.472571969
32226080 0.025330092 -0.469049751
32295380 0.020817967 -0.465142101
32364680 0.016274644 -0.460796803
32434080 0.011604602 -0.456596195
32503380 0.00709093 -0.452747166
32572780 0.003137525 -0.447704434
32642080 -0.000832548 -0.443835943
32711480 -0.004401654 -0.439092516
32780780 -0.007633057 -0.434417903
32850180 -0.011300818 -0.429589688
32919480 -0.014269684 -0.424722224
32988780 -0.01705549 -0.41982904
33058180 -0.020279571 -0.415067702
33127480 -0.022658843 -0.410054981
33196880 -0.024811131 -0.404918164
33266180 -0.026926739 -0.400054156
33335580 -0.028443964 -0.394645273
33404880 -0.030659982 -0.389771074
33474280 -0.031695712 -0.384295612
33543580 -0.03293699 -0.379106342
33612980 -0.034209739 -0.373764932
33682280 -0.034826945 -0.369081079
33751580 -0.035595454 -0.36408928
33820980 -0.036136336 -0.358929961
33890280 -0.036495968 -0.353898614
33959680 -0.03629776 -0.348735749
34028980 -0.036361955 -0.343387752
34098380 -0.036008249 -0.338609218
34167680 -0.035140678 -0.334046721
34237080 -0.034310173 -0.329193562
34306380 -0.032874472 -0.324319779
34375680 -0.031934332 -0.319660633
34445080 -0.03074273 -0.315184235
34514380 -0.028600161 -0.310525357
34583780 -0.02701156 -0.30652222
34653080 -0.02464837 -0.302126914
34722480 -0.022578833 -0.298184007
34791780 -0.020158812 -0.293638497
34861180 -0.017602864 -0.290350824
34930480 -0.01500695 -0.28640443
34999880 -0.012486168 -0.282845944
