# Hz S RI R 50
50000 0.693233966 0.002775837
299500 0.724903762 -0.061408188
549000 0.722932159 -0.140539407
798500 0.708783268 -0.210118815
1048000 0.689322352 -0.284788161
1297500 0.654731631 -0.358212202
1547000 0.609157621 -0.424565702
1796500 0.554687678 -0.482870429
2046000 0.494558662 -0.531847119
2295500 0.430367022 -0.572873651
2545000 0.363629758 -0.604896485
2794500 0.294974118 -0.628900706
3044000 0.225758969 -0.645378232
3293500 0.156635388 -0.655189394
3543000 0.08944004 -0.658768951
3792500 0.022993393 -0.659057259
4042000 -0.044929675 -0.656224191
4291500 -0.117391534 -0.648074984
4541000 -0.194912999 -0.632042884
4790500 -0.274109572 -0.603419601
5040000 -0.352324634 -0.561395645
5289500 -0.426261961 -0.506371319
5539000 -0.493615984 -0.438881546
5788500 -0.55245608 -0.359357535
6038000 -0.600570738 -0.267479091
6287500 -0.636540472 -0.166656389
6537000 -0.654993236 -0.055050499
6786500 -0.646297991 0.06767904
7036000 -0.610955178 0.18977712
7285500 -0.54457581 0.304819613
7535000 -0.446772515 0.400342315
7784500 -0.324297964 0.462032437
8034000 -0.192542687 0.482037693
8283500 -0.069591157 0.457074284
8533000 0.027289295 0.398947715
8782500 0.089684225 0.322501242
9032000 0.117825187 0.243346273
9281500 0.118619084 0.17352949
9531000 0.100676916 0.119038946
9780500 0.072257027 0.081159092
10030000 0.040728829 0.059185087
10279500 0.008613663 0.049834147
10529000 -0.019960971 0.050797581
10778500 -0.044093232 0.058887157
11028000 -0.063256949 0.072892412
11277500 -0.077270701 0.090321131
11527000 -0.086933806 0.110330782
11776500 -0.090979434 0.13105081
12026000 -0.091230213 0.151805117
12275500 -0.087608434 0.171518325
12525000 -0.081651642 0.190458685
12774500 -0.072633221 0.207430675
13024000 -0.062321223 0.223100617
13273500 -0.050175707 0.236995428
13523000 -0.036734681 0.248783215
13772500 -0.023100351 0.259126693
14022000 -0.008977061 0.267022132
14271500 0.004834916 0.273141086
14521000 0.017781618 0.27830258
14770500 0.030639892 0.281539022
15020000 0.041062418 0.283484399
15269500 0.050774876 0.2848607
15519000 0.057864673 0.285196214
15768500 0.061902906 0.28700599
16018000 0.062266509 0.290082782
16267500 0.058780554 0.297687113
16517000 0.053570553 0.313005894
16766500 0.049099158 0.338095366
17016000 0.051103137 0.374206751
17265500 0.067698843 0.415877163
17515000 0.100797444 0.459585815
17764500 0.149086147 0.495104193
18014000 0.210044831 0.519597709
18263500 0.277687937 0.524649441
18513000 0.342083543 0.513382911
18762500 0.398911654 0.488866567
19012000 0.443267554 0.456566065
19261500 0.480495601 0.422513633
19511000 0.510049819 0.385840952
19760500 0.532718002 0.351149857
20010000 0.552293181 0.317179918
20259500 0.566275656 0.284513294
20509000 0.577844321 0.252863854
20758500 0.585729062 0.22264783
21008000 0.592259705 0.193360298
21257500 0.596011996 0.166961416
21507000 0.597652077 0.141580075
21756500 0.597591638 0.118314623
22006000 0.595974445 0.0982894
22255500 0.594134032 0.080258704
22505000 0.592172026 0.066088624
22754500 0.59183067 0.05552759
23004000 0.595230162 0.047518949
23253500 0.604319632 0.041873857
23503000 0.620030879 0.034515202
23752500 0.642062008 0.020565971
24002000 0.665632724 -0.001180559
24251500 0.686692059 -0.033391434
24501000 0.702082097 -0.071668252
24750500 0.709709286 -0.113017678
25000000 0.710196077 -0.154807299
