# Hz S RI R 50
50000 0.683452486 0.003640436
199500 0.707691431 -0.030665531
349000 0.71795684 -0.078032493
498500 0.716614246 -0.126708135
648000 0.707957506 -0.171489298
797500 0.700055539 -0.213782235
947000 0.690160572 -0.259194493
1096500 0.674044728 -0.305389076
1246000 0.652920007 -0.350645303
1395500 0.627376675 -0.393691986
1545000 0.597556531 -0.433280706
1694500 0.564810395 -0.47028473
1844000 0.529055953 -0.503937244
1993500 0.491382986 -0.534079432
2143000 0.452270895 -0.56109482
2292500 0.411718934 -0.584423184
2442000 0.369777649 -0.604816854
2591500 0.326584696 -0.621859788
2741000 0.283859461 -0.635554671
2890500 0.240475669 -0.645796716
3040000 0.196561157 -0.653075873
3189500 0.153783023 -0.657378494
3339000 0.111080132 -0.659186005
3488500 0.070132657 -0.658315181
3638000 0.029573459 -0.65567696
3787500 -0.010447063 -0.651619434
3937000 -0.049961246 -0.646959364
4086500 -0.090370014 -0.640916287
4236000 -0.13204053 -0.633061408
4385500 -0.175303474 -0.622144341
4535000 -0.219360053 -0.607500553
4684500 -0.263699978 -0.588807821
4834000 -0.306942701 -0.565513253
4983500 -0.349112778 -0.536927402
5133000 -0.387921541 -0.503978908
5282500 -0.425025284 -0.467687547
5432000 -0.458201736 -0.42730692
5581500 -0.487692266 -0.383745908
5731000 -0.513019025 -0.337147563
5880500 -0.53326261 -0.2877945
6030000 -0.549783051 -0.236133337
6179500 -0.559522747 -0.183392465
6329000 -0.565505445 -0.131453394
6478500 -0.565037965 -0.078413635
6628000 -0.556564807 -0.022819409
6777500 -0.541066646 0.030595025
6927000 -0.519592404 0.080903403
7076500 -0.491718679 0.127627119
7226000 -0.458229094 0.169712275
7375500 -0.419015944 0.205214738
7525000 -0.375602275 0.234099254
7674500 -0.329573541 0.255386531
7824000 -0.282161563 0.267292529
7973500 -0.234656989 0.27070415
8123000 -0.190558761 0.265001773
8272500 -0.150479435 0.251949787
8422000 -0.115816742 0.231713026
8571500 -0.088125914 0.206637784
8721000 -0.069152139 0.177853524
8870500 -0.058016523 0.148256778
9020000 -0.054341815 0.118540406
9169500 -0.058358877 0.090739622
9319000 -0.068098463 0.067284733
9468500 -0.083282813 0.047697246
9618000 -0.102273359 0.033897474
9767500 -0.122698038 0.025168854
9917000 -0.145113095 0.021381637
10066500 -0.167461901 0.022867195
10216000 -0.189126327 0.028653398
10365500 -0.209146916 0.038944061
10515000 -0.227425709 0.052583202
10664500 -0.243426725 0.068856678
10814000 -0.256746381 0.08757577
10963500 -0.26773262 0.108150094
11113000 -0.275866836 0.130267918
11262500 -0.280858874 0.153129026
11412000 -0.283830374 0.176805391
11561500 -0.284071028 0.200268104
11711000 -0.281977415 0.22355698
11860500 -0.277692109 0.247294813
12010000 -0.270837783 0.269793957
12159500 -0.262505352 0.291591286
12309000 -0.251826077 0.312691301
12458500 -0.240292161 0.332009077
12608000 -0.227388635 0.350501596
12757500 -0.212918072 0.367860645
12907000 -0.197870343 0.38389343
13056500 -0.181916221 0.39870125
13206000 -0.165081992 0.412387341
13355500 -0.147594958 0.424978047
13505000 -0.129900664 0.436029076
13654500 -0.111293829 0.445619076
13804000 -0.092766433 0.454227954
13953500 -0.074108831 0.46177712
14103000 -0.055567696 0.46750319
14252500 -0.036449529 0.472703486
14402000 -0.018057076 0.476168334
14551500 0.0001386 0.478987127
14701000 0.018269112 0.480067223
14850500 0.036531146 0.480563342
15000000 0.052821427 0.480234771
