# Hz S RI R 50
50000 0.470352798 0.328225135
199500 0.735167562 0.173131138
349000 0.808891534 0.085866525
498500 0.84544909 0.013231502
648000 0.864967644 -0.053893666
797500 0.873482942 -0.11775469
947000 0.8738572 -0.179439336
1096500 0.867040097 -0.240190684
1246000 0.854191303 -0.300307661
1395500 0.834227383 -0.358037114
1545000 0.808388173 -0.415040135
1694500 0.775089263 -0.469734013
1844000 0.735454678 -0.521266043
1993500 0.687430024 -0.568451821
2143000 0.632136583 -0.60926932
2292500 0.568651735 -0.640710055
2442000 0.500549197 -0.658758699
2591500 0.432336121 -0.661124467
2741000 0.371401548 -0.647239327
2890500 0.325868219 -0.622980296
3040000 0.297093629 -0.598604559
3189500 0.279330193 -0.582814931
3339000 0.26334083 -0.576360166
3488500 0.244038447 -0.575251996
3638000 0.221390038 -0.573824644
3787500 0.198453471 -0.570045173
3937000 0.177550911 -0.564218521
4086500 0.160364672 -0.560065984
4236000 0.144399881 -0.558785796
4385500 0.12757267 -0.561972439
4535000 0.107041373 -0.567452609
4684500 0.08157026 -0.573231995
4834000 0.051772512 -0.577711164
4983500 0.018066046 -0.57775706
5133000 -0.018422603 -0.573602795
5282500 -0.055970858 -0.563593506
5432000 -0.092867918 -0.547497391
5581500 -0.127579048 -0.525466263
5731000 -0.158968955 -0.49746102
5880500 -0.184435963 -0.46528238
6030000 -0.203860864 -0.429920583
6179500 -0.215474039 -0.394548386
6329000 -0.219002917 -0.360882759
6478500 -0.216583058 -0.330516904
6628000 -0.207451716 -0.303380191
6777500 -0.194671526 -0.283697247
6927000 -0.181213557 -0.272905915
7076500 -0.169634893 -0.270780444
7226000 -0.163996979 -0.274834841
7375500 -0.165497899 -0.282240748
7525000 -0.173966944 -0.290709704
7674500 -0.190022781 -0.296561568
7824000 -0.211332395 -0.29816997
7973500 -0.235688641 -0.29328829
8123000 -0.2605443 -0.282557576
8272500 -0.283331185 -0.266181617
8422000 -0.303717941 -0.246476754
8571500 -0.319790422 -0.2238653
8721000 -0.333124727 -0.201141655
8870500 -0.34373039 -0.178245037
9020000 -0.353733628 -0.156259432
9169500 -0.36325097 -0.134868577
9319000 -0.372743874 -0.112816348
9468500 -0.383331835 -0.088830597
9618000 -0.392528384 -0.061993148
9767500 -0.400342434 -0.033124718
9917000 -0.405362099 -0.002135474
10066500 -0.407066911 0.031037209
10216000 -0.404835999 0.064881153
10365500 -0.398508071 0.098255656
10515000 -0.388027995 0.130091592
10664500 -0.374251604 0.160465151
10814000 -0.357993096 0.18791376
10963500 -0.340205162 0.21241109
11113000 -0.320295244 0.23409751
11262500 -0.300566643 0.252423584
11412000 -0.280619114 0.268330186
11561500 -0.26176241 0.281987398
11711000 -0.244178742 0.294570535
11860500 -0.227500423 0.305729806
12010000 -0.211616277 0.316845804
12159500 -0.196866363 0.32783398
12309000 -0.182170346 0.339593857
12458500 -0.166480064 0.351514369
12608000 -0.150374844 0.364416182
12757500 -0.132102355 0.376395314
12907000 -0.113204911 0.387903332
13056500 -0.092257797 0.398364722
13206000 -0.070339553 0.407174527
13355500 -0.046755578 0.413258969
13505000 -0.023201579 0.416940182
13654500 -0.000408906 0.418338149
13804000 0.02095461 0.417325049
13953500 0.04146257 0.413947731
14103000 0.059623349 0.409911841
14252500 0.074942737 0.405211508
14402000 0.088795855 0.40058875
14551500 0.100463002 0.396768748
14701000 0.111565396 0.395264148
14850500 0.121554955 0.394709855
15000000 0.133197456 0.397025197
