# Hz S RI R 50
50000 0.692646265 0.002755476
199500 0.717562139 -0.03100204
349000 0.727188646 -0.077075459
498500 0.725867331 -0.124625846
648000 0.717850089 -0.168582692
797500 0.709363639 -0.209506705
947000 0.70009607 -0.253911852
1096500 0.68445748 -0.29918912
1246000 0.663790881 -0.343295097
1395500 0.638776361 -0.384882897
1545000 0.610220611 -0.423871725
1694500 0.578629791 -0.459492146
1844000 0.544004738 -0.49246487
1993500 0.50852108 -0.522192716
2143000 0.470959514 -0.548312425
2292500 0.432286471 -0.571706891
2442000 0.392315745 -0.592074632
2591500 0.351742595 -0.609604656
2741000 0.311179935 -0.623883068
2890500 0.269388139 -0.635710299
3040000 0.227898374 -0.644913971
3189500 0.186342701 -0.651611268
3339000 0.145596578 -0.655495226
3488500 0.105146422 -0.658138811
3638000 0.066090628 -0.658679544
3787500 0.026203865 -0.658462524
3937000 -0.01396523 -0.657237768
4086500 -0.055744372 -0.654700815
4236000 -0.099249564 -0.650472342
4385500 -0.144141137 -0.643416643
4535000 -0.191320553 -0.63275665
4684500 -0.238995507 -0.617196083
4834000 -0.286876171 -0.597585022
4983500 -0.333538919 -0.572311937
5133000 -0.379031151 -0.542515695
5282500 -0.422868251 -0.508673727
5432000 -0.464384078 -0.469729036
5581500 -0.502975344 -0.426812976
5731000 -0.538437068 -0.37934786
5880500 -0.570532023 -0.327740758
6030000 -0.598293006 -0.271477967
6179500 -0.621698915 -0.211485624
6329000 -0.640310287 -0.149894773
6478500 -0.65179944 -0.083657085
6628000 -0.653962314 -0.011413799
6777500 -0.646047532 0.062456209
6927000 -0.629471957 0.136443525
7076500 -0.601437449 0.208988547
7226000 -0.562047958 0.278920084
7375500 -0.51172626 0.342171251
7525000 -0.450156062 0.396842479
7674500 -0.37933889 0.439807265
7824000 -0.302582174 0.468304157
7973500 -0.22289662 0.480543792
8123000 -0.14529787 0.477139264
8272500 -0.07369633 0.458485484
8422000 -0.011058209 0.427779287
8571500 0.039803095 0.387242466
8721000 0.078031383 0.341960877
8870500 0.103911176 0.294126391
9020000 0.117771156 0.247393459
9169500 0.121747061 0.203924819
9319000 0.118054032 0.165408372
9468500 0.107795827 0.131845414
9618000 0.093343861 0.105245076
9767500 0.076038338 0.084015026
9917000 0.05733579 0.068411827
10066500 0.038330856 0.057775069
10216000 0.019462097 0.051757965
10365500 0.001652471 0.049150593
10515000 -0.015001443 0.050717428
10664500 -0.030072003 0.054463446
10814000 -0.043389279 0.060371443
10963500 -0.055254328 0.06796462
11113000 -0.065032728 0.077511191
11262500 -0.072625331 0.088027536
11412000 -0.079116657 0.099459238
11561500 -0.083718933 0.111297115
11711000 -0.08663436 0.12320128
11860500 -0.088010236 0.135553598
12010000 -0.087705239 0.147738397
12159500 -0.086575858 0.159438878
12309000 -0.084288269 0.171417489
12458500 -0.080755695 0.182226046
12608000 -0.076304949 0.19266498
12757500 -0.070896014 0.203271627
12907000 -0.065358176 0.212608322
13056500 -0.058600708 0.221395239
13206000 -0.052020452 0.229745566
13355500 -0.04454901 0.237235531
13505000 -0.036970354 0.243907868
13654500 -0.028549565 0.250608474
13804000 -0.020371107 0.256293952
13953500 -0.012083912 0.261401385
14103000 -0.004362487 0.265875011
14252500 0.003752363 0.269460111
14402000 0.011928887 0.272575557
14551500 0.019083527 0.275220096
14701000 0.02688595 0.277921885
14850500 0.033897235 0.279677957
15000000 0.040988318 0.280574351
