# Hz S RI R 50
50000 -0.11575178 0.761274099
69700 0.124008327 0.797875881
89500 0.311935782 0.783083796
109300 0.454781442 0.742647588
129000 0.562296748 0.694422662
148800 0.64459747 0.64393121
168600 0.707685589 0.595039069
188400 0.756820559 0.549982428
208100 0.795197486 0.508682727
227900 0.826313078 0.470989704
247700 0.851467251 0.436654448
267400 0.871993601 0.405547678
287200 0.889072477 0.377135634
307000 0.903402566 0.3511146
326800 0.915602803 0.327090263
346500 0.925794124 0.305216759
366300 0.934454143 0.28473553
386100 0.942043066 0.265916258
405800 0.948551058 0.24845156
425600 0.954329013 0.231888353
445400 0.959194064 0.216575309
465200 0.963472306 0.201965317
484900 0.967467248 0.188370943
504700 0.970998764 0.175408348
524500 0.973734319 0.162962123
544300 0.976511716 0.151228472
564000 0.978945553 0.140159115
583800 0.980832338 0.129613071
603600 0.982914209 0.119304858
623300 0.984700977 0.109554156
643100 0.985945999 0.100065022
662900 0.987466871 0.090888574
682700 0.988514423 0.082246147
702400 0.989693999 0.073872849
722200 0.990542173 0.065699785
742000 0.991468489 0.057721693
761700 0.992137193 0.050106789
781500 0.992847204 0.042623486
801300 0.993360459 0.035218473
821100 0.99377346 0.028137411
840800 0.994320869 0.021411282
860600 0.994514763 0.014586763
880400 0.994777202 0.008056434
900100 0.995110213 0.001638044
919900 0.995231568 -0.004506365
939700 0.995318293 -0.010774871
959500 0.995456993 -0.016784051
979200 0.995507121 -0.022558072
999000 0.995260119 -0.0284813
1018800 0.995421886 -0.034400161
1038600 0.995278477 -0.040041979
1058300 0.99510622 -0.045715719
1078100 0.99499613 -0.050975199
1097900 0.994811415 -0.056442089
1117600 0.994627594 -0.06158971
1137400 0.994430065 -0.066853977
1157200 0.99401164 -0.07202956
1177000 0.993751645 -0.077142298
1196700 0.993630945 -0.082107871
1216500 0.993148028 -0.087083809
1236300 0.99279648 -0.092128157
1256000 0.992511987 -0.0968097
1275800 0.992013752 -0.101559139
1295600 0.991649031 -0.106209434
1315400 0.991089165 -0.110995478
1335100 0.990728139 -0.115434437
1354900 0.990033268 -0.12012159
1374700 0.989706635 -0.124685741
1394400 0.989090621 -0.129191398
1414200 0.988500475 -0.133786141
1434000 0.987841725 -0.138229876
1453800 0.987175524 -0.142469257
1473500 0.986889123 -0.147054761
1493300 0.986029744 -0.151307791
1513100 0.985472857 -0.155553996
1532900 0.984735727 -0.159678384
1552600 0.984110832 -0.163943275
1572400 0.983432769 -0.168145403
1592200 0.982818245 -0.17216134
1611900 0.982056438 -0.176389381
1631700 0.981315553 -0.180587753
1651500 0.980723142 -0.184501469
1671300 0.979691386 -0.188828542
1691000 0.979184806 -0.192595764
1710800 0.978251218 -0.196741729
1730600 0.977473437 -0.200625881
1750300 0.976645708 -0.2045037
1770100 0.975708425 -0.208451554
1789900 0.974937558 -0.212451368
1809700 0.974139392 -0.216366395
1829400 0.973306834 -0.220234796
1849200 0.972485065 -0.224038943
1869000 0.971355974 -0.227961286
1888700 0.970742225 -0.231760621
1908500 0.969903051 -0.235564783
1928300 0.968666255 -0.239272296
1948100 0.96782279 -0.243081986
1967800 0.966805934 -0.246911987
1987600 0.965922236 -0.250731915
2007400 0.964961469 -0.254388898
2027200 0.963952541 -0.25789076
2046972 0.962973535 -0.261837154
2066672 0.962088704 -0.265410721
2086472 0.960925757 -0.269123554
2106272 0.959831714 -0.272602736
2125972 0.959089756 -0.276254653
2145772 0.957991659 -0.279881834
2165572 0.957053184 -0.283199459
2185372 0.95607078 -0.286785423
2205072 0.954945921 -0.290630221
2224872 0.953655362 -0.294023275
2244672 0.95254606 -0.297788143
2264372 0.951239347 -0.301164567
2284172 0.950155198 -0.304769247
2303972 0.949055135 -0.308297991
2323772 0.94781804 -0.311667919
2343472 0.946623325 -0.315151959
2363272 0.945511162 -0.318671464
2383072 0.944350063 -0.322010785
2402772 0.943058609 -0.325670599
2422572 0.94185841 -0.328950822
2442372 0.94080317 -0.332662284
2462172 0.939303338 -0.335678577
2481872 0.93808335 -0.339225828
2501672 0.93692696 -0.342625349
2521472 0.935571193 -0.345911204
2541272 0.934230983 -0.349448323
2560972 0.932970821 -0.352513819
2580772 0.931700348 -0.356032043
2600572 0.930456578 -0.359281659
2620272 0.929093301 -0.362665235
2640072 0.927710175 -0.366057395
2659872 0.926526069 -0.369335085
2679672 0.925160646 -0.372714757
2699372 0.92376399 -0.375846415
2719172 0.922418653 -0.379350811
2738972 0.92098236 -0.382579773
2758672 0.919528961 -0.385738492
2778472 0.91804862 -0.388927012
2798272 0.916888594 -0.392139852
2818072 0.915382087 -0.395332336
2837772 0.913807809 -0.398748993
2857572 0.912355065 -0.401655465
2877372 0.911024332 -0.405159682
2897072 0.909621655 -0.408180236
2916872 0.908033967 -0.411457031
2936672 0.906778097 -0.414724826
2956472 0.905004918 -0.417733192
2976172 0.903587043 -0.420911371
2995972 0.901823461 -0.424152821
3015772 0.900649726 -0.427263259
3035572 0.89904499 -0.430492699
3055272 0.897672772 -0.43349272
3075072 0.895777702 -0.436632275
3094872 0.894283354 -0.439551472
3114572 0.892835795 -0.44290173
3134372 0.891117215 -0.445827722
3154172 0.889590501 -0.448944836
3173972 0.888073205 -0.452189594
3193672 0.886293768 -0.45509994
3213472 0.884876489 -0.458238601
3233272 0.883045494 -0.46128422
3252972 0.881537199 -0.464088559
3272772 0.879768371 -0.467459052
3292572 0.878034055 -0.470285147
3312372 0.876546561 -0.473391681
3332072 0.874753177 -0.476635277
3351872 0.873015046 -0.479385882
3371672 0.871423602 -0.482444405
3391372 0.869610011 -0.485362231
3411172 0.86802268 -0.488521814
3430972 0.866179049 -0.491183608
3450772 0.864521861 -0.494145572
3470472 0.862820088 -0.497263669
3490272 0.861209213 -0.500104427
3510072 0.859106957 -0.503267586
3529872 0.857401311 -0.506018698
3549572 0.855757355 -0.508874297
3569372 0.853837609 -0.511998951
3589172 0.852002441 -0.51467818
3608872 0.850161135 -0.517594993
3628672 0.848389744 -0.520685255
3648472 0.846522271 -0.52342391
3668272 0.84460926 -0.526359796
3687972 0.843062102 -0.529193758
3707772 0.840842306 -0.531977891
3727572 0.839204311 -0.534781575
3747272 0.836996436 -0.537672936
3767072 0.835382521 -0.540362775
3786872 0.83343482 -0.543469905
3806672 0.831260442 -0.546340584
3826372 0.829557299 -0.548874258
3846172 0.827510893 -0.551976442
3865972 0.82566148 -0.554606199
3885672 0.82364732 -0.557432711
3905472 0.821785748 -0.56011033
3925272 0.819717943 -0.562967419
3945072 0.817535698 -0.565793275
3964772 0.815715849 -0.568376958
3984572 0.81381756 -0.57121551
4004372 0.811854481 -0.574025094
4024172 0.809706985 -0.576811909
4043944 0.807819902 -0.579436361
4063644 0.805553019 -0.581983625
4083444 0.803614854 -0.584970057
4103244 0.801368057 -0.587598979
4122944 0.799521148 -0.590123116
4142744 0.797275125 -0.59307909
4162544 0.795452594 -0.595664501
4182344 0.793109536 -0.598263561
4202044 0.791285812 -0.600939631
4221844 0.789023339 -0.60364747
4241644 0.786725759 -0.605908274
4261344 0.784901082 -0.609083592
4281144 0.782593011 -0.611569166
4300944 0.780550479 -0.614084362
4320744 0.778439044 -0.61683911
4340444 0.776011824 -0.619436919
4360244 0.77394694 -0.621946156
4380044 0.77193427 -0.624426364
4399744 0.769780695 -0.62710911
4419544 0.767454326 -0.629738986
4439344 0.765162825 -0.632144451
4459144 0.762980878 -0.634808659
4478844 0.760546624 -0.637354135
4498644 0.758609712 -0.640007793
4518444 0.756176769 -0.642230153
4538244 0.754000127 -0.644962012
4557944 0.751814663 -0.647549748
4577744 0.749667406 -0.649951875
4597544 0.747245311 -0.652370989
4617244 0.744898855 -0.654827833
4637044 0.742732107 -0.657283604
4656844 0.740318655 -0.659996569
4676644 0.73799467 -0.662257313
4696344 0.735712587 -0.664853811
4716144 0.733257055 -0.667075693
4735944 0.731081783 -0.669671893
4755644 0.728721559 -0.672018408
4775444 0.726341128 -0.67430675
4795244 0.724091947 -0.676849901
4815044 0.721680581 -0.679388284
4834744 0.719333827 -0.681804656
4854544 0.716988742 -0.684086143
4874344 0.714439988 -0.686343491
4894044 0.712131023 -0.68874222
4913844 0.709637045 -0.691178977
4933644 0.707323551 -0.693486988
4953444 0.704875886 -0.695872187
4973144 0.702234387 -0.698160946
4992944 0.699896991 -0.700380206
5012744 0.697450757 -0.702634632
5032544 0.695002853 -0.704901516
5052244 0.692600846 -0.707238256
5072044 0.689908683 -0.7095775
5091844 0.687365889 -0.711833536
5111544 0.68507415 -0.714152574
5131344 0.682399749 -0.716442584
5151144 0.680066108 -0.718587517
5170944 0.677362024 -0.72088027
5190644 0.675004601 -0.723036408
5210444 0.67249757 -0.725332856
5230244 0.669671833 -0.72757405
5249944 0.667275726 -0.729773938
5269744 0.66475135 -0.731919348
5289544 0.662318527 -0.734095931
5309344 0.659553468 -0.736449241
5329044 0.656973302 -0.73834443
5348844 0.654369056 -0.74044913
5368644 0.651787698 -0.742693603
5388344 0.649225413 -0.74487102
5408144 0.646626651 -0.747041702
5427944 0.643940031 -0.74907732
5447744 0.641420304 -0.751237034
5467444 0.638766229 -0.753196477
5487244 0.636162459 -0.755497395
5507044 0.633328378 -0.757358312
5526844 0.630722045 -0.759427368
5546544 0.628350675 -0.761533081
5566344 0.625359058 -0.763372719
5586144 0.622684776 -0.765650212
5605844 0.61997348 -0.767492353
5625644 0.617208123 -0.76953572
5645444 0.614651501 -0.771717727
5665244 0.61186552 -0.773526489
5684944 0.609350562 -0.775733649
5704744 0.606469392 -0.777457058
5724544 0.603781878 -0.779629945
5744244 0.601107954 -0.781530737
5764044 0.598279774 -0.783505737
5783844 0.595580756 -0.785370349
5803644 0.592831134 -0.787325799
5823344 0.590006113 -0.789217054
5843144 0.587040603 -0.79113233
5862944 0.584388196 -0.792872965
5882644 0.581658482 -0.7949391
5902444 0.578722059 -0.796698927
5922244 0.575986802 -0.798631668
5942044 0.573022902 -0.800421059
5961744 0.570422768 -0.802264571
5981544 0.567444622 -0.804370403
6001344 0.564817547 -0.806129217
6021144 0.561857223 -0.80810666
6040916 0.559092164 -0.809951961
6060616 0.556129336 -0.811794817
6080416 0.553242564 -0.813773572
6100216 0.550223171 -0.815536499
6119916 0.547587633 -0.817449629
6139716 0.544613003 -0.819391548
6159516 0.541776955 -0.821282029
6179316 0.539145052 -0.823279857
6199016 0.536139547 -0.825250446
6218816 0.533626973 -0.827143967
6238616 0.530975043 -0.829303503
6258316 0.528340578 -0.831211388
6278116 0.525938212 -0.832820296
6297916 0.523639798 -0.83486092
6317716 0.521263182 -0.836672484
6337416 0.519057273 -0.838536381
6357216 0.516781806 -0.840381503
6377016 0.514290809 -0.842009544
6396716 0.512322545 -0.843848049
6416516 0.509728312 -0.845727384
6436316 0.507596015 -0.847471058
6456116 0.504784524 -0.849276721
6475816 0.501964867 -0.851123511
6495616 0.49923706 -0.852822363
6515416 0.495863109 -0.854689776
6535216 0.492794811 -0.856041193
6554916 0.489515036 -0.857800245
6574716 0.485908985 -0.859288573
6594516 0.482588678 -0.86073023
6614216 0.479303896 -0.862011134
6634016 0.475408762 -0.863589882
6653816 0.472097128 -0.86488229
6673616 0.468557775 -0.86637026
6693316 0.465253055 -0.867489397
6713116 0.461687982 -0.868873059
6732916 0.458275377 -0.87023884
6752616 0.454969912 -0.87149173
6772416 0.451686739 -0.872762501
6792216 0.448352724 -0.874023735
6812016 0.445340424 -0.875162482
6831716 0.441805064 -0.876468658
6851516 0.438459426 -0.87776947
6871316 0.435377061 -0.879100859
6891016 0.4320921 -0.880506813
6910816 0.428880125 -0.881631076
6930616 0.425710737 -0.883008182
6950416 0.422556817 -0.884406566
6970116 0.419193565 -0.885455191
6989916 0.416232258 -0.886685371
7009716 0.412675797 -0.888032376
7029516 0.409760117 -0.889282405
7049216 0.406401127 -0.890583515
7069016 0.403206467 -0.891668856
7088816 0.400098234 -0.892882525
7108516 0.396861493 -0.894077718
7128316 0.393699765 -0.895303785
7148116 0.390345722 -0.896493136
7167916 0.387219905 -0.897649943
7187616 0.384044259 -0.898908853
7207416 0.38078913 -0.89992845
7227216 0.377551913 -0.900968194
7246916 0.374479532 -0.902288734
7266716 0.371029436 -0.90333867
7286516 0.368001818 -0.904586374
7306316 0.364399135 -0.905674159
7326016 0.361402213 -0.906438946
7345816 0.358042091 -0.90788412
7365616 0.354699224 -0.908795475
7385316 0.351663559 -0.909838616
7405116 0.348504394 -0.910858452
7424916 0.344932436 -0.911939978
7444716 0.342026829 -0.912850975
7464416 0.338622272 -0.91407454
7484216 0.335453838 -0.914840459
7504016 0.332151651 -0.915919125
7523816 0.32877618 -0.917023599
7543516 0.325679302 -0.917749941
7563316 0.32237184 -0.919039845
7583116 0.318937063 -0.91982454
7602816 0.315833806 -0.92092818
7622616 0.312352806 -0.921653091
7642416 0.309074282 -0.922596156
7662216 0.305627673 -0.923447191
7681916 0.302732825 -0.92424345
7701716 0.299176245 -0.925254404
7721516 0.295730829 -0.92606014
7741216 0.292716711 -0.927040636
7761016 0.289422392 -0.92776376
7780816 0.286140412 -0.928581178
7800616 0.282587349 -0.92956072
7820316 0.279293894 -0.930345356
7840116 0.276026874 -0.931044161
7859916 0.272648602 -0.931871116
7879616 0.269483685 -0.932570695
7899416 0.26607266 -0.933434367
7919216 0.262846618 -0.934075236
7939016 0.259322911 -0.934763848
7958716 0.256347745 -0.93552649
7978516 0.252711355 -0.936334729
7998316 0.24949488 -0.93695569
8018116 0.245924055 -0.937547087
8037888 0.24283421 -0.938182651
8057588 0.239361628 -0.938925385
8077388 0.235941559 -0.939384758
8097188 0.232678726 -0.940181255
8116888 0.229315042 -0.940790474
8136688 0.225888311 -0.941371023
8156488 0.222560957 -0.941864073
8176288 0.21918866 -0.942465841
8195988 0.215710997 -0.943024814
8215788 0.212468504 -0.94363898
8235588 0.209197416 -0.944260895
8255288 0.205799236 -0.944910228
8275088 0.202327176 -0.945296525
8294888 0.198992893 -0.94586718
8314688 0.195544898 -0.94624263
8334388 0.192145392 -0.946754992
8354188 0.188790306 -0.947196185
8373988 0.185321614 -0.947780549
8393688 0.18198803 -0.948249936
8413488 0.178530469 -0.948574185
8433288 0.17507638 -0.94882667
8453088 0.171931073 -0.949376523
8472788 0.168338775 -0.949920117
8492588 0.165043458 -0.950173377
8512388 0.161543369 -0.950432121
8532188 0.158102527 -0.950848281
8551888 0.154747784 -0.951255798
8571688 0.151253968 -0.951533019
8591488 0.148009642 -0.951905071
8611188 0.144452333 -0.952195584
8630988 0.14106208 -0.952386558
8650788 0.13761878 -0.95243591
8670588 0.13423191 -0.952966988
8690288 0.130803644 -0.953220725
8710088 0.127370357 -0.953405678
8729888 0.124177411 -0.95380038
8749588 0.120661571 -0.953863501
8769388 0.117222234 -0.954123258
8789188 0.113804087 -0.954324603
8808988 0.110508322 -0.954414248
8828688 0.107016541 -0.954698026
8848488 0.10355696 -0.954755663
8868288 0.100095249 -0.954974114
8887988 0.096694707 -0.95534569
8907788 0.093224845 -0.955077469
8927588 0.089794822 -0.955271542
8947388 0.086635351 -0.95552808
8967088 0.082990825 -0.955479562
8986888 0.0796073 -0.955554008
9006688 0.07602398 -0.955770313
9026488 0.072487577 -0.9555251
9046188 0.069011531 -0.955544769
9065988 0.065580062 -0.955467402
9085788 0.06203328 -0.955667078
9105488 0.058711238 -0.955609798
9125288 0.055161099 -0.955667316
9145088 0.051642633 -0.955555915
9164888 0.04820729 -0.955425262
9184588 0.044664137 -0.955414235
9204388 0.041160844 -0.95555073
9224188 0.037597291 -0.955181181
9243888 0.034180682 -0.9552989
9263688 0.030708583 -0.954885184
9283488 0.027248058 -0.954979717
9303288 0.023943921 -0.954898416
9322988 0.020291069 -0.954628229
9342788 0.016659663 -0.954393029
9362588 0.013128586 -0.954180121
9382288 0.0096896 -0.953875362
9402088 0.006316882 -0.95380932
9421888 0.002810702 -0.953609585
9441688 -0.000722435 -0.953420221
9461388 -0.004156616 -0.953009843
9481188 -0.007891422 -0.952735245
9500988 -0.011270802 -0.952491462
9520788 -0.014663531 -0.952313005
9540488 -0.018143827 -0.952002108
9560288 -0.021661512 -0.9514876
9580088 -0.024971425 -0.951326012
9599788 -0.028756845 -0.950973868
9619588 -0.031993567 -0.950618982
9639388 -0.035565026 -0.950264751
9659188 -0.039127863 -0.949714422
9678888 -0.042553648 -0.949356555
9698688 -0.046079281 -0.948983132
9718488 -0.049511127 -0.948412835
9738188 -0.052881915 -0.94819802
9757988 -0.056206777 -0.947679936
9777788 -0.059953607 -0.947263956
9797588 -0.06333673 -0.946795165
9817288 -0.066614843 -0.946282267
9837088 -0.070215597 -0.945586264
9856888 -0.073747359 -0.945162296
9876588 -0.07707414 -0.944838404
9896388 -0.080668389 -0.943936467
9916188 -0.084083907 -0.943562269
9935988 -0.087413296 -0.943120062
9955688 -0.090864315 -0.942426621
9975488 -0.094438455 -0.941860079
9995288 -0.097731232 -0.941244125
10015088 -0.101336292 -0.940547287
10034860 -0.104628749 -0.939925909
10054560 -0.108073242 -0.939222812
10074360 -0.111711747 -0.938569486
10094160 -0.114923693 -0.9378919
10113860 -0.118473172 -0.937241137
10133660 -0.121922872 -0.936474025
10153460 -0.125473052 -0.935564458
10173260 -0.128685444 -0.934976756
10192960 -0.13214901 -0.934382379
10212760 -0.135578408 -0.933561325
10232560 -0.138823553 -0.932774126
10252260 -0.142321586 -0.932051599
10272060 -0.145815491 -0.931090891
10291860 -0.149128332 -0.930450618
10311660 -0.152613639 -0.929652273
10331360 -0.155997917 -0.928788125
10351160 -0.159221619 -0.927889585
10370960 -0.162827938 -0.927061676
10390660 -0.165984541 -0.926206767
10410460 -0.169689744 -0.925133049
10430260 -0.173052921 -0.924131631
10450060 -0.176406145 -0.923282742
10469760 -0.179595828 -0.922465443
10489560 -0.183148697 -0.92153877
10509360 -0.186437651 -0.920637011
10529160 -0.189775124 -0.919629037
10548860 -0.193095713 -0.918510198
10568660 -0.196493774 -0.917701303
10588460 -0.199771761 -0.91653186
10608160 -0.203245699 -0.915534853
10627960 -0.206516608 -0.914512634
10647760 -0.209687367 -0.913492143
10667560 -0.213123977 -0.912574231
10687260 -0.216585233 -0.911235749
10707060 -0.219751656 -0.910125851
10726860 -0.223105505 -0.909198641
10746560 -0.226432189 -0.908167779
10766360 -0.229565829 -0.907017827
10786160 -0.233054146 -0.905882179
10805960 -0.236394345 -0.904619634
10825660 -0.239626049 -0.903372645
10845460 -0.242887929 -0.902176737
10865260 -0.246287539 -0.90117067
10884960 -0.249626517 -0.899976491
10904760 -0.252742737 -0.898689568
10924560 -0.256045371 -0.897546827
10944360 -0.259368479 -0.896091699
10964060 -0.262565791 -0.895100295
10983860 -0.265950381 -0.893851578
11003660 -0.269262135 -0.892505645
11023460 -0.272436529 -0.891212344
11043160 -0.275767177 -0.889914453
11062960 -0.278851956 -0.88864547
11082760 -0.282208472 -0.887083292
11102460 -0.285398751 -0.885995984
11122260 -0.288473904 -0.884521484
11142060 -0.291795969 -0.883198618
11161860 -0.29499787 -0.881724238
11181560 -0.298192709 -0.880421578
11201360 -0.301373988 -0.879162192
11221160 -0.304476797 -0.877852678
11240860 -0.307787746 -0.87620902
11260660 -0.310995012 -0.874792277
11280460 -0.314091503 -0.873270988
11300260 -0.317445456 -0.871875941
11319960 -0.320595115 -0.870478868
11339760 -0.323718458 -0.868942618
11359560 -0.326951265 -0.867293238
11379260 -0.329854726 -0.865902483
11399060 -0.333248823 -0.864360511
11418860 -0.336192786 -0.862872362
11438660 -0.339384257 -0.861391186
11458360 -0.342383325 -0.859660804
11478160 -0.345638245 -0.858167648
11497960 -0.348754167 -0.856601417
11517760 -0.351694971 -0.855057895
11537460 -0.354988008 -0.85347402
11557260 -0.358056485 -0.851760685
11577060 -0.361223846 -0.850196838
11596760 -0.364081293 -0.848565697
11616560 -0.367451906 -0.846765756
11636360 -0.370387077 -0.845287024
11656160 -0.373410731 -0.843610286
11675860 -0.376530051 -0.841689527
11695660 -0.379603028 -0.840121567
11715460 -0.38245356 -0.838190734
11735160 -0.38553521 -0.836736023
11754960 -0.388673275 -0.834741711
11774760 -0.391646355 -0.833312213
11794560 -0.394645959 -0.831423342
11814260 -0.397512435 -0.829690694
11834060 -0.400667667 -0.827863633
11853860 -0.403766095 -0.826145231
11873560 -0.40657705 -0.824092507
11893360 -0.409464359 -0.822566926
11913160 -0.412680476 -0.820531964
11932960 -0.415492653 -0.818934619
11952660 -0.418651044 -0.816802918
11972460 -0.42145133 -0.815246343
11992260 -0.424330621 -0.813213407
12012060 -0.427237838 -0.811354279
