# Hz S RI R 50
50000 1.001744627 -0.008437947
69700 1.000622272 -0.012838265
89500 1.000765204 -0.017288578
109300 1.000397205 -0.021364403
129000 1.000099658 -0.025042226
148800 0.999934017 -0.028856346
168600 0.999676883 -0.032614871
188400 0.999448537 -0.036385547
208100 0.999053359 -0.03993342
227900 0.998792111 -0.043442845
247700 0.998314976 -0.047217704
267400 0.997925162 -0.050635252
287200 0.997561633 -0.054224576
307000 0.99698919 -0.057764749
326800 0.996564269 -0.061391569
346500 0.996074855 -0.064907401
366300 0.995476484 -0.068429276
386100 0.995080411 -0.072054266
405800 0.99458599 -0.075681544
425600 0.994019687 -0.079171366
445400 0.993254661 -0.082838959
465200 0.992695927 -0.086580842
484900 0.991863787 -0.09005589
504700 0.991299927 -0.093839712
524500 0.99036324 -0.097496129
544300 0.989386498 -0.101244375
564000 0.988554418 -0.105021268
583800 0.987659215 -0.108971334
603600 0.986703693 -0.112866498
623300 0.985638201 -0.116799548
643100 0.984486699 -0.120620615
662900 0.983453392 -0.12500827
682700 0.982108831 -0.129131838
702400 0.980783045 -0.1334154
722200 0.979464709 -0.137427195
742000 0.977776229 -0.14196366
761700 0.97608298 -0.146559119
781500 0.974216401 -0.151195228
801300 0.972048282 -0.155929803
821100 0.970174431 -0.160951524
840800 0.967579126 -0.166107282
860600 0.965056598 -0.171336665
880400 0.962017714 -0.17709349
900100 0.958140969 -0.18299444
919900 0.954146683 -0.188764587
939700 0.949422657 -0.195695534
959500 0.944302022 -0.202009454
979200 0.936598062 -0.209798246
999000 0.92843151 -0.216556355
1018800 0.917129755 -0.223969951
1038600 0.903704226 -0.231958255
1058300 0.885073184 -0.236601248
1078100 0.859590113 -0.238961189
1097900 0.830152213 -0.218803763
1117600 0.818706214 -0.21811521
1137400 0.787203729 -0.186502829
1157200 0.781027436 -0.131543666
1177000 0.815501689 -0.106568597
1196700 0.831193208 -0.079800896
1216500 0.864718616 -0.071799159
1236300 0.897114515 -0.082418508
1256000 0.906060397 -0.104541234
1275800 0.898553371 -0.095875456
1295600 0.920749783 -0.100996486
1315400 0.93074727 -0.117147065
1335100 0.926267206 -0.127104938
1354900 0.933876276 -0.128117591
1374700 0.940059781 -0.138249218
1394400 0.939858138 -0.151039868
1414200 0.934057295 -0.157650381
1434000 0.933165252 -0.152570739
1453800 0.940262019 -0.162610679
1473500 0.937652051 -0.171585366
1493300 0.933081567 -0.17527315
1513100 0.936755836 -0.177900165
1532900 0.936065971 -0.186402797
1552600 0.931215286 -0.193154707
1572400 0.925079762 -0.193643733
1592200 0.928897798 -0.193720117
1611900 0.928628742 -0.200985491
1631700 0.924711167 -0.206044197
1651500 0.923199892 -0.207333385
1671300 0.922777414 -0.212611407
1691000 0.91979891 -0.218179017
1710800 0.913625776 -0.220761373
1730600 0.912782132 -0.219895243
1750300 0.913468599 -0.223506763
1770100 0.911380171 -0.229346185
1789900 0.906949281 -0.231161147
1809700 0.905951559 -0.233450025
1829400 0.904500484 -0.237922519
1849200 0.89834243 -0.242585286
1869000 0.893801867 -0.240804925
1888700 0.894016027 -0.240619868
1908500 0.894102692 -0.24550794
1928300 0.889624595 -0.247960567
1948100 0.887557089 -0.24978137
1967800 0.886413931 -0.251996666
1987600 0.881961464 -0.256914079
2007400 0.875513792 -0.256683111
2027200 0.874205648 -0.253766804
2046972 0.875977754 -0.255928426
2066672 0.872238397 -0.259428977
2086472 0.869671583 -0.259794533
2106272 0.869902014 -0.26045072
2125972 0.867962777 -0.266074836
2145772 0.860952496 -0.268701523
2165572 0.856946706 -0.262431681
2185372 0.860405743 -0.263814032
2205072 0.858542859 -0.267593622
2224872 0.855102717 -0.266634672
2244672 0.857108235 -0.268418192
2264372 0.855322837 -0.273945629
2284172 0.849840879 -0.276293605
2303972 0.84381479 -0.275022029
2323772 0.846272766 -0.272943258
2343472 0.845193266 -0.275978475
2363272 0.843416988 -0.27706927
2383072 0.843488991 -0.277858734
2402772 0.843144714 -0.2823053
2422572 0.838782668 -0.287092477
2442372 0.832151591 -0.288513392
2462172 0.829777121 -0.282834976
2481872 0.832590878 -0.285983085
2501672 0.828697562 -0.289249539
2521472 0.826215028 -0.288324207
2541272 0.828867077 -0.290925174
2560972 0.825085699 -0.298884719
2580772 0.814707875 -0.300857454
2600572 0.810061395 -0.2916193
2620272 0.817233085 -0.294082254
2640072 0.811641097 -0.3009229
2659872 0.805166661 -0.297440111
2679672 0.810527443 -0.296825557
2699372 0.80784595 -0.307024836
2719172 0.794988214 -0.309982389
2738972 0.787439703 -0.29966855
2758672 0.795091688 -0.298230141
2778472 0.790824353 -0.305467486
2798272 0.783046126 -0.301838219
2818072 0.786951363 -0.299770355
2837772 0.784933269 -0.307354897
2857572 0.773457765 -0.30987668
2877372 0.765583574 -0.301764607
2897072 0.767238199 -0.296110391
2916872 0.766902148 -0.297528356
2936672 0.762059271 -0.296362638
2956472 0.760900378 -0.292781621
2976172 0.760710775 -0.292275369
2995972 0.755813658 -0.294192463
3015772 0.74790585 -0.289327979
3035572 0.745998382 -0.280311286
3055272 0.750039517 -0.275401949
3075072 0.749434053 -0.275207787
3094872 0.746978461 -0.269753128
3114572 0.750916302 -0.263914525
3134372 0.754279077 -0.265488296
3154172 0.749175727 -0.264002084
3173972 0.749507606 -0.253705084
3193672 0.757319271 -0.248268157
3213472 0.76246792 -0.24860686
3233272 0.765607297 -0.246899157
3252972 0.77085185 -0.244297191
3272772 0.777668833 -0.245071902
3292572 0.781243264 -0.249193549
3312372 0.781495153 -0.247815936
3332072 0.787563145 -0.24522683
3351872 0.796746909 -0.247725889
3371672 0.800760567 -0.254282295
3391372 0.80195266 -0.257080465
3411172 0.807387471 -0.259361177
3430972 0.811393141 -0.266555577
3450772 0.810074567 -0.271902769
3470472 0.811248481 -0.272821813
3490272 0.816377341 -0.276151984
3510072 0.81906116 -0.283753484
3529872 0.817621767 -0.289763063
3549572 0.817944467 -0.292817115
3569372 0.819507896 -0.298573613
3589172 0.817910313 -0.305010169
3608872 0.815518438 -0.308420807
3628672 0.815911114 -0.310652583
3648472 0.816945195 -0.315921664
3668272 0.814986884 -0.321589469
3687972 0.812735438 -0.325341105
3707772 0.812285602 -0.328978955
3727572 0.810600221 -0.333874255
3747272 0.807540714 -0.337931245
3767072 0.805067718 -0.340496748
3786872 0.804385602 -0.343219488
3806672 0.802911221 -0.347414702
3826372 0.800454556 -0.351091116
3846172 0.798211276 -0.354107081
3865972 0.796525657 -0.357683062
3885672 0.793840229 -0.361557424
3905472 0.790768265 -0.364322006
3925272 0.788251638 -0.366613507
3945072 0.786293268 -0.369536995
3964772 0.783900141 -0.372404098
3984572 0.781400442 -0.375259041
4004372 0.778554022 -0.377983987
4024172 0.77618426 -0.380536824
4043944 0.773104727 -0.382301032
4063644 0.769942939 -0.384729325
4083444 0.767209708 -0.38682726
4103244 0.76465851 -0.388816714
4122944 0.762265801 -0.391275495
4142744 0.759389519 -0.393570721
4162544 0.756696045 -0.395656466
4182344 0.753967046 -0.39774999
4202044 0.751006305 -0.399892598
4221844 0.747929334 -0.401643931
4241644 0.745354771 -0.403332412
4261344 0.742750704 -0.405338436
4281144 0.739871263 -0.407040804
4300944 0.737217009 -0.408866733
4320744 0.734036266 -0.410899281
4340444 0.7310521 -0.412236541
4360244 0.728235304 -0.413855165
4380044 0.725279867 -0.415521502
4399744 0.722774922 -0.416812062
4419544 0.719837725 -0.41826412
4439344 0.71695894 -0.419602185
4459144 0.714119017 -0.42118147
4478844 0.710841596 -0.422520607
4498644 0.708024978 -0.423749923
4518444 0.705251634 -0.425185561
4538244 0.70219922 -0.426397591
4557944 0.699144899 -0.427385121
4577744 0.696547567 -0.428337097
4597544 0.693524897 -0.429728716
4617244 0.690648376 -0.430750966
4637044 0.687672913 -0.431859701
4656844 0.684722959 -0.432640582
4676644 0.681784808 -0.433725774
4696344 0.678845465 -0.434919476
4716144 0.675633668 -0.435233503
4735944 0.673046231 -0.436082601
4755644 0.670263409 -0.437242358
4775444 0.667050063 -0.438034862
4795244 0.664308726 -0.438697904
4815044 0.66118586 -0.43953827
4834744 0.658387362 -0.440388828
4854544 0.655068278 -0.441054612
4874344 0.652100801 -0.441694915
4894044 0.649454653 -0.441970825
4913844 0.646434247 -0.442740499
4933644 0.643513321 -0.443355679
4953444 0.640502274 -0.443659067
4973144 0.637515246 -0.444355189
4992944 0.634403884 -0.444729685
5012744 0.631504118 -0.445097476
5032544 0.628371417 -0.445319473
5052244 0.625729858 -0.44534102
5072044 0.622656702 -0.445849418
5091844 0.619551837 -0.445797622
5111544 0.616744697 -0.445872724
5131344 0.613761365 -0.446175068
5151144 0.610848367 -0.446200907
5170944 0.60794115 -0.446168273
5190644 0.605059802 -0.445791155
5210444 0.602365851 -0.445937335
5230244 0.599312603 -0.44600296
5249944 0.59657818 -0.44551143
5269744 0.593759417 -0.445079118
5289544 0.591012954 -0.444998562
5309344 0.588116586 -0.444658309
5329044 0.585662186 -0.44386512
5348844 0.583180367 -0.44320023
5368644 0.580852925 -0.44281736
5388344 0.578282713 -0.44222626
5408144 0.576111733 -0.441465646
5427944 0.573909878 -0.440987169
5447744 0.571709752 -0.440507769
5467444 0.569582998 -0.43930602
5487244 0.567997932 -0.438634514
5507044 0.566313982 -0.438336253
5526844 0.564492344 -0.437756419
5546544 0.563097238 -0.43707624
5566344 0.561470687 -0.436922669
5586144 0.559993088 -0.43677634
5605844 0.558591008 -0.43661037
5625644 0.55714792 -0.43620631
5645444 0.555983483 -0.436601579
5665244 0.55454421 -0.436795562
5684944 0.553385615 -0.43703565
5704744 0.551701784 -0.437749713
5724544 0.55020219 -0.438165038
5744244 0.548528552 -0.439099878
5764044 0.546663343 -0.439650326
5783844 0.544681429 -0.440302908
5803644 0.542833447 -0.441148966
5823344 0.540581524 -0.442184984
5843144 0.538403332 -0.442979693
5862944 0.535976886 -0.443792939
5882644 0.533727526 -0.444320023
5902444 0.531149089 -0.445082515
5922244 0.528520166 -0.445696771
5942044 0.526213288 -0.446236908
5961744 0.523384273 -0.446629673
5981544 0.520861029 -0.447052955
6001344 0.518073976 -0.447615206
6021144 0.515169799 -0.448229253
6040916 0.512723505 -0.448393046
6060616 0.509785771 -0.448328673
6080416 0.50713849 -0.449021369
6100216 0.503996968 -0.449316352
6119916 0.50127983 -0.449373275
6139716 0.498684465 -0.449645578
6159516 0.495665282 -0.449953913
6179316 0.49295479 -0.449778258
6199016 0.490081012 -0.449914485
6218816 0.487382233 -0.450105547
6238616 0.484846472 -0.449720412
6258316 0.482169032 -0.449657768
6278116 0.479338496 -0.449564218
6297916 0.476964265 -0.449199676
6317716 0.474578887 -0.449027776
6337416 0.47177118 -0.448502987
6357216 0.46956101 -0.447883963
6377016 0.466917842 -0.447653472
6396716 0.464291512 -0.447229921
6416516 0.461696684 -0.446721315
6436316 0.458861559 -0.445993542
6456116 0.456092089 -0.445654481
6475816 0.453356742 -0.444914549
6495616 0.450441092 -0.444382458
6515416 0.447191476 -0.443607717
6535216 0.444155991 -0.44315648
6554916 0.440993428 -0.442452102
6574716 0.437898606 -0.441917359
6594516 0.434437364 -0.441070824
6614216 0.431305468 -0.440159082
6634016 0.428260147 -0.439163565
6653816 0.425170123 -0.438483804
6673616 0.422339975 -0.437427729
6693316 0.419186681 -0.436424553
6713116 0.416142195 -0.435429781
6732916 0.413161545 -0.434196591
6752616 0.410402536 -0.433350443
6772416 0.407286942 -0.432210445
6792216 0.404632776 -0.431246399
6812016 0.401616305 -0.430146664
6831716 0.398831039 -0.429143935
6851516 0.396107941 -0.42795664
6871316 0.393301993 -0.426857411
6891016 0.390549242 -0.425533562
6910816 0.387791931 -0.424512594
6930616 0.384924411 -0.423385471
6950416 0.382114231 -0.421962052
6970116 0.379293382 -0.42091602
6989916 0.376555323 -0.419590592
7009716 0.373788118 -0.418357312
7029516 0.371069788 -0.417020499
7049216 0.368197411 -0.415571749
7069016 0.365226835 -0.413951575
7088816 0.362731754 -0.412517935
7108516 0.359907478 -0.411101549
7128316 0.357009381 -0.409586846
7148116 0.354280501 -0.407957255
7167916 0.351553738 -0.406592726
7187616 0.348827898 -0.404854178
7207416 0.346120953 -0.403229176
7227216 0.343531906 -0.401557624
7246916 0.340753108 -0.400007635
7266716 0.337933957 -0.398774087
7286516 0.335588306 -0.396408677
7306316 0.332837879 -0.394639879
7326016 0.330191731 -0.392970383
7345816 0.327602952 -0.390818059
7365616 0.325323581 -0.388777256
7385316 0.322975665 -0.386671751
7405116 0.320486932 -0.384775489
7424916 0.317732065 -0.382900059
7444716 0.315326392 -0.38082236
7464416 0.312704175 -0.378677546
7484216 0.310415983 -0.376512944
7504016 0.307945787 -0.374405711
7523816 0.305349081 -0.372195959
7543516 0.302805989 -0.37043026
7563316 0.300160348 -0.368155449
7583116 0.297868311 -0.36583209
7602816 0.295558989 -0.363544553
7622616 0.293051064 -0.361268937
7642416 0.290660142 -0.358950465
7662216 0.288752973 -0.356281399
7681916 0.286414653 -0.353982269
7701716 0.283953398 -0.351540714
7721516 0.281595259 -0.348995178
7741216 0.279479175 -0.346389651
7761016 0.277084469 -0.343709617
7780816 0.275153875 -0.340986281
7800616 0.272937804 -0.338438272
7820316 0.270665019 -0.335526674
7840116 0.268616139 -0.332770735
7859916 0.266554892 -0.330108195
7879616 0.26459524 -0.327143251
7899416 0.262270748 -0.324592143
7919216 0.260529339 -0.321308344
7939016 0.25860545 -0.318234264
7958716 0.25698626 -0.315256327
7978516 0.255108773 -0.312240988
7998316 0.253283262 -0.308996379
8018116 0.251411885 -0.305542469
8037888 0.249651461 -0.302581906
8057588 0.248040467 -0.29928261
8077388 0.246410131 -0.296373516
8097188 0.244896098 -0.292929708
8116888 0.243543893 -0.289458423
8136688 0.242122367 -0.28600651
8156488 0.240789532 -0.282837003
8176288 0.239693656 -0.279219388
8195988 0.238477736 -0.275641441
8215788 0.237417623 -0.27221629
8235588 0.236282363 -0.268805772
8255288 0.235540971 -0.265078693
8275088 0.234929993 -0.261539131
8294888 0.234401151 -0.257814675
8314688 0.233851015 -0.254219323
8334388 0.23337619 -0.250854849
8354188 0.232980996 -0.247400179
8373988 0.23291698 -0.244114235
8393688 0.232635617 -0.240536153
8413488 0.232727408 -0.2373517
8433288 0.232795849 -0.234338223
8453088 0.232612892 -0.231059059
8472788 0.232259109 -0.228119999
8492588 0.232654407 -0.224898815
8512388 0.232919499 -0.221711322
8532188 0.233178868 -0.218694299
8551888 0.233285292 -0.215653046
8571688 0.2331907 -0.212591052
8591488 0.233184933 -0.209788605
8611188 0.233302906 -0.206732884
8630988 0.233611866 -0.203604996
8650788 0.233933717 -0.200744554
8670588 0.234342962 -0.198029741
8690288 0.234559357 -0.195243462
8710088 0.23512949 -0.192440241
8729888 0.235621571 -0.19015257
8749588 0.23627372 -0.187662988
8769388 0.237159982 -0.185449972
8789188 0.237293034 -0.183174595
8808988 0.237705275 -0.181077584
8828688 0.238217264 -0.179059654
8848488 0.238159209 -0.177057281
8868288 0.237923458 -0.174982562
8887988 0.237656876 -0.172658175
8907788 0.237513527 -0.170357584
8927588 0.237210333 -0.167905554
8947388 0.236680284 -0.165383756
8967088 0.236649334 -0.162631437
8986888 0.235802739 -0.159883797
9006688 0.23547104 -0.157027944
9026488 0.235322147 -0.153955161
9046188 0.234841987 -0.150628522
9065988 0.23461391 -0.147088706
9085788 0.234585955 -0.143571108
9105488 0.234282448 -0.139907866
9125288 0.234624564 -0.136195003
9145088 0.234495908 -0.132276147
9164888 0.234964698 -0.128244385
9184588 0.235642045 -0.124132916
9204388 0.236624419 -0.119673371
9224188 0.237840056 -0.115335568
9243888 0.239254876 -0.110772259
9263688 0.24122636 -0.106237754
9283488 0.243089839 -0.101740755
9303288 0.245448023 -0.097184181
9322988 0.247973218 -0.092371419
9342788 0.251236766 -0.087718583
9362588 0.254775583 -0.083092354
9382288 0.259181946 -0.078537009
9402088 0.264062464 -0.074319399
9421888 0.269794791 -0.070173241
9441688 0.275601387 -0.066619172
9461388 0.281666249 -0.06342566
9481188 0.288619726 -0.060680706
9500988 0.296513736 -0.05868994
9520788 0.304970711 -0.057879909
9540488 0.3136518 -0.058024864
9560288 0.322457224 -0.059403084
9580088 0.331583887 -0.062367945
9599788 0.340465724 -0.066762708
9619588 0.348941504 -0.072857864
9639388 0.356369614 -0.080509908
9659188 0.36260721 -0.089598059
9678888 0.367108881 -0.099751301
9698688 0.369866758 -0.111048556
9718488 0.37028253 -0.122622683
9738188 0.368448764 -0.134108692
9757988 0.364704668 -0.145207196
9777788 0.359173327 -0.15500015
9797588 0.352352082 -0.163796186
9817288 0.343933284 -0.171256944
9837088 0.334573686 -0.177001848
9856888 0.32493177 -0.181005761
9876588 0.315197288 -0.18388389
9896388 0.305164635 -0.185006245
9916188 0.29570645 -0.185009822
9935988 0.286792457 -0.183794751
9955688 0.27788347 -0.181940138
9975488 0.269992411 -0.178737312
9995288 0.262653768 -0.175549656
10015088 0.255690753 -0.171545475
10034860 0.25625056 -0.164698019
10054560 0.250518471 -0.160127967
10074360 0.245505556 -0.155232667
10094160 0.24069412 -0.150184437
10113860 0.236825242 -0.144823148
10133660 0.232897996 -0.139634922
10153460 0.229501917 -0.13403058
10173260 0.226071313 -0.128649801
10192960 0.223525702 -0.123142682
10212760 0.221266135 -0.117440596
10232560 0.219262614 -0.112085297
10252260 0.217313438 -0.106503687
10272060 0.215875923 -0.101190924
10291860 0.214777573 -0.095764465
10311660 0.213770464 -0.090379796
10331360 0.213053256 -0.08502914
10351160 0.212074905 -0.079882226
10370960 0.211526215 -0.07454469
10390660 0.211153149 -0.069418244
10410460 0.210864767 -0.064332485
10430260 0.210830643 -0.059282954
10450060 0.210577592 -0.054247241
10469760 0.210630208 -0.049284819
10489560 0.211271017 -0.044214829
10509360 0.21210657 -0.039407331
10529160 0.212436944 -0.034385822
10548860 0.213006764 -0.029521865
10568660 0.213926449 -0.024615041
10588460 0.214485481 -0.019815685
10608160 0.21540229 -0.015255626
10627960 0.216411352 -0.010562402
10647760 0.217457681 -0.005800197
10667560 0.21864739 -0.001202448
10687260 0.219658747 0.003540953
10707060 0.221176609 0.008342375
10726860 0.222689524 0.012837563
10746560 0.224024757 0.017337188
10766360 0.225388154 0.021962106
10786160 0.226428523 0.02646536
10805960 0.228408798 0.030900178
10825660 0.230333641 0.03540026
10845460 0.232485666 0.039817258
10865260 0.234055399 0.044200275
10884960 0.23638539 0.048479195
10904760 0.238524451 0.052660297
10924560 0.240615025 0.05710547
10944360 0.243222638 0.061086744
10964060 0.245739266 0.065270721
10983860 0.248536244 0.069199018
11003660 0.251247137 0.07318037
11023460 0.254016309 0.077200077
11043160 0.256807267 0.081066466
11062960 0.259735554 0.084830157
11082760 0.262879878 0.088575266
11102460 0.266104638 0.091987997
11122260 0.269082307 0.095815852
11142060 0.27255702 0.099348872
11161860 0.275482624 0.103008203
11181560 0.27882108 0.106359593
11201360 0.282408684 0.109563387
11221160 0.28598687 0.112801082
11240860 0.289693802 0.116007752
11260660 0.293027758 0.119187876
11280460 0.296526819 0.12227343
11300260 0.300460189 0.125304341
11319960 0.303903043 0.128292441
11339760 0.307506352 0.131256878
11359560 0.311243295 0.134322717
11379260 0.314990967 0.136999994
11399060 0.318682074 0.140173047
11418860 0.322355866 0.142740502
11438660 0.326457798 0.145473033
11458360 0.330440163 0.148084282
11478160 0.334558844 0.150415927
11497960 0.338954001 0.152775496
11517760 0.343170642 0.155114382
11537460 0.347382992 0.157311633
11557260 0.351720362 0.15939866
11577060 0.356047153 0.16171959
11596760 0.360307872 0.163656994
11616560 0.364676892 0.165592104
11636360 0.369111269 0.167599737
11656160 0.373399674 0.16975291
11675860 0.377978324 0.17123337
11695660 0.382259845 0.173040658
11715460 0.38685894 0.174718722
11735160 0.391490042 0.176048457
11754960 0.396095782 0.177507415
11774760 0.400754272 0.178760021
11794560 0.405516654 0.180135101
11814260 0.410073459 0.18112421
11834060 0.414793819 0.182231292
11853860 0.419633686 0.18329674
11873560 0.424345314 0.184047371
11893360 0.429071456 0.184827417
11913160 0.433811187 0.185290321
11932960 0.438558995 0.186173871
11952660 0.443427592 0.18651764
11972460 0.448221772 0.18704462
11992260 0.453018516 0.18732436
12012060 0.457703977 0.187587067
12031832 0.462946683 0.186771646
12051532 0.467800885 0.18691881
12071332 0.472492575 0.186929389
12091132 0.477205216 0.186837494
