# Hz S RI R 50
50000 -0.795368313 0.12525767
69700 -0.781276941 0.174622699
89500 -0.769421875 0.223910465
109300 -0.75487256 0.271830171
129000 -0.73792994 0.318651348
148800 -0.718019843 0.364365726
168600 -0.696089327 0.408720016
188400 -0.671400427 0.451591908
208100 -0.644907534 0.492231547
227900 -0.616069436 0.531290471
247700 -0.585427463 0.568748712
267400 -0.55300945 0.60395354
287200 -0.518676757 0.637230813
307000 -0.482900232 0.66827923
326800 -0.445811003 0.697214722
346500 -0.407373964 0.724097788
366300 -0.367708325 0.748352944
386100 -0.327231138 0.770656824
405800 -0.285956233 0.7900967
425600 -0.243785917 0.806831538
445400 -0.201821729 0.820818483
465200 -0.159272328 0.835065066
484900 -0.117207624 0.845130741
504700 -0.073423072 0.853631556
524500 -0.031026136 0.859528005
544300 0.012617157 0.862078428
564000 0.05431595 0.864425718
583800 0.096275433 0.862445712
603600 0.138651847 0.859437167
623300 0.178787693 0.855847179
643100 0.218633815 0.848968565
662900 0.259775251 0.840639352
682700 0.299184679 0.830823361
702400 0.337755054 0.815849244
722200 0.373324632 0.80201745
742000 0.407487183 0.787880957
761700 0.444343596 0.769722819
781500 0.4758026 0.752777397
801300 0.508535087 0.732187271
821100 0.541559517 0.711574375
840800 0.570357859 0.685389459
860600 0.596306979 0.6656937
880400 0.625729143 0.641414642
900100 0.653153717 0.61374861
919900 0.668731212 0.585626065
939700 0.699225485 0.563010215
959500 0.720320463 0.535353839
979200 0.741112172 0.498942494
999000 0.754109442 0.475792676
1018800 0.775057435 0.443747371
1038600 0.793162763 0.410518974
1058300 0.799532532 0.374969869
1078100 0.811972677 0.351145148
1097900 0.821879506 0.310419708
1117600 0.829202234 0.290128856
1137400 0.835113584 0.25471726
1157200 0.846041083 0.225112438
1177000 0.844335079 0.190272465
1196700 0.853787004 0.158180564
1216500 0.850079178 0.123314
1236300 0.844384551 0.089343599
1256000 0.837224483 0.066639199
1275800 0.842818021 0.043664753
1295600 0.837550938 0.004746372
1315400 0.826511502 -0.022074719
1335100 0.819834589 -0.044789776
1354900 0.819870829 -0.080694735
1374700 0.80210936 -0.114963196
1394400 0.776655256 -0.138097211
1414200 0.767139017 -0.154258206
1434000 0.764607429 -0.165964856
1453800 0.748629629 -0.209671542
1473500 0.724018871 -0.224698036
1493300 0.707764685 -0.240424513
1513100 0.700649499 -0.273694127
1532900 0.660993695 -0.301709175
1552600 0.620687723 -0.301684439
1572400 0.616678118 -0.283862978
1592200 0.625651061 -0.322654187
1611900 0.576370179 -0.347766727
1631700 0.552748262 -0.327252507
1651500 0.565939962 -0.35162422
1671300 0.514666497 -0.390875786
1691000 0.456210881 -0.369443565
1710800 0.461470901 -0.324300229
1730600 0.481378555 -0.366266906
1750300 0.422797083 -0.384393662
1770100 0.392351061 -0.348514318
1789900 0.421251446 -0.352204859
1809700 0.371797263 -0.393124967
1829400 0.312601029 -0.360410779
1849200 0.315947443 -0.29531449
1869000 0.358574241 -0.316747993
1888700 0.317662626 -0.339085876
1908500 0.284339338 -0.304542511
1928300 0.322301447 -0.288387507
1948100 0.295871973 -0.327380955
1967800 0.246936202 -0.30788505
1987600 0.241654142 -0.244259685
2007400 0.290461987 -0.234986543
2027200 0.28571394 -0.270774811
2046972 0.249504521 -0.252903431
2066672 0.280378043 -0.220232516
2086472 0.293064773 -0.263818621
2106272 0.244044557 -0.274123996
2125972 0.219406321 -0.21680288
2145772 0.260160863 -0.190405637
2165572 0.294066786 -0.219946429
2185372 0.256076812 -0.227359682
2205072 0.276291608 -0.198657602
2224872 0.306424558 -0.229055389
2244672 0.259473979 -0.265560388
2264372 0.225454732 -0.222902521
2284172 0.260055214 -0.194314658
2303972 0.269056946 -0.211180225
2323772 0.259380757 -0.222903847
2343472 0.268527507 -0.20308049
2363272 0.284326076 -0.235989063
2383072 0.252885639 -0.259439438
2402772 0.221716463 -0.236111953
2422572 0.230752065 -0.213098332
2442372 0.231927007 -0.220316901
2462172 0.234146282 -0.209719598
2481872 0.238062158 -0.209239497
2501672 0.247810184 -0.225060641
2521472 0.225665956 -0.24107182
2541272 0.19625388 -0.234625577
2560972 0.18477793 -0.2043415
2580772 0.196016535 -0.195451602
2600572 0.20026949 -0.183857649
2620272 0.201742798 -0.186232179
2640072 0.210423901 -0.18584086
2659872 0.200358033 -0.198992207
2679672 0.173716276 -0.200938791
2699372 0.151600793 -0.16382052
2719172 0.174015164 -0.13755007
2738972 0.184794977 -0.131897345
2758672 0.187566414 -0.13074018
2778472 0.199468523 -0.121321268
2798272 0.203521132 -0.132434979
2818072 0.182861626 -0.137514725
2837772 0.163215249 -0.104862503
2857572 0.182313457 -0.066349282
2877372 0.212099581 -0.063293993
2897072 0.217959284 -0.062590755
2916872 0.231724426 -0.051682829
2936672 0.252024263 -0.054299972
2956472 0.248760521 -0.068083874
2976172 0.235171914 -0.049707595
2995972 0.252577275 -0.015942042
3015772 0.289905548 -0.01590535
3035572 0.295717865 -0.020320272
3055272 0.316820174 -0.007237846
3075072 0.345179647 -0.016262149
3094872 0.353292822 -0.031107325
3114572 0.357536196 -0.028332691
3134372 0.370836079 -0.024479437
3154172 0.389823585 -0.019202146
3173972 0.415028899 -0.024745732
3193672 0.434117257 -0.03433853
3213472 0.451341032 -0.043087366
3233272 0.471281081 -0.057160038
3252972 0.483393192 -0.074597425
3272772 0.48802635 -0.085885338
3292572 0.500330209 -0.091223359
3312372 0.52050507 -0.099889233
3332072 0.535409212 -0.120018996
3351872 0.545607328 -0.136878311
3371672 0.55712676 -0.152020215
3391372 0.569629669 -0.173290178
3411172 0.573163866 -0.196975037
3430972 0.571995317 -0.210780054
3450772 0.581477582 -0.221256077
3470472 0.593548595 -0.241799727
3490272 0.596752464 -0.266212254
3510072 0.597082257 -0.284199923
3529872 0.601859092 -0.303639292
3549572 0.603270828 -0.328284651
3569372 0.59545052 -0.35088855
3589172 0.589296162 -0.362156808
3608872 0.592525303 -0.375983059
3628672 0.593044936 -0.398327589
3648472 0.585897803 -0.418076068
3668272 0.582305192 -0.432450771
3687972 0.580394148 -0.451725661
3707772 0.573326945 -0.473494857
3727572 0.559953689 -0.490561127
3747272 0.551464855 -0.498901724
3767072 0.549451649 -0.512944698
3786872 0.54332143 -0.530567288
3806672 0.5342139 -0.545853734
3826372 0.527879595 -0.55965662
3846172 0.52089256 -0.577327311
3865972 0.508613049 -0.595105826
3885672 0.494315803 -0.607073187
3905472 0.484200268 -0.616040527
3925272 0.476623207 -0.629900634
3945072 0.464620888 -0.64330542
3964772 0.45329523 -0.65427792
3984572 0.443906694 -0.666892886
4004372 0.4304412 -0.681455016
4024172 0.414945632 -0.691900014
4043944 0.401526004 -0.70039153
4063644 0.389012843 -0.709210097
4083444 0.376018851 -0.71821773
4103244 0.362991094 -0.725792765
4122944 0.351357251 -0.734519839
4142744 0.33784607 -0.744154632
4162544 0.322891235 -0.752039134
4182344 0.308208823 -0.758709847
4202044 0.294102847 -0.764428734
4221844 0.280197143 -0.769997894
4241644 0.267083287 -0.775136888
4261344 0.254103869 -0.780574858
4281144 0.240500345 -0.786414504
4300944 0.2261177 -0.791971385
4320744 0.211106076 -0.79670304
4340444 0.196317121 -0.800341844
4360244 0.181503489 -0.803099453
4380044 0.167827159 -0.805279493
4399744 0.154521092 -0.808124482
4419544 0.140872552 -0.810629546
4439344 0.12699902 -0.81326133
4459144 0.112697474 -0.815657138
4478844 0.098102301 -0.817473888
4498644 0.083116941 -0.817709922
4518444 0.069050803 -0.817477166
4538244 0.056000791 -0.816874086
4557944 0.042772274 -0.816981494
4577744 0.030006004 -0.816413998
4597544 0.017045959 -0.81650716
4617244 0.003727648 -0.816302716
4637044 -0.010231468 -0.81505835
4656844 -0.023670878 -0.813489317
4676644 -0.036641333 -0.81120193
4696344 -0.049340169 -0.808755517
4716144 -0.061510331 -0.806184589
4735944 -0.073376521 -0.803635597
4755644 -0.08560577 -0.801954269
4775444 -0.09850692 -0.799239277
4795244 -0.111106581 -0.795835614
4815044 -0.123353749 -0.792133986
4834744 -0.135528773 -0.788160443
4854544 -0.147152677 -0.783317089
4874344 -0.158345416 -0.778630137
4894044 -0.168980166 -0.774311482
4913844 -0.180296465 -0.770282149
4933644 -0.191783145 -0.765519618
4953444 -0.203172445 -0.760094881
4973144 -0.214066877 -0.754222333
4992944 -0.225061029 -0.747930169
5012744 -0.235048308 -0.741080224
5032544 -0.24443531 -0.734477519
5052244 -0.253733277 -0.728242695
5072044 -0.26344785 -0.721728146
5091844 -0.273045629 -0.714509606
5111544 -0.282335877 -0.707117855
5131344 -0.290893137 -0.699047803
5151144 -0.2991032 -0.690589308
5170944 -0.306486368 -0.682191431
5190644 -0.313262104 -0.674089908
5210444 -0.32033807 -0.66609925
5230244 -0.327347785 -0.657622516
5249944 -0.333794265 -0.648791611
5269744 -0.339417994 -0.639247655
5289544 -0.344363003 -0.629723191
5309344 -0.348395913 -0.620163381
5329044 -0.351467669 -0.611147165
5348844 -0.354338407 -0.602637708
5368644 -0.357102781 -0.594389081
5388344 -0.359473019 -0.5856781
5408144 -0.360642135 -0.576890289
5427944 -0.360957294 -0.568555116
5447744 -0.360555112 -0.561045885
5467444 -0.35940665 -0.553997576
5487244 -0.357962459 -0.548077464
5507044 -0.356257736 -0.54287213
5526844 -0.354369938 -0.538631737
5546544 -0.352320432 -0.534856021
5566344 -0.350241124 -0.532200336
5586144 -0.348014146 -0.530241787
5605844 -0.346069484 -0.528520345
5625644 -0.343710035 -0.528568983
5645444 -0.341986536 -0.529648482
5665244 -0.341408371 -0.5317052
5684944 -0.341478049 -0.534206986
5704744 -0.342284798 -0.537353157
5724544 -0.344078332 -0.540898978
5744244 -0.346799015 -0.544328093
5764044 -0.350367039 -0.547835171
5783844 -0.35491693 -0.552004635
5803644 -0.360390096 -0.555916666
5823344 -0.367020994 -0.559145331
5843144 -0.374411821 -0.561637282
5862944 -0.382299542 -0.563874602
5882644 -0.390598773 -0.565292596
5902444 -0.399129182 -0.566243529
5922244 -0.407791614 -0.56690663
5942044 -0.416963934 -0.566874027
5961744 -0.426219105 -0.566141664
5981544 -0.435544222 -0.565130472
6001344 -0.444782376 -0.563667953
6021144 -0.454291701 -0.561647117
6040916 -0.463674634 -0.559634864
6060616 -0.473337829 -0.557051718
6080416 -0.482981413 -0.553987503
6100216 -0.492854207 -0.550731062
6119916 -0.502525269 -0.546731472
6139716 -0.512365281 -0.542075753
6159516 -0.521636009 -0.537480771
6179316 -0.530858695 -0.532311558
6199016 -0.540082156 -0.526728928
6218816 -0.548943519 -0.52104181
6238616 -0.557498872 -0.514960169
6258316 -0.565875411 -0.508836925
6278116 -0.574053525 -0.502478659
6297916 -0.582178354 -0.496015191
6317716 -0.589729905 -0.489337623
6337416 -0.597087025 -0.482663691
6357216 -0.604195475 -0.475699096
6377016 -0.611165702 -0.468624293
6396716 -0.617713749 -0.461580693
6416516 -0.62437278 -0.4540807
6436316 -0.630712509 -0.446696251
6456116 -0.63689053 -0.438870459
6475816 -0.642590045 -0.431149423
6495616 -0.64852631 -0.423034548
6515416 -0.653777539 -0.415016591
6535216 -0.659247994 -0.406510889
6554916 -0.664321839 -0.398045212
6574716 -0.668953359 -0.389521449
6594516 -0.67354393 -0.380914509
6614216 -0.677811622 -0.372192054
6634016 -0.681873977 -0.363537251
6653816 -0.685939133 -0.354818344
6673616 -0.68952316 -0.34631595
6693316 -0.693198084 -0.337700515
6713116 -0.696554958 -0.32922554
6732916 -0.69969058 -0.320707291
6752616 -0.702959001 -0.312262028
6772416 -0.705770611 -0.303849458
6792216 -0.708934605 -0.295780837
6812016 -0.711671531 -0.287574172
6831716 -0.71435368 -0.279500335
6851516 -0.717355489 -0.271277755
6871316 -0.720037937 -0.263296902
6891016 -0.722642958 -0.255322635
6910816 -0.725299298 -0.246973857
6930616 -0.727863907 -0.23895578
6950416 -0.73046118 -0.230567872
6970116 -0.732912242 -0.222378805
6989916 -0.735402524 -0.214043483
7009716 -0.737608551 -0.205548942
7029516 -0.739728033 -0.196889787
7049216 -0.741901874 -0.188412621
7069016 -0.743479609 -0.179583415
7088816 -0.745323181 -0.171170487
7108516 -0.746901512 -0.162517338
7128316 -0.748186409 -0.153884381
7148116 -0.7494933 -0.145095705
7167916 -0.750812947 -0.136369913
7187616 -0.751734375 -0.127958491
7207416 -0.752510547 -0.11910621
7227216 -0.753233551 -0.110456772
7246916 -0.753876388 -0.101853944
7266716 -0.754226863 -0.093135997
7286516 -0.754400134 -0.084516644
7306316 -0.754918158 -0.076013274
7326016 -0.754803776 -0.067257709
7345816 -0.754874587 -0.058820914
7365616 -0.754772961 -0.05035524
7385316 -0.754568397 -0.041827097
7405116 -0.754066705 -0.033441241
7424916 -0.75355494 -0.025018479
7444716 -0.752820968 -0.016530303
7464416 -0.75213176 -0.008350754
7484216 -0.751334428 0.000176045
7504016 -0.750266909 0.008374203
7523816 -0.749247789 0.016623098
7543516 -0.748136699 0.025038653
7563316 -0.746912598 0.033282905
7583116 -0.745504379 0.041499085
7602816 -0.743933975 0.049575254
7622616 -0.742543518 0.057975281
7642416 -0.740763664 0.065941281
7662216 -0.738776922 0.074077911
7681916 -0.736812233 0.082295142
7701716 -0.734794676 0.090279638
7721516 -0.732496023 0.098487854
7741216 -0.730211973 0.106207519
7761016 -0.727853119 0.114201769
7780816 -0.724941551 0.122233241
7800616 -0.722566306 0.13026674
7820316 -0.719725012 0.138131126
7840116 -0.716651856 0.145953938
7859916 -0.713464021 0.153743267
7879616 -0.710224032 0.16162163
7899416 -0.706636607 0.16923964
7919216 -0.703052699 0.176866427
7939016 -0.699297308 0.184343457
7958716 -0.695355176 0.191720336
7978516 -0.691166877 0.199157997
7998316 -0.686975121 0.206262201
8018116 -0.682581663 0.213591247
8037888 -0.677958786 0.22062911
8057588 -0.673220992 0.227502271
8077388 -0.668402612 0.234243288
8097188 -0.663427591 0.240735843
8116888 -0.658082187 0.247481465
8136688 -0.652881145 0.253751486
8156488 -0.647350013 0.260007739
8176288 -0.641613781 0.265974819
8195988 -0.636054813 0.271755278
8215788 -0.62997967 0.277613073
8235588 -0.624009907 0.282864451
8255288 -0.617908775 0.287848532
8275088 -0.611234188 0.292834579
8294888 -0.605133354 0.29725635
8314688 -0.598659038 0.301588028
8334388 -0.59220004 0.305677056
8354188 -0.58591187 0.309294164
8373988 -0.579359769 0.312604963
8393688 -0.573064327 0.315450727
8413488 -0.566795408 0.318354785
8433288 -0.560806274 0.320690661
8453088 -0.555441856 0.322753906
8472788 -0.549813389 0.325051307
8492588 -0.54448384 0.327134966
8512388 -0.539412319 0.329169303
8532188 -0.534114897 0.331243485
8551888 -0.529317915 0.3328529
8571688 -0.524494111 0.335049122
8591488 -0.51959306 0.336881041
8611188 -0.514637172 0.338869422
8630988 -0.50958538 0.340594619
8650788 -0.504470288 0.341989129
8670588 -0.499769181 0.343046486
8690288 -0.495023936 0.343831509
8710088 -0.490444064 0.344452828
8729888 -0.486601024 0.344670027
8749588 -0.482582628 0.345223367
8769388 -0.479281961 0.345496833
8789188 -0.476098656 0.34584698
8808988 -0.47341457 0.346202492
8828688 -0.471599727 0.346849471
8848488 -0.469540238 0.347680628
8868288 -0.468093782 0.349054068
8887988 -0.466592967 0.351129472
8907788 -0.464924752 0.353308618
8927588 -0.463309019 0.356069147
8947388 -0.461652785 0.359196811
8967088 -0.459517121 0.362503528
8986888 -0.457603126 0.365995168
9006688 -0.455194711 0.370119184
9026488 -0.452654749 0.374529838
9046188 -0.449400603 0.378700852
9065988 -0.445859342 0.383560627
9085788 -0.441969484 0.388204902
9105488 -0.437576651 0.392691433
9125288 -0.433003634 0.397649675
9145088 -0.427997529 0.402490407
9164888 -0.42270559 0.407467395
9184588 -0.41666606 0.412230134
9204388 -0.410244435 0.416968643
9224188 -0.403200149 0.421601295
9243888 -0.395775347 0.426155686
9263688 -0.387597739 0.430244505
9283488 -0.37899816 0.434167444
9303288 -0.369811892 0.43793413
9322988 -0.359991639 0.441232562
9342788 -0.349647164 0.44418624
9362588 -0.338304162 0.446665585
9382288 -0.326633274 0.44840905
9402088 -0.314017325 0.449271827
9421888 -0.30095306 0.449350386
9441688 -0.287053287 0.448547154
9461388 -0.272531777 0.446384876
9481188 -0.257167547 0.442851334
9500988 -0.241921231 0.437647849
9520788 -0.225991159 0.430826544
9540488 -0.209945604 0.421883553
9560288 -0.193801999 0.410494983
9580088 -0.178318575 0.396773844
9599788 -0.163804858 0.380531162
9619588 -0.150770321 0.361343145
9639388 -0.139875546 0.339527726
9659188 -0.131306886 0.315322786
9678888 -0.126264542 0.289127051
9698688 -0.125232666 0.261163204
9718488 -0.128433495 0.232113763
9738188 -0.136559963 0.203606918
9757988 -0.149503752 0.17614372
9777788 -0.166910812 0.150589227
9797588 -0.188425347 0.128168791
9817288 -0.212789982 0.109753534
9837088 -0.239701434 0.095453143
9856888 -0.268121689 0.08559928
9876588 -0.296767055 0.08055742
9896388 -0.325214236 0.07952547
9916188 -0.352476626 0.082759745
9935988 -0.377921551 0.08879251
9955688 -0.401254206 0.097951799
9975488 -0.422415107 0.10885939
9995288 -0.44118312 0.121975369
10015088 -0.457917541 0.135907411
10034860 -0.472198933 0.151105016
10054560 -0.484668076 0.16643083
10074360 -0.494906961 0.182015135
10094160 -0.50351572 0.197733953
10113860 -0.510411739 0.213190168
10133660 -0.516102373 0.228437423
10153460 -0.520493805 0.243228211
10173260 -0.523904621 0.257781535
10192960 -0.526126444 0.271522164
10212760 -0.527473747 0.285121291
10232560 -0.528331398 0.298089802
10252260 -0.528436481 0.310497611
10272060 -0.527981996 0.322809219
10291860 -0.527032077 0.334355652
10311660 -0.525856554 0.345320641
10331360 -0.524431526 0.356274306
10351160 -0.522391796 0.366518616
10370960 -0.520191431 0.376748651
10390660 -0.517950713 0.386349678
10410460 -0.515175104 0.395812243
10430260 -0.512287378 0.404885619
10450060 -0.50900954 0.413776218
10469760 -0.506092905 0.422328203
10489560 -0.502767086 0.430504322
10509360 -0.499204069 0.438669592
10529160 -0.495644897 0.446346879
10548860 -0.491814881 0.454078078
10568660 -0.488099068 0.461315274
10588460 -0.484286755 0.468625456
10608160 -0.480313688 0.475599646
10627960 -0.476491093 0.482471436
10647760 -0.472158044 0.489078313
10667560 -0.468181043 0.495546877
10687260 -0.463858067 0.502048969
10707060 -0.459377408 0.508297085
10726860 -0.454969763 0.514208018
10746560 -0.450611889 0.520151019
10766360 -0.44591394 0.525866389
10786160 -0.441610455 0.53147906
10805960 -0.436630368 0.53706777
10825660 -0.432085841 0.542601943
10845460 -0.42707023 0.547843337
10865260 -0.42239201 0.552813768
10884960 -0.417386651 0.557963967
10904760 -0.412449836 0.562577664
10924560 -0.407525897 0.567459166
10944360 -0.402527183 0.572113037
10964060 -0.397656589 0.576444447
10983860 -0.392555624 0.580875039
11003660 -0.387430638 0.585015356
11023460 -0.382346034 0.589235365
11043160 -0.377291858 0.593213319
11062960 -0.372271746 0.597161233
11082760 -0.367057591 0.601039767
11102460 -0.36190617 0.604311704
11122260 -0.356656461 0.608202576
11142060 -0.351617425 0.611381053
11161860 -0.346446752 0.615096211
11181560 -0.341273874 0.618134498
11201360 -0.336178869 0.621160566
11221160 -0.330977022 0.624424576
11240860 -0.325875639 0.627272486
11260660 -0.320815294 0.63042277
11280460 -0.31572479 0.633127987
11300260 -0.310710847 0.636045157
11319960 -0.30551669 0.638645708
11339760 -0.300367146 0.641204655
11359560 -0.295226484 0.643990814
11379260 -0.290356487 0.646300733
11399060 -0.285439848 0.6488716
11418860 -0.280141443 0.651313483
11438660 -0.275096118 0.653481781
11458360 -0.27012667 0.655982434
11478160 -0.265019506 0.658183634
11497960 -0.259981721 0.660470008
11517760 -0.254949957 0.66236943
11537460 -0.249640911 0.664593994
11557260 -0.244880571 0.666643798
11577060 -0.239434748 0.668447494
11596760 -0.234397694 0.670314252
11616560 -0.229320108 0.671984732
11636360 -0.224088355 0.673667728
11656160 -0.219043478 0.675438404
11675860 -0.213805228 0.677127301
11695660 -0.208633139 0.678447365
11715460 -0.203771874 0.680008113
11735160 -0.198488608 0.681424975
11754960 -0.193383663 0.682732164
11774760 -0.188246339 0.683942496
11794560 -0.18319109 0.685165703
11814260 -0.178192779 0.686512231
11834060 -0.172894939 0.687389612
11853860 -0.167789489 0.688504278
11873560 -0.162954777 0.68933016
11893360 -0.157694652 0.690439105
11913160 -0.152747824 0.691259741
11932960 -0.147752106 0.691918313
11952660 -0.142622932 0.692491173
11972460 -0.137576535 0.693354964
11992260 -0.132553398 0.693914055
