# Hz S RI R 50
50000 -0.787408709 0.130481883
69700 -0.778384625 0.18194963
89500 -0.766101837 0.233467176
109300 -0.750761747 0.283414781
129000 -0.731997907 0.331965416
148800 -0.710510432 0.379218518
168600 -0.686673045 0.42472586
188400 -0.660208463 0.46863994
208100 -0.631443381 0.510252773
227900 -0.600586235 0.550050437
247700 -0.567606568 0.587871015
267400 -0.533011376 0.623392462
287200 -0.496561616 0.65683043
307000 -0.458443254 0.687841117
326800 -0.418901383 0.716311693
346500 -0.378425538 0.742399096
366300 -0.336803495 0.765932321
386100 -0.294008016 0.787226259
405800 -0.250718563 0.805407345
425600 -0.20685102 0.820874631
445400 -0.163068473 0.833053112
465200 -0.119075126 0.845479428
484900 -0.075728453 0.853797316
504700 -0.030501235 0.860183715
524500 0.012716986 0.864184439
544300 0.057497568 0.864838302
564000 0.100549809 0.864613592
583800 0.142096489 0.859886944
603600 0.184606939 0.855466544
623300 0.22536914 0.849423289
643100 0.265164375 0.84022665
662900 0.305655032 0.829788565
682700 0.345216423 0.818407058
702400 0.383610367 0.801924288
722200 0.420404314 0.784595072
742000 0.451374143 0.766729533
761700 0.485567808 0.748347938
781500 0.518595039 0.729934632
801300 0.54834032 0.705954432
821100 0.580269634 0.686616539
840800 0.60895276 0.659407436
860600 0.634573101 0.635360479
880400 0.658981561 0.611153662
900100 0.687552094 0.584425806
919900 0.705172419 0.554355144
939700 0.729943454 0.527206957
959500 0.747659564 0.503255665
979200 0.771186292 0.46631813
999000 0.782018363 0.436632066
1018800 0.796499192 0.406850278
1038600 0.813796222 0.377039939
1058300 0.823041856 0.341620475
1078100 0.833689451 0.313924968
1097900 0.842737913 0.275933951
1117600 0.850416779 0.253437042
1137400 0.854330599 0.215106219
1157200 0.860529601 0.184396982
1177000 0.85832566 0.151259794
1196700 0.864555895 0.118159644
1216500 0.858599543 0.08733537
1236300 0.857092499 0.052666641
1256000 0.846617758 0.02146185
1275800 0.84339416 0.003191577
1295600 0.836479544 -0.028005685
1315400 0.830966114 -0.057483501
1335100 0.815791249 -0.084037207
1354900 0.811845004 -0.108927622
1374700 0.802959561 -0.137018889
1394400 0.787126839 -0.16906169
1414200 0.765693843 -0.195560261
1434000 0.750151574 -0.196353599
1453800 0.742414712 -0.233682513
1473500 0.720995128 -0.251978754
1493300 0.696085453 -0.272934526
1513100 0.687466382 -0.288489371
1532900 0.662583529 -0.31148836
1552600 0.639215528 -0.33137995
1572400 0.598661065 -0.336475968
1592200 0.596067607 -0.331799954
1611900 0.580879151 -0.352992624
1631700 0.55068469 -0.372665494
1651500 0.518876075 -0.362417429
1671300 0.51531589 -0.36837995
1691000 0.49090296 -0.393535584
1710800 0.436498612 -0.38943541
1730600 0.428467541 -0.348394513
1750300 0.445456445 -0.36929199
1770100 0.397327303 -0.392555981
1789900 0.364385426 -0.350887209
1809700 0.390495598 -0.347825378
1829400 0.363286554 -0.38180378
1849200 0.302923917 -0.359822809
1869000 0.307936549 -0.300117045
1888700 0.34534648 -0.314875334
1908500 0.309687614 -0.342285096
1928300 0.279268324 -0.302426755
1948100 0.308131217 -0.288650393
1967800 0.301082581 -0.315813899
1987600 0.256486594 -0.30681914
2007400 0.24690096 -0.261713892
2027200 0.283717423 -0.239299997
2046972 0.292786508 -0.271589279
2066672 0.264551043 -0.266749441
2086472 0.26792252 -0.240513235
2106272 0.293783068 -0.252768814
2125972 0.267875164 -0.273260295
2145772 0.239346683 -0.254817336
2165572 0.251611053 -0.210324421
2185372 0.289304018 -0.221143603
2205072 0.281229645 -0.247729644
2224872 0.263245433 -0.237033575
2244672 0.282060146 -0.230983749
2264372 0.280685722 -0.258399665
2284172 0.250050932 -0.263320893
2303972 0.230148494 -0.230782359
2323772 0.26225695 -0.218186751
2343472 0.271983504 -0.235527589
2363272 0.255833745 -0.24789755
2383072 0.256088912 -0.237346947
2402772 0.258551687 -0.253498286
2422572 0.235989362 -0.263894349
2442372 0.207682609 -0.249950841
2462172 0.220569252 -0.217273861
2481872 0.232664704 -0.228996872
2501672 0.226572558 -0.239933878
2521472 0.213936388 -0.230378404
2541272 0.221336483 -0.237555846
2560972 0.19690524 -0.246952965
2580772 0.169796913 -0.23109059
2600572 0.176233649 -0.187297955
2620272 0.197600007 -0.198272451
2640072 0.190757781 -0.204047203
2659872 0.176587954 -0.190239384
2679672 0.191087499 -0.19033195
2699372 0.168656125 -0.199961766
2719172 0.142425045 -0.176088646
2738972 0.151899397 -0.1276526
2758672 0.182863309 -0.132556885
2778472 0.17782177 -0.135752007
2798272 0.174574717 -0.116278186
2818072 0.195289894 -0.114329993
2837772 0.186178699 -0.125307738
2857572 0.161043837 -0.103671535
2877372 0.174421444 -0.05881318
2897072 0.211875885 -0.049982696
2916872 0.220592588 -0.061044555
2936672 0.219669789 -0.043617822
2956472 0.245730116 -0.03011571
2976172 0.265576422 -0.041977591
2995972 0.251446753 -0.045808475
3015772 0.256349325 -0.007994055
3035572 0.2995781 0.005466437
3055272 0.322657346 -0.012091647
3075072 0.323224931 -0.007248755
3094872 0.35335654 0.005153303
3114572 0.38222301 -0.008859252
3134372 0.389561086 -0.024158321
3154172 0.396385937 -0.01730588
3173972 0.422238349 -0.014949305
3193672 0.449172526 -0.023609638
3213472 0.467469811 -0.039058689
3233272 0.483751088 -0.050080008
3252972 0.502216875 -0.062255628
3272772 0.520228803 -0.079838633
3292572 0.529732465 -0.10137403
3312372 0.537255465 -0.110500052
3332072 0.553609848 -0.120749443
3351872 0.5738402 -0.142253234
3371672 0.581412255 -0.167953044
3391372 0.585878193 -0.185929983
3411172 0.595855176 -0.203887954
3430972 0.602471232 -0.229300141
3450772 0.600220084 -0.250433832
3470472 0.601383984 -0.26348412
3490272 0.610552251 -0.280529797
3510072 0.615201175 -0.306240797
3529872 0.611045837 -0.328740745
3549572 0.609646618 -0.344822794
3569372 0.611753284 -0.365347564
3589172 0.60741353 -0.389164507
3608872 0.59839785 -0.406844913
3628672 0.595093309 -0.418943285
3648472 0.595279335 -0.438094913
3668272 0.589181602 -0.459857553
3687972 0.579975783 -0.475938618
3707772 0.575360655 -0.490613698
3727572 0.569587767 -0.510084807
3747272 0.55928868 -0.528203129
3767072 0.54744482 -0.541496157
3786872 0.541011154 -0.553272247
3806672 0.534033298 -0.569423854
3826372 0.523911774 -0.585472226
3846172 0.513262927 -0.598164796
3865972 0.504849493 -0.611953973
3885672 0.494172096 -0.627518415
3905472 0.48088631 -0.6414631
3925272 0.467533677 -0.652398467
3945072 0.456276088 -0.662893593
3964772 0.444665491 -0.674092411
3984572 0.431997328 -0.685257852
4004372 0.419286608 -0.694959104
4024172 0.407334595 -0.70502597
4043944 0.394267171 -0.715340256
4063644 0.379938364 -0.724175214
4083444 0.366339296 -0.731866359
4103244 0.353464305 -0.739052832
4122944 0.340744346 -0.746656715
4142744 0.327371507 -0.754114925
4162544 0.314294904 -0.760965168
4182344 0.300833404 -0.767822563
4202044 0.287014067 -0.774610459
4221844 0.27264145 -0.780460476
4241644 0.258390188 -0.785503447
4261344 0.244627043 -0.790098905
4281144 0.230757519 -0.794687509
4300944 0.217012509 -0.798825323
4320744 0.20302762 -0.803153038
4340444 0.188814401 -0.806549429
4360244 0.174611389 -0.809788942
4380044 0.160343006 -0.812344968
4399744 0.14611122 -0.814541757
4419544 0.132424131 -0.815896987
4439344 0.118992172 -0.81756854
4459144 0.10516078 -0.819134175
4478844 0.091471388 -0.820156574
4498644 0.077963531 -0.820946991
4518444 0.064145594 -0.821604669
4538244 0.050043877 -0.821637868
4557944 0.036285299 -0.820669054
4577744 0.023640371 -0.819137275
4597544 0.010763307 -0.818582534
4617244 -0.002223688 -0.817192971
4637044 -0.015186485 -0.815659523
4656844 -0.027360681 -0.814181566
4676644 -0.040240328 -0.812704086
4696344 -0.053476776 -0.810265362
4716144 -0.06639672 -0.80693376
4735944 -0.078177154 -0.80348879
4755644 -0.089854143 -0.800538539
4775444 -0.10186737 -0.797149479
4795244 -0.113544814 -0.793406367
4815044 -0.12457294 -0.789620161
4834744 -0.136129081 -0.786258816
4854544 -0.148236617 -0.781803786
4874344 -0.159737303 -0.776311814
4894044 -0.170252546 -0.770967721
4913844 -0.180491924 -0.765802204
4933644 -0.191064909 -0.76044619
4953444 -0.201025649 -0.75477457
4973144 -0.210796356 -0.749197125
4992944 -0.221031859 -0.743696153
5012744 -0.231003254 -0.736908614
5032544 -0.240701436 -0.729704618
5052244 -0.249146625 -0.722477853
5072044 -0.257341921 -0.715359091
5091844 -0.265745222 -0.708261072
5111544 -0.273356884 -0.700878918
5131344 -0.280952244 -0.693801999
5151144 -0.288790881 -0.68614304
5170944 -0.296262949 -0.677514731
5190644 -0.302170842 -0.668711304
5210444 -0.307360231 -0.66025865
5230244 -0.312832325 -0.652256846
5249944 -0.317725867 -0.643776059
5269744 -0.321719139 -0.635448276
5289544 -0.325825452 -0.627508997
5309344 -0.329697906 -0.618837773
5329044 -0.332266002 -0.609576463
5348844 -0.33306083 -0.601228058
5368644 -0.333934605 -0.594210386
5388344 -0.334726542 -0.586950719
5408144 -0.33421576 -0.580150127
5427944 -0.333639085 -0.574748992
5447744 -0.333502829 -0.569376945
5467444 -0.332475692 -0.563742041
5487244 -0.329828679 -0.559238493
5507044 -0.327435553 -0.556831479
5526844 -0.325628578 -0.555272459
5546544 -0.324010848 -0.554289758
5566344 -0.322487086 -0.554392814
5586144 -0.321903824 -0.555639326
5605844 -0.322073549 -0.55678457
5625644 -0.322327584 -0.558045983
5645444 -0.322828263 -0.560852706
5665244 -0.324552685 -0.564195334
5684944 -0.327398598 -0.567771196
5704744 -0.330945104 -0.571521937
5724544 -0.335845381 -0.57570064
5744244 -0.341818511 -0.57873851
5764044 -0.348238766 -0.581830382
5783844 -0.355144649 -0.58428806
5803644 -0.362943708 -0.586649894
5823344 -0.371313244 -0.588483631
5843144 -0.380185186 -0.58943367
5862944 -0.389395207 -0.589697599
5882644 -0.398684233 -0.589489519
5902444 -0.407998681 -0.588384866
5922244 -0.417222648 -0.586885929
5942044 -0.426394641 -0.585143148
5961744 -0.435556977 -0.583085477
5981544 -0.444617122 -0.580613672
6001344 -0.454082906 -0.577723264
6021144 -0.463288336 -0.574430644
6040916 -0.472510695 -0.570968031
6060616 -0.481686353 -0.566994607
6080416 -0.490748137 -0.562568366
6100216 -0.499833643 -0.558070003
6119916 -0.508653461 -0.55311495
6139716 -0.517377734 -0.547602236
6159516 -0.526016712 -0.542074143
6179316 -0.534418106 -0.53614372
6199016 -0.542543292 -0.530150413
6218816 -0.550375878 -0.523779153
6238616 -0.55821228 -0.517378509
6258316 -0.565522313 -0.510965406
6278116 -0.572616994 -0.504164278
6297916 -0.579631924 -0.497401118
6317716 -0.586374759 -0.490405201
6337416 -0.592696487 -0.483660072
6357216 -0.598985373 -0.476741135
6377016 -0.605042994 -0.469787597
6396716 -0.610661268 -0.462720096
6416516 -0.616387486 -0.455505996
6436316 -0.621872842 -0.448325693
6456116 -0.626962304 -0.441051006
6475816 -0.632089853 -0.433480411
6495616 -0.636948823 -0.42594555
6515416 -0.641690373 -0.417949378
6535216 -0.646058261 -0.410312175
6554916 -0.650292754 -0.402427703
6574716 -0.654354691 -0.39443621
6594516 -0.658288061 -0.386525541
6614216 -0.662034273 -0.378642022
6634016 -0.665735244 -0.37069416
6653816 -0.668937027 -0.362775474
6673616 -0.672302126 -0.354976683
6693316 -0.675345838 -0.347322732
6713116 -0.678691625 -0.339690804
6732916 -0.681660711 -0.332197904
6752616 -0.684837162 -0.324564367
6772416 -0.68780446 -0.317093372
6792216 -0.690833866 -0.309651255
6812016 -0.693876087 -0.302231878
6831716 -0.696747243 -0.294784933
6851516 -0.699624419 -0.287329375
6871316 -0.702648937 -0.279541045
6891016 -0.705675184 -0.272106647
6910816 -0.708352923 -0.264333188
6930616 -0.71135056 -0.256549596
6950416 -0.714014172 -0.248688504
6970116 -0.716711819 -0.240636333
6989916 -0.719144523 -0.232706964
7009716 -0.721457719 -0.224600344
7029516 -0.723717689 -0.216581612
7049216 -0.725951135 -0.208313316
7069016 -0.72777605 -0.199958205
7088816 -0.729724764 -0.191714376
7108516 -0.731235802 -0.183359935
7128316 -0.732910335 -0.175196215
7148116 -0.734174966 -0.166758939
7167916 -0.735396027 -0.158344075
7187616 -0.736657738 -0.150143489
7207416 -0.737600326 -0.141811549
7227216 -0.738298356 -0.133316278
7246916 -0.738996863 -0.125172778
7266716 -0.739616632 -0.116994395
7286516 -0.739898502 -0.108606472
7306316 -0.740348041 -0.100526876
7326016 -0.740571796 -0.092187628
7345816 -0.740864098 -0.083905361
7365616 -0.740739822 -0.075715951
7385316 -0.740513026 -0.067574724
7405116 -0.740403652 -0.0595178
7424916 -0.740142464 -0.051457155
7444716 -0.739513278 -0.04344853
7464416 -0.739008724 -0.03535242
7484216 -0.738410234 -0.027368737
7504016 -0.737691581 -0.019379006
7523816 -0.736994802 -0.011273046
7543516 -0.735914707 -0.003290165
7563316 -0.73475939 0.004407791
7583116 -0.733442306 0.012372282
7602816 -0.73244971 0.020110415
7622616 -0.731278836 0.028249669
7642416 -0.729581773 0.036144491
7662216 -0.727959036 0.043964821
7681916 -0.726172864 0.051747117
7701716 -0.724410533 0.059336267
7721516 -0.722378492 0.067027278
7741216 -0.720535576 0.074922293
7761016 -0.71830219 0.082645654
7780816 -0.715815067 0.090329751
7800616 -0.713491737 0.098097026
7820316 -0.710904955 0.105591259
7840116 -0.708152174 0.113179601
7859916 -0.705376923 0.120631262
7879616 -0.702333629 0.128061875
7899416 -0.699281573 0.135397762
7919216 -0.695958077 0.14284636
7939016 -0.692523837 0.150076419
7958716 -0.689065992 0.157337576
7978516 -0.685117542 0.164490237
7998316 -0.681213974 0.17142862
8018116 -0.677086889 0.178432017
8037888 -0.673221886 0.185162082
8057588 -0.668679296 0.191715106
8077388 -0.664437353 0.198270782
8097188 -0.659792721 0.204807877
8116888 -0.65508306 0.211119875
8136688 -0.650082707 0.217163443
8156488 -0.645223379 0.223196655
8176288 -0.640306711 0.22918199
8195988 -0.635125279 0.234899461
8215788 -0.629774332 0.240435853
8235588 -0.624389111 0.245693996
8255288 -0.61890608 0.251173853
8275088 -0.612833499 0.256081372
8294888 -0.60715872 0.260985255
8314688 -0.60112679 0.265154033
8334388 -0.595314443 0.269330263
8354188 -0.589297294 0.273154169
8373988 -0.583453476 0.276695758
8393688 -0.577893733 0.279844492
8413488 -0.572219431 0.283016085
8433288 -0.566839993 0.285522043
8453088 -0.56155616 0.288262158
8472788 -0.556331694 0.290763407
8492588 -0.551559865 0.293244153
8512388 -0.546635448 0.295943319
8532188 -0.542118132 0.298418849
8551888 -0.537489295 0.301064193
8571688 -0.532585978 0.303909212
8591488 -0.527603685 0.306409448
8611188 -0.522697925 0.30905041
8630988 -0.517557322 0.311327129
8650788 -0.512205302 0.313293695
8670588 -0.506913959 0.314991176
8690288 -0.501670539 0.316336095
8710088 -0.496658563 0.317400008
8729888 -0.491910547 0.318160116
8749588 -0.48745501 0.318357676
8769388 -0.483343124 0.318593353
8789188 -0.479819953 0.318900376
8808988 -0.476689308 0.31912294
8828688 -0.473821699 0.319464683
8848488 -0.471377938 0.320198088
8868288 -0.469340175 0.32089141
8887988 -0.467580169 0.322016566
8907788 -0.465831667 0.323909044
8927588 -0.46413058 0.326016068
8947388 -0.462287515 0.32849732
8967088 -0.460575968 0.331119775
8986888 -0.458439677 0.334271222
9006688 -0.456337302 0.337847262
9026488 -0.453845947 0.34153378
9046188 -0.451005905 0.345444649
9065988 -0.447829335 0.349683254
9085788 -0.44445008 0.354046255
9105488 -0.440568 0.358613342
9125288 -0.436349183 0.363097876
9145088 -0.431602627 0.367702096
9164888 -0.426361322 0.37261337
9184588 -0.420817047 0.377094388
9204388 -0.414663702 0.38193503
9224188 -0.40800184 0.386342793
9243888 -0.400926887 0.390694141
9263688 -0.393183588 0.394963502
9283488 -0.384592205 0.398838281
9303288 -0.375773698 0.402649402
9322988 -0.366191774 0.406048685
9342788 -0.355814576 0.409000962
9362588 -0.344553172 0.41133368
9382288 -0.332944124 0.413024693
9402088 -0.320209234 0.413810104
9421888 -0.306854754 0.413874596
9441688 -0.292932331 0.412501156
9461388 -0.278500229 0.410241246
9481188 -0.263102561 0.40611431
9500988 -0.247358784 0.400806903
9520788 -0.231342047 0.393095284
9540488 -0.215454325 0.383409321
9560288 -0.199706211 0.370927572
9580088 -0.18469958 0.356182724
9599788 -0.170984327 0.338806748
9619588 -0.158718317 0.318788528
9639388 -0.148742735 0.296170562
9659188 -0.141511127 0.271188825
9678888 -0.13775666 0.244206175
9698688 -0.138536959 0.215599104
9718488 -0.143823638 0.186567604
9738188 -0.153786435 0.158044114
9757988 -0.168543472 0.130930989
9777788 -0.187915399 0.10616336
9797588 -0.211065798 0.085069328
9817288 -0.237160995 0.06785877
9837088 -0.265491455 0.055342692
9856888 -0.294803202 0.047461669
9876588 -0.323759078 0.044483888
9896388 -0.352468729 0.045577295
9916188 -0.379256039 0.050343107
9935988 -0.403972953 0.058108109
9955688 -0.426590859 0.068418048
9975488 -0.44701451 0.080647148
9995288 -0.465023487 0.094400502
10015088 -0.480704396 0.109178848
10034860 -0.494217187 0.124546997
10054560 -0.505615472 0.140259638
10074360 -0.515095055 0.156133979
10094160 -0.52303338 0.171736583
10113860 -0.52950257 0.187248304
10133660 -0.534609258 0.20228298
10153460 -0.53873229 0.21698144
10173260 -0.541581332 0.231368154
10192960 -0.543504536 0.245257958
10212760 -0.544548809 0.258750408
10232560 -0.545011639 0.271547734
10252260 -0.545108556 0.283908814
10272060 -0.544563233 0.295846909
10291860 -0.543513357 0.307363927
10311660 -0.542148113 0.318432599
10331360 -0.540244162 0.328884541
10351160 -0.538374364 0.339067399
10370960 -0.536050796 0.34902504
10390660 -0.53338623 0.358688682
10410460 -0.530902564 0.36778751
10430260 -0.527888357 0.376598447
10450060 -0.524722993 0.385239243
10469760 -0.521689355 0.393596082
10489560 -0.518445074 0.401702255
10509360 -0.515069961 0.409716069
10529160 -0.511354804 0.417349815
10548860 -0.507537126 0.424905747
10568660 -0.503929853 0.432132869
10588460 -0.500014424 0.439049661
10608160 -0.496409296 0.445769906
10627960 -0.49244067 0.452457904
10647760 -0.488397985 0.459256708
10667560 -0.484216928 0.46570298
10687260 -0.480019897 0.471864134
10707060 -0.475700229 0.477994233
10726860 -0.471355676 0.483891963
10746560 -0.467034906 0.489579528
10766360 -0.46288219 0.495208382
10786160 -0.458251178 0.500899672
10805960 -0.453644216 0.506290256
10825660 -0.449053615 0.511470794
10845460 -0.444595336 0.516585409
10865260 -0.439907193 0.521548211
10884960 -0.435378789 0.526274085
10904760 -0.430618077 0.530984461
10924560 -0.426076203 0.535811662
10944360 -0.421245902 0.540367782
10964060 -0.416427522 0.544634103
10983860 -0.411568582 0.54891175
11003660 -0.406626433 0.553146839
11023460 -0.401813 0.557219147
11043160 -0.39689961 0.560937047
11062960 -0.392183333 0.565100073
11082760 -0.38736552 0.569052219
11102460 -0.382285475 0.572462141
11122260 -0.377430796 0.576018571
11142060 -0.372545599 0.579449474
11161860 -0.367725163 0.583007872
11181560 -0.362860411 0.586363911
11201360 -0.358071535 0.589438319
11221160 -0.353028833 0.592824757
11240860 -0.348253905 0.59555453
11260660 -0.3434529 0.598711431
11280460 -0.338506907 0.60164535
11300260 -0.333598017 0.604457914
11319960 -0.328857004 0.607289731
11339760 -0.323945462 0.610181987
11359560 -0.319046676 0.612814426
11379260 -0.314149469 0.615392208
11399060 -0.309357672 0.617987394
11418860 -0.304429113 0.620560228
11438660 -0.29963091 0.62296915
11458360 -0.294873028 0.625572383
11478160 -0.289897322 0.627888977
11497960 -0.28505674 0.630219399
11517760 -0.280011296 0.632201671
11537460 -0.275187373 0.634389936
11557260 -0.270188391 0.636728703
11577060 -0.265221893 0.638872623
11596760 -0.26021406 0.640829026
11616560 -0.255296677 0.642733395
11636360 -0.250347971 0.644459903
11656160 -0.24543485 0.646413326
11675860 -0.240427494 0.648214817
11695660 -0.235480681 0.650260388
11715460 -0.230396687 0.651600241
11735160 -0.225526914 0.65312165
11754960 -0.220537632 0.65456736
11774760 -0.215509757 0.656099915
11794560 -0.210451453 0.657509744
11814260 -0.205266401 0.658792316
11834060 -0.200392037 0.659983575
11853860 -0.195341408 0.661205053
11873560 -0.190380543 0.662239313
11893360 -0.185571029 0.66358906
11913160 -0.180380001 0.664462685
11932960 -0.175272971 0.665548503
11952660 -0.170365408 0.666217505
11972460 -0.165322914 0.66715157
11992260 -0.160472944 0.667964875
