# Hz S RI R 50
2000000 -0.400069057 0.715952575
2006900 -0.39776948 0.717546641
2013800 -0.394839227 0.718663394
2020800 -0.392695844 0.719608545
2027700 -0.390094727 0.720846652
2034600 -0.387808293 0.722480893
2041600 -0.384936034 0.723247349
2048500 -0.382312893 0.724454879
2055400 -0.380071073 0.725937128
2062400 -0.377373039 0.727269172
2069300 -0.374965488 0.728927969
2076300 -0.372280657 0.729472339
2083200 -0.369730561 0.730928361
2090100 -0.367282122 0.731879651
2097100 -0.364162594 0.733240962
2104000 -0.361890077 0.73434031
2110900 -0.359136879 0.735552847
2117900 -0.356606066 0.736966848
2124800 -0.353627324 0.738335072
2131800 -0.351587176 0.739061176
2138700 -0.348173588 0.740401804
2145600 -0.345974951 0.74121195
2152600 -0.343181699 0.742714464
2159500 -0.340118616 0.743579387
2166400 -0.33808428 0.744330942
2173400 -0.334940284 0.745628833
2180300 -0.332394689 0.746616125
2187200 -0.330350339 0.747319817
2194200 -0.327271521 0.747367501
2201100 -0.324584841 0.748438835
2208100 -0.32205367 0.749548792
2215000 -0.319430321 0.750599205
2221900 -0.316903799 0.751721024
2228900 -0.314094096 0.752719342
2235800 -0.311415255 0.753698348
2242700 -0.308562338 0.754586338
2249700 -0.305891036 0.755512893
2256600 -0.303086638 0.75643593
2263600 -0.300350159 0.757428109
2270500 -0.297736942 0.758414566
2277400 -0.295113474 0.759332954
2284400 -0.292114436 0.760332465
2291300 -0.289456725 0.76100707
2298200 -0.286645889 0.762020051
2305200 -0.283967852 0.762705922
2312100 -0.281487584 0.763521015
2319100 -0.278591513 0.764386713
2326000 -0.275975704 0.765258789
2332900 -0.273148447 0.766031384
2339900 -0.27047795 0.767004072
2346800 -0.267878144 0.767844915
2353700 -0.265190601 0.768859803
2360700 -0.262347638 0.769544303
2367600 -0.259655743 0.770607233
2374500 -0.256715565 0.771524727
2381500 -0.25390622 0.772440254
2388400 -0.251044332 0.773153007
2395400 -0.248364403 0.773811697
2402300 -0.245387092 0.774517655
2409200 -0.242787972 0.775335669
2416200 -0.239879578 0.776043474
2423100 -0.236983522 0.776629745
2430000 -0.234017491 0.777450144
2437000 -0.231258824 0.778133094
2443900 -0.228423267 0.778689801
2450900 -0.2255387 0.779320895
2457800 -0.222539573 0.779863774
2464700 -0.220002576 0.780473232
2471700 -0.217226877 0.781116425
2478600 -0.214384078 0.781694889
2485500 -0.21160385 0.782447278
2492500 -0.208790048 0.783063411
2499400 -0.206116184 0.783827602
2506400 -0.203140556 0.784496963
2513300 -0.200319394 0.785093486
2520200 -0.197372704 0.785737276
2527200 -0.194517701 0.786453008
2534100 -0.191559419 0.786974847
2541000 -0.188479065 0.787442803
2548000 -0.18576309 0.787948668
2554900 -0.182508841 0.78864324
2561800 -0.17964074 0.78889954
2568800 -0.176781773 0.789233028
2575700 -0.173819959 0.789832651
2582700 -0.171066641 0.79022777
2589600 -0.168174803 0.790650188
2596500 -0.165424019 0.790926337
2603500 -0.162431612 0.791522324
2610400 -0.159901767 0.791871607
2617300 -0.156857237 0.792227566
2624300 -0.154003605 0.792590558
2631200 -0.151193439 0.793224513
2638200 -0.148239195 0.793565273
2645100 -0.145357713 0.794164419
2652000 -0.142439827 0.794417619
2659000 -0.139358237 0.795005381
2665900 -0.136413753 0.795149683
2672800 -0.133279755 0.795639455
2679800 -0.130401417 0.79583168
2686700 -0.127399861 0.796195864
2693700 -0.124332562 0.796288251
2700637 -0.12112791 0.796714663
2707537 -0.118346825 0.796921133
2714437 -0.115500405 0.797067344
2721437 -0.112468093 0.797311246
2728337 -0.109401039 0.797507226
2735237 -0.106581188 0.797831594
2742237 -0.103684581 0.797992706
2749137 -0.100813776 0.798391997
2756037 -0.097790934 0.798652231
2763037 -0.094630844 0.798810482
2769937 -0.091507732 0.799044072
2776937 -0.088276252 0.79932326
2783837 -0.085282668 0.799525499
2790737 -0.082244545 0.799573063
2797737 -0.079024821 0.799418449
2804637 -0.075786463 0.799756646
2811537 -0.072677165 0.79958117
2818537 -0.069693014 0.799615621
2825437 -0.066550627 0.799525558
2832437 -0.063546799 0.79938358
2839337 -0.060374375 0.799331188
2846237 -0.057459972 0.799104034
2853237 -0.054501179 0.799103558
2860137 -0.051644247 0.798983871
2867037 -0.048768896 0.799104571
2874037 -0.045794773 0.799164533
2880937 -0.04260677 0.799124836
2887837 -0.039294604 0.799319148
2894837 -0.036139667 0.799072444
2901737 -0.032736234 0.799056887
2908737 -0.029838472 0.798746585
2915637 -0.026720162 0.798486769
2922537 -0.023565981 0.798259437
2929537 -0.020234396 0.797951698
2936437 -0.017192509 0.797772407
2943337 -0.014093115 0.79751873
2950337 -0.011052802 0.797388494
2957237 -0.007887012 0.797157764
2964237 -0.004627855 0.796719968
2971137 -0.001248034 0.796513795
2978037 0.002185773 0.795813143
2985037 0.005176381 0.795529425
2991937 0.008354327 0.794991731
2998837 0.011558097 0.794637322
3005837 0.014739253 0.794073998
3012737 0.017737118 0.793559074
3019737 0.020685011 0.792937755
3026637 0.024005776 0.792359769
3033537 0.027086505 0.791925191
3040537 0.030530933 0.791329145
3047437 0.033484838 0.790822207
3054337 0.036763556 0.790067195
3061337 0.040106475 0.789154827
3068237 0.043113753 0.788312077
3075137 0.046059861 0.787316262
3082137 0.048871766 0.78648895
3089037 0.051631923 0.785646855
3096037 0.054258089 0.784977078
3102937 0.057172056 0.784771561
3109837 0.060197826 0.784353256
3116837 0.06358128 0.783830285
3123737 0.066946282 0.783196985
3130637 0.070283629 0.782328009
3137637 0.073675096 0.781487584
3144537 0.076835036 0.78038001
3151537 0.080151684 0.779474854
3158437 0.083225525 0.778333127
3165337 0.086094178 0.777145743
3172337 0.089112743 0.775990605
3179237 0.091910287 0.775026142
3186137 0.095022469 0.774097561
3193137 0.098072499 0.773162245
3200037 0.101069808 0.77221179
3207037 0.104311458 0.771204292
3213937 0.107292592 0.770051717
3220837 0.110515102 0.769046247
3227837 0.113790981 0.767673373
3234737 0.11674115 0.766390979
3241637 0.120070219 0.765029013
3248637 0.123220384 0.763537585
3255537 0.126261219 0.762102127
3262437 0.129082575 0.760513424
3269437 0.131966784 0.758844554
3276337 0.135026156 0.757214486
3283337 0.137629672 0.755708456
3290237 0.140291765 0.753804028
3297137 0.142631918 0.752239763
3304137 0.145219743 0.751046597
3311037 0.147751927 0.7497949
3317937 0.150500342 0.748488962
3324937 0.153313487 0.747530341
3331837 0.156207039 0.746176064
3338837 0.159487396 0.744639635
3345737 0.162343099 0.742851555
3352637 0.16503109 0.741217613
3359637 0.168131649 0.739269912
3366537 0.170634239 0.73751831
3373437 0.173267781 0.735668897
3380437 0.175810128 0.733691632
3387337 0.178269773 0.732196986
3394337 0.181005433 0.730094313
3401274 0.184134796 0.728183329
3408174 0.185571119 0.727631092
3415074 0.188737243 0.725083351
3422074 0.191293448 0.72376579
3428974 0.193851664 0.721237957
3435874 0.195448204 0.719123959
3442874 0.198224097 0.716690957
3449774 0.200218856 0.714951515
3456674 0.20215775 0.712542414
3463674 0.203814089 0.710657
3470574 0.205273568 0.708955168
3477574 0.207169473 0.707582473
3484474 0.208991125 0.706043601
3491374 0.211061 0.70498085
3498374 0.213481649 0.703077554
3505274 0.21624352 0.701714992
3512174 0.21876119 0.699926257
3519174 0.221659913 0.697955369
3526074 0.223875969 0.69569689
3533074 0.226276949 0.692927718
3539974 0.228469401 0.690644085
3546874 0.230530485 0.688225746
3553874 0.232524558 0.685674846
3560774 0.234187155 0.683256864
3567674 0.235675662 0.681155145
3574674 0.237896367 0.679102361
3581574 0.239182114 0.676867365
3588474 0.240774691 0.674147069
3595474 0.242733046 0.671582341
3602374 0.24399729 0.668563067
3609374 0.244986876 0.666022002
3616274 0.246084377 0.663321256
3623174 0.246280804 0.661005556
3630174 0.24680756 0.659040987
3637074 0.246900439 0.657043814
3643974 0.247149422 0.65573132
3650974 0.24735637 0.654750227
3657874 0.24805206 0.653735399
3664874 0.249280035 0.653029918
3671774 0.250318616 0.653184354
3678674 0.252781748 0.653027296
3685674 0.254800707 0.651677489
3692574 0.256886482 0.650452613
3699474 0.259396612 0.648462414
3706474 0.260911583 0.646844089
3713374 0.262695968 0.64450103
3720374 0.264609336 0.642307877
3727274 0.265736997 0.640176296
3734174 0.266888082 0.638195931
3741174 0.268843501 0.636701524
3748074 0.269585907 0.635200381
3754974 0.270908594 0.633075952
3761974 0.272643029 0.63166666
3768874 0.273733019 0.629221022
3775774 0.275282651 0.627669453
3782774 0.276852816 0.624939382
3789674 0.27795127 0.62274897
3796674 0.278662055 0.619622409
3803574 0.279153764 0.617113769
3810474 0.278522372 0.614662349
3817474 0.278021097 0.612734079
3824374 0.277633845 0.611593961
3831274 0.277168065 0.610493779
3838274 0.276645213 0.609778821
3845174 0.276415288 0.610109746
3852174 0.276719897 0.61021614
3859074 0.277967065 0.610492229
3865974 0.27889958 0.610702455
3872974 0.280661761 0.610194146
3879874 0.281978607 0.610781013
3886774 0.283932179 0.609838545
3893774 0.285354256 0.608888328
3900674 0.286947816 0.607896685
3907674 0.2891137 0.607582509
3914574 0.290285348 0.606682181
3921474 0.291937232 0.605793416
3928474 0.293430209 0.604617059
3935374 0.294880032 0.604324936
3942274 0.296946883 0.603625476
3949274 0.298859298 0.602392733
3956174 0.300869822 0.600979447
3963074 0.303088933 0.600016832
3970074 0.304783135 0.598569095
3976974 0.30653879 0.596540749
3983974 0.308221668 0.594587445
3990874 0.309920132 0.592749595
3997774 0.31065458 0.590854942
4004774 0.311430513 0.588431894
4011674 0.312033534 0.58700025
4018574 0.312351673 0.586121976
4025574 0.312856256 0.584545731
4032474 0.313059359 0.584501624
4039474 0.313401371 0.58396703
4046374 0.314270466 0.58398807
4053274 0.315213114 0.584283173
4060274 0.316508501 0.584580242
4067174 0.317809194 0.5846619
4074074 0.319749295 0.58514595
4081074 0.321763455 0.584160566
4087974 0.324346661 0.584071993
4094974 0.326554417 0.58298701
4101911 0.329559236 0.583386957
4108811 0.332004785 0.5822649
4115711 0.334021478 0.581614911
4122711 0.336646378 0.58038038
4129611 0.338667154 0.57941848
4136511 0.3410016 0.578716933
4143511 0.343167841 0.577271401
4150411 0.345981568 0.57640779
4157311 0.34864211 0.574875891
4164311 0.351039439 0.573326766
4171211 0.353824138 0.57142347
4178211 0.355829924 0.570009291
4185111 0.358152896 0.567773342
4192011 0.359471231 0.565509617
4199011 0.361663758 0.56393975
4205911 0.362949818 0.561368584
4212811 0.364304065 0.559963107
4219811 0.365107417 0.558538794
4226711 0.366581588 0.557375848
4233711 0.368210911 0.556150078
4240611 0.369869738 0.556038141
4247511 0.371933579 0.55519396
4254511 0.37477076 0.554008245
4261411 0.376817315 0.553260028
4268311 0.37962374 0.551723241
4275311 0.382013082 0.550561547
4282211 0.384720683 0.548713445
4289111 0.387181401 0.546738743
4296111 0.389093965 0.545156598
4303011 0.392294585 0.542925119
4310011 0.394391477 0.54111427
4316911 0.396819502 0.538946866
4323811 0.398488283 0.536273002
4330811 0.401366531 0.535150468
4337711 0.403446376 0.532761335
4344611 0.405960619 0.530834019
4351611 0.408408105 0.527929544
4358511 0.410116404 0.525458931
4365511 0.411680042 0.522805571
4372411 0.413829475 0.519980669
4379311 0.415066003 0.517762064
4386311 0.416665315 0.515530586
4393211 0.417588889 0.513148486
4400111 0.41929087 0.511546194
4407111 0.420308887 0.509855806
4414011 0.421895176 0.508630692
4421011 0.42466247 0.506939768
4427911 0.426882416 0.505361497
4434811 0.429476052 0.503832101
4441811 0.432105511 0.501618146
4448711 0.434664934 0.499167472
4455611 0.437049597 0.496562302
4462611 0.440202713 0.493905603
4469511 0.442473977 0.491092801
4476411 0.444487601 0.488293796
4483411 0.446851491 0.485490351
4490311 0.449101775 0.481964439
4497311 0.450933128 0.479254812
4504211 0.453283995 0.476195275
4511111 0.455519944 0.473045378
4518111 0.457381606 0.469850331
4525011 0.459891527 0.46607533
4531911 0.46145603 0.462053894
4538911 0.464208006 0.458161741
4545811 0.465320736 0.453668177
4552811 0.466912299 0.449513286
4559711 0.467297911 0.445321202
4566611 0.467903673 0.441288411
4573611 0.467999845 0.437362641
4580511 0.467912077 0.43414101
4587411 0.467820584 0.43085432
4594411 0.467138916 0.428564131
4601311 0.467541247 0.426514536
4608311 0.467672556 0.424592226
4615211 0.469100147 0.422893285
4622111 0.470585465 0.421595156
4629111 0.472564607 0.419364392
4636011 0.475641727 0.416360318
4642911 0.477202087 0.413486242
4649911 0.479525685 0.409896194
4656811 0.48129341 0.406185656
4663711 0.4824014 0.401967197
4670711 0.484304964 0.398011356
4677611 0.484958618 0.39413017
4684611 0.486285239 0.389943182
4691511 0.487185597 0.386351913
4698411 0.488077402 0.382811963
4705411 0.489257752 0.378868967
4712311 0.490163117 0.375176668
4719211 0.492151111 0.371466189
4726211 0.492755293 0.367130935
4733111 0.494050174 0.362130135
4740111 0.494523525 0.357109874
4747011 0.494931936 0.351859092
4753911 0.494890183 0.346875637
4760911 0.494774311 0.341845929
4767811 0.494069546 0.336657375
4774711 0.493101119 0.331977427
4781711 0.491751968 0.327397346
4788611 0.490065604 0.323423087
4795611 0.488646775 0.319629907
4802548 0.487483859 0.315426737
4809448 0.48593828 0.311909109
4816348 0.484480828 0.308314532
4823348 0.48294419 0.305748224
4830248 0.481618404 0.303195506
4837148 0.48059225 0.300592422
4844148 0.480291306 0.298462986
4851048 0.480493426 0.295888185
4857948 0.480274319 0.293131589
4864948 0.480939954 0.289206027
4871848 0.480818837 0.285520613
4878848 0.480376452 0.281706273
4885748 0.48022753 0.277274191
4892648 0.479813605 0.272989541
4899648 0.478522211 0.268765509
4906548 0.477347165 0.264763295
4913448 0.476475566 0.260982602
4920448 0.474899172 0.257149398
4927348 0.474106967 0.253053843
4934348 0.47238624 0.248640403
4941248 0.471296846 0.244836673
4948148 0.46966961 0.240350738
4955148 0.468380481 0.235683783
4962048 0.466105192 0.23147124
4968948 0.463222056 0.226903274
4975948 0.460146158 0.223270595
4982848 0.457400053 0.218713045
4989748 0.45446828 0.215462401
4996748 0.450707197 0.211597919
5003648 0.447704762 0.208639487
5010648 0.444119393 0.205846279
5017548 0.44092524 0.203203588
5024448 0.437909007 0.201540887
5031448 0.434574842 0.198955416
5038348 0.431756645 0.196986407
5045248 0.429088979 0.1949611
5052248 0.426436513 0.192757502
5059148 0.42412433 0.19064781
5066148 0.421652376 0.188576549
5073048 0.418704032 0.18600668
5079948 0.416561931 0.183432757
5086948 0.413933306 0.181526571
5093848 0.41087833 0.178890168
5100748 0.40836808 0.176352083
5107748 0.405375421 0.173896431
5114648 0.402047038 0.171578675
5121648 0.398489922 0.169164463
5128548 0.395608574 0.166912585
5135448 0.392440468 0.164802208
5142448 0.388660967 0.162824302
5149348 0.384632259 0.160773664
5156248 0.381166756 0.15922591
5163248 0.377257645 0.157640561
5170148 0.372801423 0.156007796
5177048 0.36849597 0.154884457
5184048 0.364059656 0.153916105
5190948 0.360450983 0.153610438
5197948 0.356149137 0.153252959
5204848 0.352538496 0.153569057
5211748 0.348866045 0.15349321
5218748 0.345853716 0.153578773
5225648 0.342314243 0.153856217
5232548 0.339794754 0.154069587
5239548 0.336754441 0.15370275
5246448 0.334054708 0.153770625
5253448 0.331478536 0.153515309
5260348 0.328494966 0.153378248
5267248 0.32540366 0.152523592
5274248 0.321721225 0.152119651
5281148 0.318771153 0.151917397
5288048 0.314993172 0.151685535
5295048 0.31126374 0.151971295
5301948 0.307619094 0.152159452
5308948 0.304076015 0.152763128
5315848 0.300341576 0.152974158
5322748 0.296826153 0.153634548
5329748 0.293357312 0.154529079
5336648 0.289480119 0.155225738
5343548 0.28567788 0.156423717
5350548 0.281662106 0.157600849
5357448 0.27772504 0.159863322
5364348 0.274116992 0.161849245
5371348 0.270805716 0.164500519
5378248 0.267725825 0.167353913
5385248 0.264430969 0.170317441
5392148 0.262180864 0.173673421
5399048 0.260381072 0.177209764
5406048 0.258677184 0.180198222
5412948 0.257616281 0.183284983
5419848 0.256988406 0.186213001
5426848 0.256311744 0.18842855
5433748 0.256207138 0.190621733
5440748 0.255970895 0.192136198
5447648 0.255292385 0.193474367
5454548 0.253887295 0.194676056
5461548 0.252931028 0.195734143
5468448 0.25157234 0.197213098
5475348 0.24999158 0.198493748
5482348 0.248645335 0.200194299
5489248 0.246903404 0.20234014
5496248 0.245317399 0.204485759
5503185 0.243842318 0.20727545
5510085 0.242086395 0.208981961
5516985 0.241744369 0.2112623
5523985 0.239871859 0.213439688
5530885 0.239231914 0.2158802
5537785 0.238427698 0.21805711
5544785 0.237171128 0.220281332
5551685 0.235836222 0.222736269
5558585 0.234905377 0.225741893
5565585 0.234002336 0.228835642
5572485 0.233612641 0.231975212
5579485 0.233587086 0.235273838
5586385 0.233018234 0.238436385
5593285 0.233752638 0.241606637
5600285 0.233761832 0.244848221
5607185 0.234817653 0.248560398
5614085 0.236152663 0.251594424
5621085 0.237524881 0.254924952
5627985 0.238815784 0.25723809
5634985 0.240354016 0.260097384
5641885 0.242328584 0.262163758
5648785 0.243944078 0.264738321
5655785 0.245667606 0.266229003
5662685 0.247826978 0.267663031
5669585 0.24950616 0.269304573
5676585 0.251280933 0.270647644
5683485 0.252868622 0.271601021
5690385 0.254107236 0.272717386
5697385 0.254993587 0.27365458
5704285 0.256247878 0.274571299
5711285 0.257196426 0.275448739
5718185 0.258489668 0.277059137
5725085 0.259022146 0.278285801
5732085 0.259938061 0.280320614
5738985 0.261331617 0.281579703
5745885 0.262314707 0.283501267
5752885 0.264252007 0.28497079
5759785 0.265102058 0.286187648
5766785 0.267136514 0.288569718
5773685 0.268665432 0.290020674
5780585 0.269856423 0.291752308
5787585 0.27186644 0.293354153
5794485 0.273810029 0.295459032
5801385 0.275673657 0.297209203
5808385 0.277588605 0.29837948
5815285 0.280321538 0.300426423
5822285 0.282960593 0.302007824
5829185 0.285386711 0.302555352
5836085 0.288131713 0.304265379
5843085 0.291048139 0.304780244
5849985 0.294471502 0.305687993
5856885 0.296745091 0.305725276
5863885 0.299600511 0.306603014
5870785 0.302289664 0.307162433
5877685 0.305249929 0.307188749
5884685 0.308122277 0.307459473
5891585 0.309947073 0.307461947
5898585 0.312679231 0.307604461
5905485 0.315184295 0.307771384
5912385 0.317955046 0.307440012
5919385 0.320604026 0.307278215
5926285 0.322342157 0.3077932
5933185 0.325250744 0.307391643
5940185 0.327528476 0.307394564
5947085 0.330067157 0.306804716
5954085 0.332017838 0.307103991
5960985 0.33468765 0.30722469
5967885 0.337266206 0.30685085
5974885 0.339953899 0.307050645
5981785 0.342783629 0.306982904
5988685 0.34545353 0.306704521
5995685 0.348227649 0.306322455
6002585 0.351230114 0.30606988
6009585 0.354164868 0.305776804
6016485 0.357275784 0.304778844
6023385 0.360069274 0.304485201
6030385 0.36308372 0.303552627
6037285 0.365942627 0.302979975
6044185 0.368944525 0.30140978
6051185 0.371994078 0.30010882
6058085 0.37451899 0.299299329
6064985 0.377404898 0.298310428
6071985 0.380534261 0.297198891
6078885 0.3831411 0.295614063
6085885 0.385731756 0.294792234
6092785 0.387980699 0.292944014
6099685 0.39107722 0.29167208
6106685 0.393298268 0.289715558
6113585 0.395684093 0.288297742
6120485 0.398342221 0.287451267
6127485 0.401404798 0.285722434
6134385 0.404306709 0.284221827
6141385 0.406723469 0.282657742
6148285 0.409118533 0.281609863
6155185 0.412401884 0.279486536
6162185 0.41487196 0.277721047
6169085 0.417752534 0.276381939
6175985 0.420889675 0.274580746
6182985 0.423556238 0.272953957
6189885 0.426474541 0.27044478
6196885 0.42915377 0.268491625
6203822 0.431857913 0.265849918
6210722 0.434621572 0.264031767
6217622 0.437708228 0.261319011
6224622 0.440284788 0.258761703
6231522 0.44323036 0.256038427
6238422 0.445594608 0.253402531
6245422 0.447808891 0.251080721
6252322 0.450645089 0.248036652
6259222 0.453001379 0.245007619
6266222 0.455393731 0.241600304
6273122 0.45740801 0.239049077
6280122 0.459505677 0.236292555
6287022 0.46158877 0.233242541
6293922 0.463759064 0.230229392
6300922 0.465310126 0.226801976
6307822 0.467523813 0.223942071
6314722 0.469459027 0.220903709
6321722 0.471192121 0.217826202
