# Hz S RI R 50
2000000 0.063681557 0.85886842
2002900 0.066783808 0.858049094
2005900 0.070113018 0.857216
2008900 0.073384664 0.856375038
2011800 0.076472282 0.855440974
2014800 0.07959906 0.854577541
2017800 0.082997411 0.853710234
2020800 0.086107566 0.852552175
2023700 0.089416302 0.851747393
2026700 0.092593215 0.850747704
2029700 0.095908842 0.849708974
2032700 0.099133566 0.84845519
2035600 0.102328121 0.847497761
2038600 0.105434156 0.84624499
2041600 0.108931101 0.845340967
2044500 0.111820071 0.844102799
2047500 0.115170121 0.842986524
2050500 0.118420466 0.841727197
2053500 0.121700592 0.840551078
2056400 0.124989442 0.839518129
2059400 0.128199145 0.83812797
2062400 0.131553888 0.836855411
2065400 0.134863361 0.835486531
2068300 0.138026356 0.834226131
2071300 0.141074731 0.832933068
2074300 0.144551903 0.831563651
2077200 0.147683292 0.830167233
2080200 0.151118025 0.828649401
2083200 0.154281079 0.827182412
2086200 0.157328516 0.825717568
2089100 0.160781443 0.824251294
2092100 0.163986682 0.822547256
2095100 0.167255878 0.821058452
2098100 0.170527443 0.81945163
2101000 0.173772022 0.817794263
2104000 0.177059352 0.816135346
2107000 0.180488109 0.814619779
2110000 0.183575272 0.81275922
2112900 0.186848133 0.811087191
2115900 0.190096288 0.809316515
2118900 0.193340301 0.807398021
2121800 0.196717306 0.805553138
2124800 0.199690461 0.803794503
2127800 0.203312829 0.801797688
2130800 0.206317096 0.799744606
2133700 0.209681347 0.797856867
2136700 0.213028833 0.795764923
2139700 0.216331511 0.793571472
2142700 0.219613835 0.79139316
2145600 0.222738116 0.789575457
2148600 0.226126596 0.787282109
2151600 0.229179143 0.78486514
2154500 0.23249568 0.782680749
2157500 0.235602974 0.780479192
2160500 0.23885551 0.777984082
2163500 0.242207422 0.775714755
2166400 0.245387077 0.773266971
2169400 0.248469263 0.770890593
2172400 0.251696705 0.768227875
2175400 0.254824101 0.765784502
2178300 0.2580114 0.763146579
2181300 0.261188477 0.760474681
2184300 0.264235794 0.757799565
2187200 0.267398327 0.755011677
2190200 0.270697593 0.752125978
2193200 0.273718059 0.749393224
2196200 0.276785612 0.746381759
2199100 0.279771238 0.743520796
2202100 0.282826453 0.740457475
2205100 0.285834163 0.737439334
2208100 0.288945227 0.734423756
2211000 0.291813701 0.731367766
2214000 0.29477781 0.728103578
2217000 0.297756612 0.724840939
2220000 0.300866782 0.721533954
2222900 0.303432106 0.718236565
2225900 0.306354939 0.714667379
2228900 0.309311389 0.711478412
2231800 0.31193301 0.707979738
2234800 0.314725428 0.70439732
2237800 0.317550629 0.70076543
2240800 0.320284575 0.697180986
2243700 0.322860866 0.693434238
2246700 0.325520604 0.689711093
2249700 0.328042477 0.68588984
2252700 0.330803483 0.68203473
2255600 0.3330926 0.678211033
2258600 0.335769206 0.674121856
2261600 0.338215321 0.670161783
2264500 0.340445727 0.666376471
2267500 0.342761397 0.661995828
2270500 0.345214813 0.657741546
2273500 0.347475022 0.653536975
2276400 0.349567234 0.649458646
2279400 0.351711273 0.644989192
2282400 0.353734672 0.64038515
2285400 0.3557401 0.636219084
2288300 0.357929378 0.631652653
2291300 0.359697937 0.626920282
2294300 0.361648857 0.622269093
2297300 0.363423317 0.617558181
2300273 0.365167856 0.612729132
2303173 0.366804718 0.608139812
2306173 0.368471562 0.603269696
2309173 0.36993575 0.598303377
2312073 0.371289074 0.593329071
2315073 0.372655779 0.588297724
2318073 0.373910874 0.583261072
2321073 0.375176489 0.578022241
2323973 0.376037478 0.573039174
2326973 0.377238899 0.567717909
2329973 0.37804082 0.562392175
2332973 0.378852039 0.556937456
2335873 0.379622519 0.551741421
2338873 0.380226254 0.546342849
2341873 0.380771338 0.54064697
2344773 0.381097197 0.53534764
2347773 0.381354868 0.529626727
2350773 0.381488025 0.524068415
2353773 0.381681501 0.518244862
2356673 0.381390452 0.512702405
2359673 0.380891323 0.5068084
2362673 0.380736887 0.501233816
2365673 0.380374342 0.495285421
2368573 0.37974441 0.48951593
2371573 0.378990411 0.483781725
2374573 0.378014206 0.477864146
2377473 0.376903563 0.472268521
2380473 0.375691086 0.4663468
2383473 0.374250322 0.460236579
2386473 0.372741043 0.454494893
2389373 0.370930194 0.448588132
2392373 0.368979126 0.442960441
2395373 0.366938024 0.436986476
2398373 0.364877402 0.430996507
2401273 0.362484782 0.42558363
2404273 0.359794527 0.41963309
2407273 0.356984496 0.414046615
2410273 0.354102879 0.408233791
2413173 0.351129025 0.40292716
2416173 0.347695261 0.397380709
2419173 0.344204694 0.391788721
2422073 0.340546548 0.386700361
2425073 0.336899787 0.381355702
2428073 0.332559823 0.376118421
2431073 0.328373432 0.371070057
2433973 0.324323356 0.366218119
2436973 0.319657653 0.361258387
2439973 0.314964473 0.3564893
2442973 0.30991894 0.352083176
2445873 0.304830133 0.347630262
2448873 0.299510478 0.343308508
2451873 0.294052898 0.339151859
2454773 0.288579106 0.335323989
2457773 0.282926112 0.331826597
2460773 0.27701348 0.328012436
2463773 0.270939737 0.324708253
2466673 0.264761775 0.32160294
2469673 0.258584976 0.318721145
2472673 0.252013593 0.316079676
2475673 0.245902389 0.313516646
2478573 0.239106774 0.311431884
2481573 0.23236759 0.309497535
2484573 0.225577563 0.307737141
2487473 0.21884872 0.306147426
2490473 0.211890175 0.304873675
2493473 0.20490548 0.303921163
2496473 0.197743341 0.303416043
2499373 0.190936654 0.303005844
2502373 0.183955699 0.302829712
2505373 0.17670305 0.303056687
2508373 0.169770002 0.303197115
2511273 0.162948176 0.303987801
2514273 0.156045421 0.304937452
2517273 0.148963019 0.306294292
2520273 0.142055258 0.307490497
2523173 0.135515913 0.309305936
2526173 0.128620117 0.311404019
2529173 0.122038558 0.313584148
2532073 0.115662261 0.316195219
2535073 0.109086409 0.318808674
2538073 0.10273347 0.321854382
2541073 0.096654228 0.324936896
2543973 0.090680152 0.328636139
2546973 0.084830097 0.332223296
2549973 0.079021282 0.336239784
2552973 0.073520094 0.340289503
2555873 0.068295121 0.344584852
2558873 0.063018143 0.34896183
2561873 0.057998269 0.35381329
2564773 0.053152676 0.358384609
2567773 0.048726513 0.363549977
2570773 0.044060807 0.368582844
2573773 0.039862412 0.374130368
2576673 0.03613317 0.379397302
2579673 0.032207101 0.385033249
2582673 0.02840048 0.390679478
2585673 0.025210039 0.396763712
2588573 0.021999817 0.402326673
2591573 0.019104562 0.408361911
2594573 0.016350444 0.414417386
2597573 0.013875315 0.42083922
2600546 0.011735664 0.427111923
2603446 0.009613079 0.433235287
2606446 0.007813257 0.43977794
2609446 0.006259438 0.446175992
2612346 0.004926343 0.452608406
2615346 0.003852164 0.458880096
2618346 0.003109418 0.465498715
2621346 0.00231891 0.471895635
2624246 0.001789836 0.478354483
2627246 0.00158637 0.484754294
2630246 0.001536546 0.491286128
2633246 0.001842288 0.497840315
2636146 0.001986314 0.504031717
2639146 0.002616464 0.510493457
2642146 0.003544784 0.516729593
2645046 0.004451009 0.523066937
2648046 0.005781477 0.529218971
2651046 0.00712709 0.535303175
2654046 0.008679593 0.541579902
2656946 0.010527357 0.547368824
2659946 0.012261148 0.553460717
2662946 0.014430514 0.559331238
2665946 0.016771655 0.565154016
2668846 0.019066074 0.570684373
2671846 0.021664431 0.57636702
2674846 0.024313649 0.58176887
2677746 0.026941331 0.587086319
2680746 0.030065419 0.592494904
2683746 0.033255152 0.597663164
2686746 0.036481421 0.602677047
2689646 0.039725411 0.607514441
2692646 0.043254293 0.612589418
2695646 0.046808391 0.617254137
2698646 0.05045928 0.621913611
2701546 0.054182611 0.626401901
2704546 0.058037489 0.630800485
2707546 0.06208695 0.635324895
2710546 0.066196709 0.639629364
2713446 0.070230424 0.643410027
2716446 0.07453826 0.64753133
2719446 0.078808434 0.651426076
2722346 0.083042614 0.654988706
2725346 0.087329007 0.658614754
2728346 0.092067256 0.662138998
2731346 0.096629105 0.665772974
2734246 0.100952148 0.669045448
2737246 0.105636522 0.672530174
2740246 0.110423535 0.675269782
2743246 0.11533989 0.678362429
2746146 0.1200836 0.681160807
2749146 0.124815076 0.683994293
2752146 0.129885047 0.686687767
2755046 0.134632095 0.689031302
2758046 0.139629334 0.691650867
2761046 0.144559219 0.694226503
2764046 0.149679571 0.696411848
2766946 0.15458028 0.698540389
2769946 0.159653246 0.700529098
2772946 0.164914742 0.702498555
2775946 0.169830426 0.704437673
2778846 0.175134807 0.70612359
2781846 0.180234566 0.707713782
2784846 0.185482949 0.709387183
2787746 0.190283939 0.710931599
2790746 0.195587813 0.712150156
2793746 0.200847193 0.713519632
2796746 0.206106901 0.714604914
2799646 0.211217671 0.715731084
2802646 0.216515138 0.716751337
2805646 0.221667692 0.71770966
2808646 0.226934865 0.718622803
2811546 0.231961518 0.719106078
2814546 0.237200379 0.719969332
2817546 0.24251376 0.720536708
2820546 0.247573003 0.721022427
2823446 0.25276044 0.721479415
2826446 0.258020341 0.721783936
2829446 0.263110369 0.721913337
2832346 0.268409848 0.722224652
2835346 0.273442566 0.722240149
2838346 0.278514862 0.722415685
2841346 0.283761799 0.722301959
2844246 0.288727849 0.722301483
2847246 0.293877452 0.721821784
2850246 0.299004942 0.721718728
2853246 0.30420193 0.721574485
2856146 0.308896809 0.721132576
2859146 0.314213693 0.720688283
2862146 0.319116234 0.720099925
2865046 0.324055433 0.719699084
2868046 0.329025238 0.718955576
2871046 0.334083437 0.718209981
2874046 0.338949173 0.717494189
2876946 0.343648582 0.716573834
2879946 0.34872356 0.71581459
2882946 0.353563219 0.714832544
2885946 0.358390063 0.714054882
2888846 0.362835556 0.712923169
2891846 0.367716789 0.711674451
2894846 0.372654527 0.710479736
2897846 0.377393633 0.709255278
2900819 0.382446438 0.708094
2903719 0.386824965 0.706737339
2906719 0.391373872 0.705399215
2909719 0.396214693 0.704032063
2912619 0.400766432 0.702751815
2915619 0.405377298 0.701115131
2918619 0.409998267 0.699552893
2921619 0.414599925 0.697874844
2924519 0.419039219 0.696270048
2927519 0.423275649 0.694608986
2930519 0.427990078 0.692856967
2933519 0.432527303 0.690984725
2936419 0.436747759 0.689207851
2939419 0.441097795 0.687422096
2942419 0.445584028 0.685639917
2945319 0.449695587 0.683633804
2948319 0.454204469 0.681744813
2951319 0.458338946 0.679698348
2954319 0.462803781 0.677866697
2957219 0.466912418 0.675774753
2960219 0.471031963 0.673804342
2963219 0.475492119 0.671575963
2966219 0.47931984 0.669225037
2969119 0.483466833 0.667063772
2972119 0.487779051 0.664867281
2975119 0.491698324 0.662743151
2978019 0.495581895 0.660445988
2981019 0.499698847 0.657992184
2984019 0.50374794 0.655781269
2987019 0.507658779 0.653454065
2989919 0.511559605 0.650974571
2992919 0.515349745 0.648573219
2995919 0.519523799 0.646095097
2998919 0.523555278 0.643667638
3001819 0.52719742 0.641005754
3004819 0.530965268 0.638465404
3007819 0.534816324 0.636126637
3010819 0.538683414 0.633254945
3013719 0.542384624 0.63073647
3016719 0.546290814 0.62821573
3019719 0.550167441 0.625327348
3022619 0.553588986 0.622720718
3025619 0.55738765 0.620053589
3028619 0.561187267 0.617105364
3031619 0.564730584 0.614337682
3034519 0.568562865 0.611434102
3037519 0.572290539 0.608596622
3040519 0.575807392 0.605842888
3043519 0.579342305 0.602685391
3046419 0.582951605 0.599974334
3049419 0.586354255 0.597088694
3052419 0.590046763 0.594159424
3055319 0.593475103 0.590884029
3058319 0.597005784 0.58788681
3061319 0.600544095 0.584741473
3064319 0.603966891 0.581472873
3067219 0.607422351 0.578517675
3070219 0.610849201 0.575240671
3073219 0.614364027 0.571928977
3076219 0.617714941 0.568746328
3079119 0.62098813 0.565648436
3082119 0.624188303 0.562221348
3085119 0.627636313 0.558885157
3088019 0.630752086 0.555511713
3091019 0.634152054 0.55213344
3094019 0.637452065 0.54853636
3097019 0.640742897 0.545006453
3099919 0.6439116 0.541531562
3102919 0.647077023 0.538071453
3105919 0.650125682 0.534441173
3108919 0.653408527 0.530966877
3111819 0.656501531 0.527312397
3114819 0.659460783 0.523672342
3117819 0.662547767 0.519837141
3120819 0.665472805 0.516096949
3123719 0.668848752 0.512396395
3126719 0.671491265 0.508562684
3129719 0.674606978 0.504883706
3132619 0.677442669 0.50110507
3135619 0.680407226 0.497210025
3138619 0.683218181 0.493286758
3141619 0.68603748 0.489269286
3144519 0.688827931 0.485442012
3147519 0.6916399 0.481401622
3150519 0.694124221 0.477336496
3153519 0.697007596 0.473488539
3156419 0.699564754 0.469519615
3159419 0.702184855 0.465264171
3162419 0.704856634 0.461068302
3165319 0.707370281 0.457253962
3168319 0.710023641 0.452978849
3171319 0.712558269 0.44882059
3174319 0.715181112 0.444464474
3177219 0.717510342 0.440203696
3180219 0.719878613 0.435973614
3183219 0.722373366 0.431728243
3186219 0.724788665 0.427461475
3189119 0.72698903 0.42316693
3192119 0.729349017 0.418909788
3195119 0.731666386 0.4144046
3198119 0.733907043 0.410128086
3201092 0.736233174 0.405574411
3203992 0.738145291 0.401284188
3206992 0.740383207 0.396753042
3209992 0.742453455 0.392288595
3212892 0.744482874 0.387846678
3215892 0.746601402 0.383255898
3218892 0.748756706 0.378680795
3221892 0.750600636 0.374114811
3224792 0.752616047 0.369661837
3227792 0.754440724 0.365047574
3230792 0.756525337 0.360331863
3233792 0.75837171 0.355444759
3236692 0.760065793 0.351096898
3239692 0.76179248 0.346214115
3242692 0.763540089 0.341527014
3245592 0.765353441 0.336934685
3248592 0.767080247 0.331871181
3251592 0.768781065 0.327187925
3254592 0.77032113 0.322212398
3257492 0.772030532 0.317471504
3260492 0.773364782 0.31262353
3263492 0.774916887 0.307752788
3266492 0.776490986 0.302957683
3269392 0.778084874 0.29791364
3272392 0.779048264 0.292978197
3275392 0.780549407 0.288100093
3278292 0.78172183 0.283027827
3281292 0.783181786 0.278146654
3284292 0.784404337 0.27289319
3287292 0.785566866 0.267877191
3290192 0.78657937 0.262919664
3293192 0.787887156 0.257551789
3296192 0.788802087 0.252455979
3299192 0.789968013 0.247322514
3302092 0.791003048 0.242269814
3305092 0.791821599 0.237085714
3308092 0.792719125 0.23166491
3311092 0.793741822 0.226541116
3313992 0.794336974 0.221368655
3316992 0.795212984 0.216061398
3319992 0.795939087 0.210831344
3322892 0.796547353 0.205510511
3325892 0.797315597 0.200171902
3328892 0.797868788 0.194787561
3331892 0.798430621 0.189441978
3334792 0.79888463 0.184247076
3337792 0.799350798 0.178782418
3340792 0.799668252 0.173256814
3343792 0.800084412 0.1679129
3346692 0.800261735 0.162652105
3349692 0.800539374 0.156910911
3352692 0.80065 0.151447117
3355592 0.800761103 0.146118417
3358592 0.800987899 0.140563234
3361592 0.80111587 0.135034248
3364592 0.800973653 0.129492506
3367492 0.800972938 0.123856306
3370492 0.800632715 0.118410661
3373492 0.800463497 0.11269167
3376492 0.800273418 0.107091166
3379392 0.79982388 0.101683475
3382392 0.799537897 0.096185438
3385392 0.799048364 0.090446531
3388292 0.798614442 0.084911957
3391292 0.798111796 0.079272136
3394292 0.797540009 0.073813304
3397292 0.796759545 0.067918732
3400192 0.796023309 0.062671326
3403192 0.795175075 0.056844156
3406192 0.794413506 0.051137287
3409192 0.793334722 0.045600078
3412092 0.792585492 0.040112856
3415092 0.791425108 0.034410022
3418092 0.790199875 0.02873017
3421092 0.78885293 0.023069499
3423992 0.787839651 0.01761084
3426992 0.786598622 0.012055093
3429992 0.785247206 0.006541382
3432892 0.78392452 0.001085037
3435892 0.782229781 -0.004486408
3438892 0.780628859 -0.010323845
3441892 0.779105305 -0.015739301
3444792 0.777539372 -0.021079463
3447792 0.775813758 -0.026583489
3450792 0.774075269 -0.032084662
3453792 0.772347986 -0.037593491
3456692 0.770586729 -0.042885635
3459692 0.768785119 -0.048340797
3462692 0.766853272 -0.053571768
3465592 0.764749348 -0.05899658
3468592 0.762628853 -0.064467526
3471592 0.760671079 -0.06977009
3474592 0.758480489 -0.075171068
3477492 0.756482541 -0.080338984
3480492 0.754209101 -0.085756286
3483492 0.751956403 -0.091146133
3486492 0.749762117 -0.096521161
3489392 0.747448265 -0.101653493
3492392 0.744969248 -0.107017755
3495392 0.742358922 -0.112435564
3498392 0.739941298 -0.117769107
3501365 0.737320303 -0.123149886
3504265 0.734531342 -0.128259599
3507265 0.732086896 -0.133710801
3510265 0.72932893 -0.138973593
3513165 0.726752698 -0.144107565
3516165 0.723845303 -0.149463683
3519165 0.720909953 -0.154860138
3522165 0.717826485 -0.160320103
3525065 0.71495074 -0.165364041
3528065 0.711982488 -0.170628026
3531065 0.70862323 -0.176066339
3534065 0.705475628 -0.181451052
3536965 0.702232897 -0.186399221
3539965 0.69869399 -0.19194296
3542965 0.695282638 -0.197061568
3545865 0.691720306 -0.202077165
3548865 0.687916398 -0.207496494
3551865 0.684419453 -0.212834462
3554865 0.680569291 -0.217866778
3557765 0.676855266 -0.223106488
3560765 0.67267096 -0.228309646
3563765 0.668515563 -0.233393922
3566765 0.664250373 -0.238503038
3569665 0.660399794 -0.243448153
3572665 0.655745565 -0.248533934
3575665 0.651398479 -0.253466576
3578565 0.646917462 -0.258325278
3581565 0.642242193 -0.263252258
3584565 0.637634456 -0.268150389
3587565 0.632700145 -0.272972047
3590465 0.627984404 -0.277620315
3593465 0.62291634 -0.282586991
3596465 0.617888927 -0.287032961
3599465 0.612547159 -0.291710168
3602365 0.607561945 -0.296028524
3605365 0.602178931 -0.300462096
3608365 0.596777677 -0.304857701
3611365 0.591240763 -0.309365004
3614265 0.585724294 -0.313371807
3617265 0.580052435 -0.317564815
3620265 0.574217796 -0.321763247
3623165 0.568611741 -0.325557649
3626165 0.562899887 -0.329663336
3629165 0.556719481 -0.33359766
3632165 0.550584971 -0.337389528
3635065 0.544651925 -0.340949177
3638065 0.538405537 -0.344633549
3641065 0.532091379 -0.347898036
3644065 0.525764107 -0.351413905
3646965 0.519583106 -0.354727864
3649965 0.51300472 -0.358142197
3652965 0.506251692 -0.361101955
3655865 0.499860197 -0.364177614
3658865 0.493310391 -0.367187142
3661865 0.486358284 -0.370182573
3664865 0.479532986 -0.372819721
3667765 0.472945511 -0.375324517
3670765 0.466048717 -0.377862721
3673765 0.459023386 -0.380207121
3676765 0.451985239 -0.38267216
3679665 0.44525209 -0.384935885
3682665 0.438002586 -0.386777609
3685665 0.430668652 -0.388852149
3688565 0.423663586 -0.39067915
3691565 0.416396319 -0.392330676
3694565 0.409229516 -0.394108861
3697565 0.401761174 -0.395822048
3700465 0.394670844 -0.396927654
3703465 0.387023836 -0.398256778
3706465 0.379751592 -0.399617135
3709465 0.372187644 -0.40058434
3712365 0.364957273 -0.401445776
3715365 0.357356488 -0.402331769
3718365 0.349877387 -0.403055131
3721365 0.342302381 -0.403336644
3724265 0.334896504 -0.404209882
3727265 0.327054768 -0.404280871
3730265 0.319512546 -0.4044815
3733165 0.312081933 -0.404524475
3736165 0.304551184 -0.404420703
3739165 0.296753525 -0.404081344
3742165 0.289027839 -0.403833329
3745065 0.281608074 -0.403409451
3748065 0.273858308 -0.402737289
3751065 0.266125768 -0.401954442
3754065 0.258450269 -0.400870531
3756965 0.251138567 -0.400070935
3759965 0.243218302 -0.398757129
3762965 0.235501751 -0.397720932
3765865 0.228216156 -0.396228283
3768865 0.22055903 -0.394579142
3771865 0.212964594 -0.392830222
3774865 0.205329984 -0.39089775
3777765 0.197635948 -0.389014333
3780765 0.190348416 -0.38685134
3783765 0.182879939 -0.384609729
3786765 0.175224721 -0.382098764
3789665 0.167908608 -0.379661172
3792665 0.160707846 -0.377110511
3795665 0.153109908 -0.374149173
3798665 0.145728573 -0.370987266
3801638 0.138380751 -0.367910832
3804538 0.131370604 -0.364637434
3807538 0.12394534 -0.361371308
3810538 0.116909936 -0.357748359
3813438 0.110236756 -0.354046523
3816438 0.103025376 -0.350310564
3819438 0.096201807 -0.346157789
3822438 0.089325316 -0.342002481
3825338 0.082829296 -0.337887942
3828338 0.075998604 -0.333278328
3831338 0.069455802 -0.328896522
3834338 0.062767229 -0.324132084
3837238 0.056541446 -0.319452196
3840238 0.050194926 -0.314478605
3843238 0.043882817 -0.309457838
3846138 0.037916392 -0.304398417
3849138 0.031936559 -0.299114316
3852138 0.025834368 -0.293642431
