# Hz S RI R 50
2000000 -0.730421245 0.541530251
2005900 -0.727890312 0.543724775
2011800 -0.725241005 0.545341193
2017800 -0.722605288 0.547715961
2023700 -0.720230758 0.549536705
2029700 -0.717491328 0.551651358
2035600 -0.715070486 0.553559005
2041600 -0.712510228 0.555332422
2047500 -0.710169315 0.557302534
2053500 -0.707514047 0.559479117
2059400 -0.705218851 0.561515331
2065400 -0.70257306 0.563643395
2071300 -0.699976623 0.565982699
2077200 -0.697190999 0.568142533
2083200 -0.69443345 0.570538759
2089100 -0.691572308 0.572522401
2095100 -0.688652694 0.574883818
2101000 -0.685650885 0.576980769
2107000 -0.68239808 0.579106092
2112900 -0.679100573 0.581034362
2118900 -0.676036655 0.582992255
2124800 -0.672724604 0.584756255
2130800 -0.669473528 0.586453258
2136700 -0.666505277 0.588201344
2142700 -0.66312164 0.589634716
2148600 -0.65997833 0.591194152
2154500 -0.65700525 0.592747569
2160500 -0.654104292 0.594151139
2166400 -0.651521742 0.595605671
2172400 -0.648854732 0.597262322
2178300 -0.646054983 0.599133253
2184300 -0.643375039 0.601006567
2190200 -0.640900731 0.603046894
2196200 -0.638013064 0.605121493
2202100 -0.635189473 0.607429265
2208100 -0.632080852 0.609928607
2214000 -0.628957092 0.61249876
2220000 -0.625438094 0.614811003
2225900 -0.621984601 0.617066621
2231800 -0.618309199 0.619379818
2237800 -0.614471495 0.621479868
2243700 -0.61049664 0.623642385
2249700 -0.606640696 0.625686645
2255600 -0.602691113 0.627411603
2261600 -0.598793506 0.62926793
2267500 -0.594899535 0.630935609
2273500 -0.59084326 0.632499933
2279400 -0.587026357 0.63424158
2285400 -0.583114862 0.63562721
2291300 -0.579426765 0.637100994
2297300 -0.575968503 0.638715684
2303200 -0.572203457 0.639999449
2309100 -0.568519473 0.641502261
2315100 -0.565140426 0.643317341
2321000 -0.561636149 0.644858717
2327000 -0.557901144 0.646990299
2332900 -0.554209411 0.648818731
2338900 -0.55063337 0.650987684
2344800 -0.546565175 0.653171479
2350800 -0.542527914 0.655222594
2356700 -0.538309633 0.657344996
2362700 -0.533690929 0.659470438
2368600 -0.529193401 0.661468565
2374500 -0.524407327 0.663335919
2380500 -0.5199036 0.665166795
2386400 -0.515038311 0.666881978
2392400 -0.510108828 0.668450236
2398300 -0.505212843 0.669856607
2404300 -0.500242829 0.671461462
2410200 -0.495433092 0.672627627
2416200 -0.490561068 0.673771739
2422100 -0.485931754 0.67493683
2428100 -0.481225818 0.675925314
2434000 -0.47665438 0.676927387
2440000 -0.472112119 0.678292036
2445900 -0.467561125 0.679512739
2451800 -0.462982118 0.680929124
2457800 -0.458342403 0.682615995
2463700 -0.453826844 0.684106826
2469700 -0.448830902 0.685741364
2475600 -0.443798571 0.687590122
2481600 -0.438416957 0.689319312
2487500 -0.433032006 0.691010832
2493500 -0.427439719 0.692332088
2499400 -0.421848505 0.693906247
2505400 -0.415854722 0.69517225
2511300 -0.40986672 0.696374893
2517300 -0.403868257 0.697418272
2523200 -0.397845625 0.698291242
2529100 -0.391925543 0.699102938
2535100 -0.385913789 0.699796974
2541000 -0.379855126 0.700467169
2547000 -0.374008089 0.700748801
2552900 -0.367738276 0.70120579
2558900 -0.361976087 0.701506316
2564800 -0.356162577 0.702169001
2570800 -0.350276201 0.702365338
2576700 -0.34435001 0.703014612
2582700 -0.338375061 0.703355193
2588600 -0.332364976 0.704201221
2594600 -0.32603836 0.704666316
2600546 -0.319559484 0.705391287
2606446 -0.313044875 0.705839157
2612346 -0.306450605 0.706335246
2618346 -0.299558907 0.706830203
2624246 -0.292595773 0.707046151
2630246 -0.285203009 0.707012534
2636146 -0.277972698 0.706800043
2642146 -0.270745515 0.706484854
2648046 -0.263512879 0.706009507
2654046 -0.256051421 0.705355525
2659946 -0.249054342 0.704428374
2665946 -0.241671606 0.703557252
2671846 -0.234529897 0.702572047
2677746 -0.227466464 0.701495051
2683746 -0.220141723 0.700403869
2689646 -0.213182091 0.699197471
2695646 -0.205768555 0.697971105
2701546 -0.198384836 0.696788728
2707546 -0.191178932 0.695427834
2713446 -0.18381977 0.694080889
2719446 -0.176307186 0.69269824
2725346 -0.16854231 0.691212594
2731346 -0.160929784 0.689493834
2737246 -0.153096243 0.687793076
2743246 -0.145006865 0.685835123
2749146 -0.137253269 0.68372792
2755046 -0.12903057 0.68146646
2761046 -0.120959743 0.678825974
2766946 -0.113009758 0.676087141
2772946 -0.105042293 0.673338294
2778846 -0.09693633 0.670326352
2784846 -0.088681749 0.667263686
2790746 -0.080736063 0.664317011
2796746 -0.072335936 0.660716772
2802646 -0.064245544 0.657344698
2808646 -0.055933911 0.653483033
2814546 -0.047764886 0.649429738
2820546 -0.039408966 0.645582497
2826446 -0.031056912 0.64100635
2832346 -0.023159431 0.636355519
2838346 -0.014876238 0.63147962
2844246 -0.006785215 0.626641571
2850246 0.001076554 0.621051907
2856146 0.008959874 0.615829706
2862146 0.01650257 0.610494852
2868046 0.024187743 0.60506761
2874046 0.031881187 0.59943211
2879946 0.039321169 0.593682289
2885946 0.047275941 0.587827742
2891846 0.054819971 0.581831872
2897846 0.062625996 0.575764119
2903746 0.070324473 0.569384515
2909646 0.077843375 0.56265521
2915646 0.085594758 0.555711865
2921546 0.093013375 0.548637926
2927546 0.100650303 0.541133105
2933446 0.108050741 0.533933997
2939446 0.115155324 0.525814235
2945346 0.122107274 0.517837762
2951346 0.12932448 0.509490251
2957246 0.13594748 0.501158475
2963246 0.142543449 0.492468297
2969146 0.149133279 0.483671128
2975046 0.1554109 0.474607646
2981046 0.161498963 0.465528756
2986946 0.167404726 0.45632559
2992946 0.173212066 0.446857064
2998846 0.178748518 0.437225371
3004846 0.184405356 0.427555173
3010746 0.189808294 0.417734116
3016746 0.195292457 0.407486796
3022646 0.20035912 0.397305548
3028646 0.205559477 0.386689603
3034546 0.210311815 0.375816106
3040546 0.215264901 0.364738732
3046446 0.219489544 0.353375852
3052346 0.223563641 0.341765999
3058346 0.227273181 0.329812735
3064246 0.230461612 0.317754149
3070246 0.233348146 0.305361032
3076146 0.235705122 0.293164104
3082146 0.23803021 0.280653178
3088046 0.239345908 0.268329203
3094046 0.240998521 0.255793333
3099946 0.242031052 0.243571788
3105946 0.242620944 0.231041476
3111846 0.243051573 0.218593731
3117846 0.243299677 0.206074565
3123746 0.243027389 0.19356963
3129646 0.242293804 0.181090831
3135646 0.241337344 0.168518379
3141546 0.240163236 0.155942767
3147546 0.23820886 0.14323157
3153446 0.235901504 0.130792796
3159446 0.23342207 0.118485815
3165346 0.230273649 0.106284886
3171346 0.22702454 0.094049379
3177246 0.223324388 0.082302995
3183246 0.219306066 0.07032606
3189146 0.215053513 0.058774709
3195146 0.210459247 0.04737579
3201092 0.205575495 0.036045473
3206992 0.200420945 0.0246974
3212892 0.194805786 0.01341284
3218892 0.188417419 0.002282417
3224792 0.182142198 -0.008411617
3230792 0.174959972 -0.018900211
3236692 0.167468428 -0.028863102
3242692 0.15958251 -0.03853197
3248592 0.151395082 -0.047524373
3254592 0.142964363 -0.056348264
3260492 0.134476333 -0.064333721
3266492 0.125883474 -0.072030559
3272392 0.117380172 -0.079039998
3278292 0.108838841 -0.085820756
3284292 0.100135646 -0.092445619
3290192 0.091635979 -0.098768405
3296192 0.082900606 -0.104913696
3302092 0.074001818 -0.110831528
3308092 0.064941443 -0.116168618
3313992 0.055889923 -0.121409699
3319992 0.046412378 -0.126149237
3325892 0.037035435 -0.13037388
3331892 0.027433218 -0.134226813
3337792 0.01816049 -0.137621611
3343792 0.008915541 -0.140449181
3349692 -0.000368702 -0.14300844
3355592 -0.009370739 -0.145038336
3361592 -0.018438519 -0.147286057
3367492 -0.027186688 -0.148696944
3373492 -0.036157704 -0.150028318
3379392 -0.044708572 -0.150685086
3385392 -0.053408171 -0.150880396
3391292 -0.061513442 -0.15091212
3397292 -0.069427616 -0.150351509
3403192 -0.076688773 -0.149625897
3409192 -0.083496384 -0.148659586
3415092 -0.089937701 -0.147967994
3421092 -0.095994293 -0.147033363
3426992 -0.101760923 -0.146686062
3432892 -0.107455715 -0.146046608
3438892 -0.112997993 -0.145628377
3444792 -0.118529297 -0.145341768
3450792 -0.124281063 -0.145178332
3456692 -0.129919409 -0.145242959
3462692 -0.135650277 -0.144965305
3468592 -0.141500905 -0.144539386
3474592 -0.1473535 -0.144228979
3480492 -0.153127506 -0.143582016
3486492 -0.159168764 -0.142546594
3492392 -0.164820313 -0.141608506
3498392 -0.170550271 -0.140498995
3504292 -0.175996616 -0.139001339
3510192 -0.181456446 -0.137471243
3516192 -0.186805918 -0.136192321
3522092 -0.191964879 -0.134371444
3528092 -0.197157084 -0.13284859
3533992 -0.202240779 -0.131148919
3539992 -0.207385212 -0.129392549
3545892 -0.212392345 -0.12754777
3551892 -0.217407152 -0.125338539
3557792 -0.222500547 -0.123040623
3563792 -0.227515041 -0.120725423
3569692 -0.232276946 -0.118145324
3575592 -0.237028479 -0.115594245
3581592 -0.241588234 -0.112687468
3587492 -0.246015846 -0.109677925
3593492 -0.250277251 -0.106873497
3599392 -0.254605889 -0.103753089
3605392 -0.258670836 -0.10043776
3611292 -0.262479186 -0.097273021
3617292 -0.266731232 -0.093964606
3623192 -0.270528703 -0.090624779
3629192 -0.274521619 -0.087128952
3635092 -0.27848035 -0.083607867
3641092 -0.282573103 -0.079842872
3646992 -0.286380082 -0.075924776
3652892 -0.290367692 -0.071489989
3658892 -0.293979912 -0.066695809
3664792 -0.297403723 -0.061729565
3670792 -0.300412207 -0.056312028
3676692 -0.302955538 -0.050889316
3682692 -0.30521503 -0.04547356
3688592 -0.306982278 -0.039870779
3694592 -0.308569759 -0.03438152
3700492 -0.309704333 -0.029155859
3706492 -0.310684144 -0.024177396
3712392 -0.311578899 -0.019270993
3718392 -0.312431812 -0.014474773
3724292 -0.313308268 -0.010024313
3730192 -0.314384907 -0.005346208
3736192 -0.31535694 -0.000615612
3742092 -0.316488027 0.004369321
3748092 -0.31757912 0.00968898
3753992 -0.318591803 0.015131264
3759992 -0.319232732 0.021061265
3765892 -0.319730818 0.027089344
3771892 -0.319857209 0.033360883
3777792 -0.319403648 0.039720024
3783792 -0.318514376 0.046218205
3789692 -0.317406088 0.052402988
3795692 -0.315726369 0.058724742
3801638 -0.313743889 0.064770653
3807538 -0.311528682 0.070663005
3813438 -0.309346944 0.076597601
3819438 -0.306803137 0.08211486
3825338 -0.304234087 0.087613679
3831338 -0.301262795 0.093172073
3837238 -0.298240035 0.09855818
3843238 -0.294935017 0.10378158
3849138 -0.29184857 0.108904041
3855138 -0.288016408 0.11445298
3861038 -0.284502655 0.119428232
3867038 -0.280485719 0.124708712
3872938 -0.276575565 0.129625007
3878838 -0.272404223 0.134617701
3884838 -0.267850011 0.139559701
3890738 -0.263275653 0.14449118
3896738 -0.258275061 0.149343222
3902638 -0.253137052 0.154244273
3908638 -0.247783347 0.159015715
3914538 -0.241939052 0.163632541
3920538 -0.235795453 0.168298006
3926438 -0.22938916 0.172618821
3932438 -0.222425654 0.176654741
3938338 -0.215381711 0.180308893
3944338 -0.207851201 0.183785453
3950238 -0.200419336 0.186683192
3956138 -0.193210273 0.189203262
3962138 -0.185369506 0.191431611
3968038 -0.177934125 0.193223938
3974038 -0.170449882 0.19488357
3979938 -0.16332966 0.196388721
3985938 -0.156011447 0.197883531
3991838 -0.148853838 0.199422448
3997838 -0.14125812 0.200804948
4003738 -0.134015113 0.202270999
4009738 -0.126195892 0.203695967
4015638 -0.118374668 0.204950302
4021638 -0.109950721 0.206244379
4027538 -0.101317577 0.20702511
4033438 -0.092552907 0.207692012
4039438 -0.083255365 0.208019152
4045338 -0.074065357 0.20780006
4051338 -0.064406782 0.207095623
4057238 -0.054952226 0.205770313
4063238 -0.04531962 0.204279065
4069138 -0.035817991 0.201999202
4075138 -0.026524268 0.199513003
4081038 -0.017548209 0.196852579
4087038 -0.008423773 0.193550929
4092938 0.000211036 0.190006032
4098938 0.0087514 0.186375841
4104838 0.016962228 0.182689175
4110738 0.02523089 0.178857609
4116738 0.033446818 0.174727886
4122638 0.041449349 0.170666411
4128638 0.04956714 0.166350498
4134538 0.057589542 0.161865815
4140538 0.065708175 0.157250717
4146438 0.073740601 0.152502939
4152438 0.081850774 0.147585704
4158338 0.090101055 0.14205341
4164338 0.098072133 0.136430785
4170238 0.10602492 0.130775764
4176138 0.11370635 0.124435558
4182138 0.121619008 0.117876209
4188038 0.12898603 0.111311726
4194038 0.136610552 0.103931523
4199938 0.143426954 0.096900254
4205938 0.150778129 0.089350052
4211838 0.157458588 0.081685036
4217838 0.164078965 0.073807135
4223738 0.170470878 0.065747745
4229738 0.176761686 0.057277437
4235638 0.182882726 0.048834536
4241638 0.188613146 0.040285538
4247538 0.194048836 0.031343068
4253438 0.199395582 0.022517081
4259438 0.204267814 0.013271109
4265338 0.209191098 0.003974514
4271338 0.213730841 -0.005421923
4277238 0.217848241 -0.014807044
4283238 0.221999496 -0.024377349
4289138 0.225750476 -0.033915858
4295138 0.229281499 -0.0435182
4301038 0.232760399 -0.053124599
4307038 0.235862851 -0.062756404
4312938 0.238985732 -0.072555176
4318938 0.241836473 -0.082671344
4324838 0.244472667 -0.092474736
4330738 0.24677214 -0.102574646
4336738 0.248745694 -0.112565048
4342638 0.250674545 -0.122691504
4348638 0.25226134 -0.13277398
4354538 0.253715544 -0.142961636
4360538 0.25465244 -0.153375118
4366438 0.255564957 -0.163294851
4372438 0.256217241 -0.173567548
4378338 0.256692469 -0.183536782
4384338 0.256720751 -0.193649247
4390238 0.256793856 -0.203633263
4396238 0.256536096 -0.213563114
4402184 0.256017863 -0.223486229
4408084 0.255604594 -0.233188018
4413984 0.254777491 -0.242990896
4419984 0.253809392 -0.252770215
4425884 0.252646923 -0.262319982
4431884 0.251374393 -0.27219963
4437784 0.249921202 -0.281533211
4443784 0.248370274 -0.29111123
4449684 0.246630609 -0.300453513
4455684 0.244626879 -0.309754788
4461584 0.242761179 -0.318868905
4467584 0.240301474 -0.328113466
4473484 0.238229632 -0.337399691
4479384 0.235772863 -0.346447288
4485384 0.232941061 -0.355364769
4491284 0.230388194 -0.364266037
4497284 0.22735621 -0.373229682
4503184 0.224458351 -0.382056713
4509184 0.221327021 -0.390876531
4515084 0.217879533 -0.3993721
4521084 0.21448782 -0.408130198
4526984 0.210872888 -0.416660308
4532984 0.206811994 -0.425217837
4538884 0.203295841 -0.433333337
4544884 0.199051469 -0.441644579
4550784 0.195056915 -0.449850738
4556684 0.190553903 -0.457862406
4562684 0.186212211 -0.465664267
4568584 0.181627914 -0.473585486
4574584 0.176917687 -0.481384277
4580484 0.172485843 -0.488947957
4586484 0.167476519 -0.496289372
4592384 0.162542983 -0.503720402
4598384 0.157442167 -0.51106882
4604284 0.152392193 -0.518142104
4610284 0.147245556 -0.525049805
4616184 0.14199905 -0.532114923
4622184 0.136522695 -0.538884162
4628084 0.131120562 -0.545397222
4633984 0.125650301 -0.552215337
4639984 0.120292104 -0.558588445
4645884 0.114687897 -0.564996063
4651884 0.108809486 -0.571604609
4657784 0.103011578 -0.577744305
4663784 0.096819989 -0.583886027
4669684 0.091159045 -0.589783191
4675684 0.084847912 -0.5959239
4681584 0.07877285 -0.601615846
4687584 0.072334848 -0.607166588
4693484 0.066157437 -0.612630546
4699484 0.059740312 -0.617889702
4705384 0.053218875 -0.62323153
4711284 0.046985063 -0.628122329
4717284 0.040380161 -0.632875978
4723184 0.033777069 -0.637584388
4729184 0.027300106 -0.642415642
4735084 0.020874062 -0.646594583
4741084 0.01421776 -0.651297152
4746984 0.007597425 -0.65541321
4752984 0.000946032 -0.659585893
4758884 -0.005611368 -0.663691043
4764884 -0.012332431 -0.667549312
4770784 -0.018820025 -0.671547174
4776684 -0.025469165 -0.675294518
4782684 -0.032409179 -0.678771615
4788584 -0.039163831 -0.682361245
4794584 -0.046093042 -0.685505926
4800484 -0.052659105 -0.688695669
4806484 -0.059512291 -0.69168359
4812384 -0.066280461 -0.694669008
4818384 -0.07300534 -0.69744414
4824284 -0.079584553 -0.70014429
4830284 -0.086362868 -0.702744781
4836184 -0.092946447 -0.705050349
4842184 -0.099734283 -0.707591831
4848084 -0.106283299 -0.709843099
4853984 -0.112814433 -0.712126791
4859984 -0.119322858 -0.714234054
4865884 -0.125837206 -0.71606183
4871884 -0.132631778 -0.718238353
4877784 -0.138863652 -0.720110118
4883784 -0.145577222 -0.721713066
4889684 -0.151914343 -0.723399639
4895684 -0.158516526 -0.724831759
4901584 -0.164776265 -0.72641164
4907584 -0.17127183 -0.727526485
4913484 -0.177711904 -0.728786706
4919484 -0.184006407 -0.72995305
4925384 -0.190204098 -0.731274962
4931284 -0.196502357 -0.731910824
4937284 -0.202579408 -0.732938945
4943184 -0.208900555 -0.733680903
4949184 -0.214915692 -0.734530627
4955084 -0.221109151 -0.735206186
4961084 -0.227124899 -0.735895693
4966984 -0.232987791 -0.736313104
4972984 -0.238975301 -0.736729681
4978884 -0.244998052 -0.737014532
4984884 -0.250823467 -0.737373411
4990784 -0.256554126 -0.737532913
4996784 -0.262401789 -0.737861573
5002730 -0.268268227 -0.737849891
5008630 -0.273842871 -0.737846612
5014530 -0.279337227 -0.737619817
5020530 -0.284942328 -0.737446486
5026430 -0.290492296 -0.737216353
5032430 -0.295949578 -0.736974239
5038330 -0.301231443 -0.7366966
5044330 -0.306561261 -0.736342489
5050230 -0.311658978 -0.735752046
5056230 -0.316836774 -0.735415935
5062130 -0.321703433 -0.734826326
5068130 -0.326926499 -0.734286069
5074030 -0.331914901 -0.733942329
5079930 -0.33681333 -0.733107328
5085930 -0.341486513 -0.732697606
5091830 -0.346163272 -0.732083141
5097830 -0.351003915 -0.731325149
5103730 -0.355537623 -0.730891168
5109730 -0.360223144 -0.73014301
5115630 -0.364944726 -0.729357123
5121630 -0.369411379 -0.728538691
5127530 -0.373884379 -0.72777605
5133530 -0.378314554 -0.727033734
5139430 -0.382744461 -0.726103246
5145430 -0.387137264 -0.725225508
5151330 -0.391333907 -0.724641263
5157230 -0.395459651 -0.723784089
5163230 -0.399895906 -0.722793579
5169130 -0.403969228 -0.722107052
5175130 -0.408110111 -0.721321582
5181030 -0.412213355 -0.720180869
5187030 -0.416158378 -0.719203054
5192930 -0.420158356 -0.718333125
5198930 -0.424087315 -0.717379987
5204830 -0.428011566 -0.716584563
5210830 -0.431929707 -0.715590596
5216730 -0.435822874 -0.714367866
5222730 -0.439817309 -0.713723719
5228630 -0.443386465 -0.712760865
5234530 -0.447235345 -0.71184498
5240530 -0.451168656 -0.710729479
5246430 -0.454551041 -0.709739983
5252430 -0.458309829 -0.708529233
5258330 -0.46192187 -0.707676887
5264330 -0.46558398 -0.706507921
5270230 -0.469212293 -0.705509424
5276230 -0.472622573 -0.704573988
5282130 -0.476268649 -0.703510403
5288130 -0.479775995 -0.70233035
5294030 -0.483262777 -0.701420664
5300030 -0.486589461 -0.700445711
5305930 -0.490109384 -0.699261605
5311830 -0.49333927 -0.698235094
5317830 -0.496866255 -0.697289168
5323730 -0.500228524 -0.696104049
5329730 -0.50357002 -0.694915652
5335630 -0.506813645 -0.693796873
5341630 -0.510160446 -0.692688584
5347530 -0.513343989 -0.691520214
5353530 -0.516703426 -0.690598964
5359430 -0.519958972 -0.689359009
5365430 -0.523109078 -0.688141584
5371330 -0.526365041 -0.687008798
5377230 -0.529510855 -0.685779929
5383230 -0.53265053 -0.684731245
5389130 -0.535700917 -0.683506727
5395130 -0.538749814 -0.682135581
5401030 -0.541678726 -0.681053996
5407030 -0.544856309 -0.679687321
5412930 -0.547933816 -0.678671181
5418930 -0.550849437 -0.67722553
5424830 -0.553745448 -0.67612946
5430830 -0.556802272 -0.67495042
5436730 -0.559715569 -0.673809111
5442730 -0.562724232 -0.672432303
5448630 -0.565502941 -0.671184539
5454530 -0.568448305 -0.669942259
5460530 -0.571444809 -0.668587028
5466430 -0.574157476 -0.667240262
5472430 -0.577082276 -0.665979981
5478330 -0.579688549 -0.664486348
5484330 -0.582430362 -0.663413703
5490230 -0.585294246 -0.661975383
5496230 -0.587918758 -0.660528421
5502130 -0.59049201 -0.659350454
5508130 -0.593327045 -0.657923698
5514030 -0.595923066 -0.65658462
5520030 -0.598493516 -0.655369758
5525930 -0.601216435 -0.653876781
5531830 -0.60378313 -0.652651846
5537830 -0.606249332 -0.651301622
5543730 -0.608905434 -0.649911284
5549730 -0.611372768 -0.648449063
5555630 -0.613796412 -0.64714837
5561630 -0.616385519 -0.645860373
5567530 -0.618957161 -0.644426107
5573530 -0.6212821 -0.64291799
5579430 -0.623860239 -0.641579389
5585430 -0.626318693 -0.64021933
5591330 -0.62872833 -0.638799011
5597330 -0.631070613 -0.637424528
