# Hz S RI R 50
2000000 -0.746086597 0.524239063
2180000 -0.71765393 0.562534213
2360000 -0.686756908 0.598176121
2540000 -0.654946863 0.632183074
2720000 -0.621705412 0.664338469
2900000 -0.587533891 0.694334149
3080000 -0.552177011 0.722378075
3260000 -0.515832662 0.748404562
3440000 -0.478977292 0.77257061
3620000 -0.441335618 0.794678449
3800000 -0.403164178 0.8146829
3980000 -0.364426761 0.83293277
4160000 -0.325359553 0.848919153
4340000 -0.286536157 0.862939357
4520000 -0.247289851 0.875515639
4700000 -0.207964241 0.886049151
4880000 -0.168930962 0.894616723
5060000 -0.129908785 0.901687741
5240000 -0.091065816 0.906808137
5420000 -0.052611529 0.910379111
5600000 -0.014534393 0.912295043
5780000 0.023313378 0.912701666
5960000 0.060744378 0.911785304
6140000 0.097884684 0.910174846
6320000 0.131876468 0.910010874
6500000 0.16657631 0.906175315
6680000 0.203136608 0.896024644
6860000 0.237818494 0.88718003
7040000 0.271073997 0.877548813
7220000 0.303793966 0.867247223
7400000 0.335718035 0.856091439
7580000 0.366786092 0.843967676
7760000 0.397044956 0.830966889
7940000 0.426480561 0.817084968
8120000 0.455162733 0.802334964
8300000 0.482721358 0.786631226
8480000 0.509860455 0.770539164
8660000 0.535966932 0.753635466
8840000 0.561135709 0.736079335
9020000 0.585540115 0.717776596
9200000 0.609239995 0.69844681
9380000 0.632060766 0.678847312
9560000 0.654362618 0.658519148
9740000 0.675560832 0.637736141
9920000 0.695804774 0.616506755
10100000 0.715156316 0.59464401
10280000 0.733779728 0.57279396
10460000 0.751410365 0.550658643
10640000 0.768444001 0.52775824
10820000 0.784394323 0.505193173
11000000 0.799684941 0.481890738
11180000 0.813785731 0.458408951
11360000 0.827330052 0.434719145
11540000 0.840349256 0.410760492
11720000 0.851946055 0.386702716
11900000 0.863203346 0.362575769
12080000 0.873653531 0.338258713
12260000 0.883120059 0.314220964
12440000 0.892248094 0.289606839
12620000 0.900270819 0.265442103
12800000 0.908241569 0.241734609
12980000 0.913994848 0.21636933
13160000 0.920367002 0.192095845
13340000 0.925400733 0.167543694
13520000 0.930159389 0.143256321
13700000 0.934144318 0.118641503
13880000 0.93708992 0.094499021
14060000 0.939349174 0.070415459
14240000 0.941196501 0.04610528
14420000 0.942655265 0.022306397
14600000 0.943224549 -0.00135346
14780000 0.943236052 -0.02500409
14960000 0.942646026 -0.049228694
15140000 0.941401183 -0.072329968
15320000 0.939885675 -0.09583231
15500000 0.937582612 -0.118661537
15680000 0.934819161 -0.141606017
15860000 0.931160748 -0.164318591
16040000 0.927525818 -0.186882644
16220000 0.922748565 -0.208943486
16400000 0.917577803 -0.231284186
16580000 0.912376761 -0.252694964
16760000 0.90624237 -0.274290949
16940000 0.899693012 -0.296090155
17120000 0.892522513 -0.31689611
17300000 0.885402977 -0.33787173
17480000 0.877411961 -0.358462035
17660000 0.868963301 -0.378496646
17840000 0.859876692 -0.398754239
18020000 0.850874841 -0.418557703
18200000 0.841185688 -0.437652498
18380000 0.831240892 -0.457230925
18560000 0.820475518 -0.475805968
18740000 0.809899151 -0.494218975
18920000 0.798330545 -0.512344837
19100000 0.786997139 -0.530106484
19280000 0.77465403 -0.548128604
19460000 0.762141525 -0.56525129
19640000 0.749767661 -0.582280397
19820000 0.736544549 -0.598692059
20000000 0.72298932 -0.614770054
