# Hz S RI R 50
2000000 0.720993041 -0.058998133
2005900 0.717219233 -0.075595058
2011800 0.711488962 -0.092285946
2017800 0.703581154 -0.108625441
2023700 0.694617688 -0.122828416
2029700 0.685460627 -0.134803399
2035600 0.678449034 -0.145023226
2041600 0.673462629 -0.155515968
2047500 0.669971585 -0.167974382
2053500 0.665558636 -0.18309319
2059400 0.659365296 -0.199006661
2065400 0.650411605 -0.215034335
2071300 0.64004445 -0.229666247
2077200 0.628676712 -0.241947501
2083200 0.617873668 -0.252482771
2089100 0.609117031 -0.26209551
2095100 0.601582467 -0.272773563
2101000 0.594317257 -0.285019546
2107000 0.585380911 -0.298846244
2112900 0.57420969 -0.312424689
2118900 0.560997068 -0.324905723
2124800 0.546941041 -0.334971189
2130800 0.533305585 -0.342602521
2136700 0.52182883 -0.348255723
2142700 0.51299858 -0.354350566
2148600 0.505457043 -0.362866848
2154500 0.497218459 -0.373023986
2160500 0.486916869 -0.385026097
2166400 0.474324584 -0.396169543
2172400 0.45977661 -0.406027704
2178300 0.445213407 -0.41329658
2184300 0.430997788 -0.418875485
2190200 0.419148862 -0.423915535
2196200 0.408174842 -0.429943084
2202100 0.396957963 -0.437165617
2208100 0.384211212 -0.445076227
2214000 0.370131671 -0.452412933
2220000 0.354307264 -0.458023458
2225900 0.338713586 -0.461657375
2231800 0.324364304 -0.463087826
2237800 0.311940282 -0.46344918
2243700 0.301772803 -0.46463561
2249700 0.292765825 -0.467640012
2255600 0.283017277 -0.472903013
2261600 0.270902305 -0.478860467
2267500 0.257100909 -0.484329819
2273500 0.241792023 -0.488038182
2279400 0.226873368 -0.489430546
2285400 0.212706357 -0.48937267
2291300 0.200319513 -0.488894492
2297300 0.188529863 -0.48896557
2303200 0.17713733 -0.490246981
2309100 0.165066838 -0.491612344
2315100 0.151424303 -0.492762386
2321000 0.137398853 -0.49235624
2327000 0.123266175 -0.4903135
2332900 0.110630556 -0.486465156
2338900 0.100061453 -0.482279121
2344800 0.091524466 -0.479191005
2350800 0.083204358 -0.477822721
2356700 0.074115253 -0.478031158
2362700 0.063286155 -0.478713929
2368600 0.050847347 -0.478682458
2374500 0.03818744 -0.476807922
2380500 0.025443028 -0.473470658
2386400 0.014215123 -0.469075053
2392400 0.004161159 -0.464554458
2398300 -0.005122514 -0.460503339
2404300 -0.014480428 -0.457460463
2410200 -0.024170465 -0.454261243
2416200 -0.035018488 -0.450638562
2422100 -0.045942753 -0.445992887
2428100 -0.056246913 -0.439779907
2434000 -0.064860843 -0.432742208
2440000 -0.072009176 -0.425927102
2445900 -0.077691309 -0.420347481
2451800 -0.08348073 -0.416452974
2457800 -0.090037755 -0.413727521
2463700 -0.098003312 -0.410858005
2469700 -0.107311479 -0.406996101
2475600 -0.116562075 -0.402260839
2481600 -0.125771507 -0.395994454
2487500 -0.133432537 -0.389026969
2493500 -0.140028193 -0.382085293
2499400 -0.146123185 -0.375769317
2505400 -0.152307793 -0.369870603
2511300 -0.15872839 -0.364174902
2517300 -0.16567932 -0.357900917
2523200 -0.172254905 -0.350866764
2529100 -0.177697256 -0.343195855
2535100 -0.181993722 -0.3351157
2541000 -0.185145169 -0.32795903
2547000 -0.187726587 -0.321936398
2552900 -0.190706506 -0.317109942
2558900 -0.194918841 -0.312850743
2564800 -0.200220942 -0.308538258
2570800 -0.205825671 -0.302656114
2576700 -0.211244121 -0.296261161
2582700 -0.216171905 -0.288939356
2588600 -0.219860836 -0.281513392
2594600 -0.222904801 -0.274211108
2600546 -0.225473329 -0.267415881
2606446 -0.228173345 -0.261038541
2612346 -0.231027975 -0.254876703
2618346 -0.234038159 -0.247750148
2624246 -0.236426219 -0.240696579
2630246 -0.23811753 -0.233373731
2636146 -0.238723009 -0.226327419
2642146 -0.239069223 -0.220202386
2648046 -0.239589944 -0.214973822
2654046 -0.240552514 -0.210347697
2659946 -0.242091223 -0.205750331
2665946 -0.244126349 -0.200766563
2671846 -0.24661003 -0.195040434
2677746 -0.248302698 -0.188823312
2683746 -0.249812185 -0.182217881
2689646 -0.250493645 -0.175782352
2695646 -0.250621199 -0.169344663
2701546 -0.250668942 -0.163560196
2707546 -0.250845909 -0.157692879
2713446 -0.250719875 -0.151811987
2719446 -0.250241756 -0.146234765
2725346 -0.249518916 -0.140293985
2731346 -0.248562589 -0.134807065
2737246 -0.247283875 -0.129705697
2743246 -0.24600546 -0.125157818
2749146 -0.244891032 -0.120896331
2755046 -0.243845179 -0.117036849
2761046 -0.243301197 -0.112781122
2766946 -0.242932856 -0.108583115
2772946 -0.242287844 -0.104210935
2778846 -0.241817027 -0.099450372
2784846 -0.240983083 -0.094691313
2790746 -0.23956564 -0.089963369
2796746 -0.238050103 -0.084963187
2802646 -0.236339524 -0.080542422
2808646 -0.234230145 -0.076044715
2814546 -0.231977924 -0.071967288
2820546 -0.229583337 -0.068032234
2826446 -0.227194607 -0.064443558
2832346 -0.224736034 -0.061170842
2838346 -0.222475692 -0.057771436
2844246 -0.219992429 -0.054898329
2850246 -0.217539861 -0.051939249
2856146 -0.21531029 -0.049432948
2862146 -0.213181331 -0.047003339
2868046 -0.211237162 -0.044343832
2874046 -0.209299892 -0.041823323
2879946 -0.207293584 -0.039254646
2885946 -0.205130204 -0.036366239
2891846 -0.203195318 -0.033445887
2897846 -0.200496882 -0.030654748
2903746 -0.197536468 -0.027806051
2909646 -0.1946747 -0.025538392
2915646 -0.191343426 -0.023461125
2921546 -0.18817006 -0.021757254
2927546 -0.185072988 -0.020345376
2933446 -0.182175636 -0.019028913
2939446 -0.179524496 -0.018106305
2945346 -0.176765128 -0.01699436
2951346 -0.174016237 -0.015930969
2957246 -0.171213984 -0.015089218
2963246 -0.168689116 -0.01435885
2969146 -0.166221529 -0.013822783
2975046 -0.163991436 -0.013216212
2981046 -0.161868825 -0.012589324
2986946 -0.159587159 -0.011873845
2992946 -0.157387658 -0.011117703
2998846 -0.154953017 -0.010319788
3004846 -0.152106046 -0.009598189
3010746 -0.14929375 -0.009287335
3016746 -0.146196365 -0.009152007
3022646 -0.14341332 -0.009432508
3028646 -0.140869081 -0.009945904
3034546 -0.138598546 -0.010661855
3040546 -0.136352896 -0.011297376
3046446 -0.134397998 -0.011758127
3052346 -0.132330268 -0.012459697
3058346 -0.130282863 -0.013198243
3064246 -0.128169044 -0.014153191
3070246 -0.126452967 -0.015227023
3076146 -0.124809779 -0.016112266
3082146 -0.123466119 -0.017124542
3088046 -0.122192122 -0.018025968
3094046 -0.121058523 -0.018802825
3099946 -0.119474858 -0.019526172
3105946 -0.117781125 -0.020123705
3111846 -0.116122148 -0.021228363
3117846 -0.114578619 -0.022319825
3123746 -0.113019108 -0.024115396
3129646 -0.111898876 -0.025560254
3135646 -0.110827922 -0.02701414
3141546 -0.110049262 -0.028457939
3147546 -0.109055198 -0.029978675
3153446 -0.108270108 -0.031376082
3159446 -0.107542194 -0.033076848
3165346 -0.106848105 -0.034779116
3171346 -0.106445387 -0.036299955
3177246 -0.106138758 -0.038256939
3183246 -0.106117732 -0.039813436
3189146 -0.106185778 -0.041390866
3195146 -0.106311768 -0.042601
3201092 -0.106113262 -0.04352932
3206992 -0.106079362 -0.044841505
3212892 -0.105789273 -0.046105392
3218892 -0.105550192 -0.047528214
3224792 -0.105535782 -0.049238942
3230792 -0.105544216 -0.050790168
3236692 -0.10589841 -0.052639912
3242692 -0.106386736 -0.053915075
3248592 -0.106702506 -0.055435668
3254592 -0.107231758 -0.05690639
3260492 -0.10758163 -0.05849909
3266492 -0.108231075 -0.059973139
3272392 -0.109192691 -0.061738882
3278292 -0.110173314 -0.063120082
3284292 -0.111216045 -0.064556382
3290192 -0.112518392 -0.065770089
3296192 -0.113735921 -0.066720284
3302092 -0.114826366 -0.067630089
3308092 -0.115912012 -0.068483211
3313992 -0.116884507 -0.069511748
3319992 -0.117831647 -0.070561453
3325892 -0.118834905 -0.071604713
3331892 -0.120057664 -0.072786599
3337792 -0.121550478 -0.073690541
3343792 -0.123031988 -0.07485675
3349692 -0.124343611 -0.075858831
3355592 -0.125924378 -0.076687954
3361592 -0.127557247 -0.07766088
3367492 -0.129233434 -0.078678175
3373492 -0.131019234 -0.079370431
3379392 -0.132936686 -0.080008663
3385392 -0.135068774 -0.080385185
3391292 -0.137106746 -0.080886773
3397292 -0.139272898 -0.081085555
3403192 -0.141215518 -0.081192389
3409192 -0.143221914 -0.081142216
3415092 -0.144909948 -0.081188909
3421092 -0.146843031 -0.08121068
3426992 -0.148691415 -0.08132825
3432892 -0.150458514 -0.081260927
3438892 -0.152571529 -0.081184998
3444792 -0.154628962 -0.081239476
3450792 -0.156714901 -0.081012934
3456692 -0.158816859 -0.080679148
3462692 -0.16099821 -0.080547347
3468592 -0.163230121 -0.080108731
3474592 -0.165426194 -0.07983265
3480492 -0.167863532 -0.079166099
3486492 -0.170259684 -0.078362084
3492392 -0.172478049 -0.077535785
3498392 -0.175069376 -0.076305732
3504292 -0.177166774 -0.075232125
3510192 -0.179298013 -0.074027784
3516192 -0.181492343 -0.072721712
3522092 -0.183465808 -0.071273721
3528092 -0.185359254 -0.069892063
3533992 -0.18739511 -0.068512231
3539992 -0.189094766 -0.067069426
3545892 -0.191129341 -0.065594263
3551892 -0.193019181 -0.063752733
3557792 -0.195037484 -0.062431037
3563792 -0.196935325 -0.060582481
3569692 -0.198749363 -0.058763008
3575592 -0.200830549 -0.057043608
3581592 -0.202602297 -0.054943069
3587492 -0.20443125 -0.052981391
3593492 -0.20640096 -0.050773508
3599392 -0.208354428 -0.048318024
3605392 -0.209978565 -0.045729991
3611292 -0.21136412 -0.04327853
3617292 -0.212781712 -0.040828809
3623192 -0.214222401 -0.038168545
3629192 -0.215435251 -0.035477805
3635092 -0.216587349 -0.033034823
3641092 -0.217774614 -0.030420524
3646992 -0.218932315 -0.027534082
3652892 -0.219910711 -0.024893969
3658892 -0.220982789 -0.022244118
3664792 -0.222070336 -0.019572602
3670792 -0.223064854 -0.016485648
3676692 -0.224005013 -0.01371304
3682692 -0.224999964 -0.010616722
3688592 -0.225721344 -0.007634511
3694592 -0.226611435 -0.004444481
3700492 -0.22701402 -0.001007077
3706492 -0.227653563 0.002124831
3712392 -0.227999746 0.005551327
3718392 -0.228394359 0.008951575
3724292 -0.22842215 0.012393178
3730192 -0.228294298 0.015607919
3736192 -0.228505194 0.019291821
3742092 -0.2285351 0.022621195
3748092 -0.228145882 0.025940414
3753992 -0.227924793 0.029471855
3759992 -0.227721899 0.032872185
3765892 -0.227416142 0.03628781
3771892 -0.226897388 0.039721626
3777792 -0.226439654 0.043065365
3783792 -0.225903958 0.046924583
3789692 -0.2252108 0.050415873
3795692 -0.224243924 0.054137352
3801638 -0.223473712 0.057970106
3807538 -0.222462728 0.061790511
3813438 -0.221254691 0.065476804
3819438 -0.219792187 0.068984016
3825338 -0.218453854 0.072733573
3831338 -0.216857627 0.076300404
3837238 -0.215187847 0.079879753
3843238 -0.213353767 0.083431147
3849138 -0.211564779 0.086788095
3855138 -0.209258139 0.090106122
3861038 -0.207477554 0.093337088
3867038 -0.205799013 0.096509009
3872938 -0.203600868 0.099822342
3878838 -0.201538547 0.103176586
3884838 -0.199211701 0.106553517
3890738 -0.197132781 0.109578169
3896738 -0.194691985 0.112970426
3902638 -0.192265391 0.116223685
3908638 -0.189591258 0.119505576
3914538 -0.187007024 0.122804328
3920538 -0.184301331 0.12571825
3926438 -0.181450873 0.129136323
3932438 -0.178419411 0.132126837
3938338 -0.175558432 0.134780734
3944338 -0.172067418 0.137819677
3950238 -0.169030964 0.140656217
3956138 -0.16580668 0.143430814
3962138 -0.162573546 0.146092385
3968038 -0.159322693 0.148599207
3974038 -0.15607129 0.15137729
3979938 -0.152861088 0.153771713
3985938 -0.149322047 0.15625678
3991838 -0.145710587 0.158897817
3997838 -0.142438948 0.161415994
4003738 -0.138686016 0.16395466
4009738 -0.134812682 0.166455104
4015638 -0.131094679 0.168825536
4021638 -0.127268657 0.171196773
4027538 -0.123224623 0.173419922
4033438 -0.119129218 0.175632715
4039438 -0.115058295 0.177570074
4045338 -0.11075665 0.179713174
4051338 -0.106543496 0.181643411
4057238 -0.102445721 0.183626919
4063238 -0.098147302 0.185394763
4069138 -0.093860343 0.187091931
4075138 -0.089398659 0.188915118
4081038 -0.085077665 0.190652638
4087038 -0.080667868 0.19242537
4092938 -0.075962111 0.194047778
4098938 -0.0713436 0.195702821
4104838 -0.066760651 0.197221532
4110738 -0.062073532 0.198753714
4116738 -0.057208228 0.200219854
4122638 -0.052275568 0.201485767
4128638 -0.047293234 0.202869385
4134538 -0.042115859 0.204147309
4140538 -0.036982603 0.205175593
4146438 -0.031693655 0.206177473
4152438 -0.026372209 0.207069709
4158338 -0.021205624 0.207817688
4164338 -0.015880702 0.208558842
4170238 -0.010655147 0.209112495
4176138 -0.005229739 0.209726274
4182138 0.000243476 0.210382804
4188038 0.005815235 0.210775569
4194038 0.011173442 0.21147795
4199938 0.017137259 0.21170713
4205938 0.022903462 0.212044253
4211838 0.028756476 0.212145626
4217838 0.034685961 0.212319463
4223738 0.040628377 0.212140694
4229738 0.04674701 0.211913123
4235638 0.052934903 0.211588293
4241638 0.059049017 0.211193859
4247538 0.065170273 0.210600137
4253438 0.071382746 0.209796532
4259438 0.077751547 0.208990544
4265338 0.083885401 0.207944676
4271338 0.090178258 0.207130804
4277238 0.096436336 0.205812707
4283238 0.102718882 0.20474933
4289138 0.108972743 0.203317627
4295138 0.115520685 0.201801881
4301038 0.12195155 0.200353085
4307038 0.128455579 0.198438405
4312938 0.134979739 0.196929335
4318938 0.141655415 0.194704577
4324838 0.148186191 0.192637607
4330738 0.154884427 0.190322875
4336738 0.161737844 0.187748655
4342638 0.168279469 0.18513821
4348638 0.175056993 0.182272687
4354538 0.181747674 0.179370149
4360538 0.188239023 0.17616488
4366438 0.194882094 0.172992944
4372438 0.201360806 0.16966407
4378338 0.207946732 0.166172057
4384338 0.214489981 0.162462741
4390238 0.22098051 0.158823221
4396238 0.227618172 0.154710188
4402184 0.234064534 0.150725334
4408084 0.240595668 0.146593317
4413984 0.24700722 0.142036616
4419984 0.25347355 0.137475162
4425884 0.260016679 0.132752746
4431884 0.266364276 0.127857133
4437784 0.272515892 0.12294729
4443784 0.278778344 0.117468647
4449684 0.285034209 0.112014263
4455684 0.291249841 0.106371097
4461584 0.297176241 0.100678503
4467584 0.303131431 0.094659209
4473484 0.308847665 0.088621489
4479384 0.314516693 0.082480445
4485384 0.32012993 0.075970143
4491284 0.325770914 0.069808118
4497284 0.331218123 0.0632587
4503184 0.336525648 0.0565398
4509184 0.341830372 0.049684632
4515084 0.347160071 0.042506564
4521084 0.352244824 0.035233676
4526984 0.35705167 0.028111342
4532984 0.362028539 0.020451286
4538884 0.366799205 0.013030111
4544884 0.37133193 0.005098147
4550784 0.375664055 -0.002637438
4556684 0.379991084 -0.010538613
4562684 0.384266793 -0.018979912
4568584 0.388131409 -0.026906663
4574584 0.391935795 -0.035195946
4580484 0.395617157 -0.043624036
4586484 0.399192065 -0.052315581
4592384 0.402543246 -0.060998644
4598384 0.405605375 -0.06949827
4604284 0.408765763 -0.078208021
4610284 0.41163659 -0.087266452
4616184 0.414470613 -0.096102096
4622184 0.417050093 -0.105496868
4628084 0.419426888 -0.114495955
4633984 0.421754121 -0.12364342
4639984 0.423767596 -0.133061498
4645884 0.425639748 -0.142296776
4651884 0.427353471 -0.151899695
4657784 0.42865774 -0.161110952
4663784 0.430290967 -0.170991837
4669684 0.431167155 -0.180281206
4675684 0.432162463 -0.190056264
4681584 0.432942837 -0.199604824
4687584 0.433301299 -0.20940788
4693484 0.433747023 -0.218784868
4699484 0.433975636 -0.228659793
4705384 0.434126555 -0.238109081
4711284 0.433763802 -0.247740536
4717284 0.433464616 -0.257622182
4723184 0.4329364 -0.26715067
4729184 0.432315111 -0.276920229
4735084 0.431475371 -0.286596685
4741084 0.430375695 -0.296506434
4746984 0.42928934 -0.305986136
4752984 0.42760837 -0.315796315
4758884 0.425952583 -0.325374871
4764884 0.423790365 -0.335163027
4770784 0.422117769 -0.344651848
4776684 0.419827073 -0.353990644
4782684 0.417627125 -0.363492459
4788584 0.414820373 -0.372813701
4794584 0.412110984 -0.382359176
4800484 0.409388661 -0.391333848
4806484 0.406432479 -0.400838613
4812384 0.403164923 -0.409882247
4818384 0.399719834 -0.419062852
4824284 0.396299928 -0.427929878
4830284 0.392706304 -0.437173515
4836184 0.388914883 -0.445714354
4842184 0.384703576 -0.454828619
4848084 0.380848765 -0.463355898
4853984 0.376474678 -0.471889257
4859984 0.371933221 -0.480564564
4865884 0.367477178 -0.48883742
4871884 0.362675517 -0.497228026
4877784 0.357759386 -0.505263268
4883784 0.352931022 -0.513594925
4889684 0.347879797 -0.521474778
4895684 0.342613458 -0.529467284
4901584 0.33733648 -0.537170886
4907584 0.331832438 -0.544883131
4913484 0.326498597 -0.552304923
4919484 0.320756733 -0.559933006
4925384 0.315069347 -0.567095696
4931284 0.309282034 -0.574383139
4937284 0.303343981 -0.581687986
4943184 0.297357618 -0.58843851
4949184 0.291157186 -0.595525741
4955084 0.284971445 -0.602080523
4961084 0.278603166 -0.609171271
4966984 0.272480279 -0.615285456
4972984 0.265803813 -0.62179619
4978884 0.259407371 -0.627962172
4984884 0.252398788 -0.634306132
4990784 0.246065169 -0.640409409
4996784 0.239162743 -0.64610964
5002730 0.23241882 -0.652086436
5008630 0.225569456 -0.657496571
5014530 0.218741372 -0.663092315
5020530 0.211679711 -0.668551921
5026430 0.204761251 -0.673973977
5032430 0.197693303 -0.678937852
5038330 0.190598055 -0.684213519
5044330 0.183420524 -0.689196705
5050230 0.176334783 -0.693931877
5056230 0.16877231 -0.698783874
5062130 0.161718219 -0.703346908
5068130 0.154302716 -0.707737743
5074030 0.147156804 -0.712129414
5079930 0.139660492 -0.716123998
5085930 0.132022142 -0.720383167
5091830 0.124824568 -0.724394798
5097830 0.117567829 -0.728208363
5103730 0.110054425 -0.732065558
5109730 0.102424897 -0.735556244
5115630 0.09510228 -0.739229798
5121630 0.087551034 -0.742689728
5127530 0.080035291 -0.745869994
5133530 0.07257454 -0.749243795
5139430 0.065050087 -0.752278864
5145430 0.057362269 -0.755190968
5151330 0.049861259 -0.758205473
5157230 0.042269315 -0.760987758
5163230 0.03451481 -0.763778567
5169130 0.027131723 -0.76606971
5175130 0.019627718 -0.768479287
5181030 0.012025906 -0.770872592
5187030 0.00443712 -0.773341536
5192930 -0.003130275 -0.775365829
5198930 -0.01070524 -0.777287006
5204830 -0.018057409 -0.779164016
5210830 -0.025689087 -0.781208395
5216730 -0.033321596 -0.782735526
5222730 -0.040729805 -0.784368038
5228630 -0.048166185 -0.785882413
5234530 -0.055651403 -0.787419021
5240530 -0.063020028 -0.788701653
5246430 -0.070350877 -0.78983283
5252430 -0.078030042 -0.79111135
5258330 -0.085207961 -0.792148947
5264330 -0.092560395 -0.793044924
5270230 -0.09989386 -0.794030189
5276230 -0.10726466 -0.794613778
5282130 -0.114523418 -0.795593142
5288130 -0.121705219 -0.796103239
5294030 -0.128942295 -0.796710848
5300030 -0.136340379 -0.797262609
5305930 -0.143114075 -0.79725033
5311830 -0.150274708 -0.797798275
5317830 -0.157382249 -0.797932147
5323730 -0.164362892 -0.798175036
5329730 -0.171464681 -0.798144578
5335630 -0.178401038 -0.798271954
5341630 -0.18539837 -0.79815346
5347530 -0.192080661 -0.798138082
5353530 -0.199080035 -0.797767341
5359430 -0.20581302 -0.797411203
5365430 -0.212799668 -0.797200679
5371330 -0.219319373 -0.796794295
5377230 -0.226157352 -0.79628843
5383230 -0.232788145 -0.795717597
5389130 -0.23944202 -0.795190334
5395130 -0.245968386 -0.794540405
5401030 -0.252762973 -0.793807685
5407030 -0.259179651 -0.792962193
5412930 -0.265519917 -0.792168319
5418930 -0.272029578 -0.79122442
5424830 -0.278549432 -0.790336906
5430830 -0.284759879 -0.78946191
5436730 -0.291025638 -0.78836745
5442730 -0.297351747 -0.787156283
5448630 -0.303552269 -0.786037027
5454530 -0.309824705 -0.785010576
5460530 -0.315963298 -0.783582448
5466430 -0.322140276 -0.782307624
5472430 -0.328063815 -0.780924141
5478330 -0.334081828 -0.779487013
5484330 -0.340213477 -0.778130888
5490230 -0.345995455 -0.776521086
5496230 -0.352022707 -0.774987876
5502130 -0.357760816 -0.773322701
5508130 -0.363517224 -0.771657109
5514030 -0.369448781 -0.7702955
5520030 -0.375131219 -0.768377959
5525930 -0.380588442 -0.766620993
5531830 -0.386172086 -0.764932215
5537830 -0.392024278 -0.763028979
5543730 -0.397453159 -0.761355578
5549730 -0.402988404 -0.759396374
5055630 -0.408408343 -0.757292091
5561630 -0.413975208 -0.755464076
5567530 -0.419195115 -0.753520429
5573530 -0.42472434 -0.75137037
