# Hz S RI R 50
2000000 -0.493876099 0.746919393
2005900 -0.490668296 0.748077154
2011800 -0.48841992 0.750114321
2017800 -0.485825061 0.752199113
2023700 -0.482588499 0.753338932
2029700 -0.47968015 0.754745364
2035600 -0.477512985 0.757235467
2041600 -0.477168291 0.762097358
2047500 -0.474710345 0.7641083
2053500 -0.473946154 0.768530845
2059400 -0.471240341 0.770409882
2065400 -0.467866212 0.771048307
2071300 -0.464289069 0.771678864
2077200 -0.461178183 0.772656977
2083200 -0.45860958 0.774443864
2089100 -0.456163465 0.776735842
2095100 -0.453458696 0.778427243
2101000 -0.450714141 0.780623197
2107000 -0.447973668 0.78214091
2112900 -0.444868326 0.783621013
2118900 -0.441715061 0.785031199
2124800 -0.438902378 0.786494433
2130800 -0.435533046 0.787435054
2136700 -0.432473063 0.789085865
2142700 -0.429476469 0.790744483
2148600 -0.426692366 0.792576968
2154500 -0.423697918 0.794313907
2160500 -0.420717298 0.795817077
2166400 -0.417365163 0.797041833
2172400 -0.413757443 0.798059821
2178300 -0.410942941 0.799630761
2184300 -0.407681375 0.801508426
2190200 -0.404777944 0.802962541
2196200 -0.401318222 0.80420047
2202100 -0.398416131 0.806005001
2208100 -0.39503616 0.807261168
2214000 -0.391898304 0.808539509
2220000 -0.388301283 0.809707045
2225900 -0.384975731 0.811016023
2231800 -0.381474852 0.81184405
2237800 -0.377819299 0.812540709
2243700 -0.374292671 0.813413083
2249700 -0.370794862 0.814812839
2255600 -0.367496073 0.815862476
2261600 -0.363833576 0.816749989
2267500 -0.360744774 0.818117201
2273500 -0.357088655 0.819306433
2279400 -0.35391584 0.820692956
2285400 -0.35058251 0.821962833
2291300 -0.347311228 0.823641955
2297300 -0.343109846 0.823197185
2303200 -0.339529484 0.82391119
2309100 -0.337338626 0.827430844
2315100 -0.333476185 0.828254163
2321000 -0.33052656 0.830277085
2327000 -0.326424092 0.830387771
2332900 -0.322646081 0.830471277
2338900 -0.317706942 0.829388797
2344800 -0.314983636 0.831655323
2350800 -0.311462283 0.832616209
2356700 -0.308504998 0.835374474
2362700 -0.305147528 0.836910486
2368600 -0.301887124 0.838660657
2374500 -0.298006683 0.839270234
2380500 -0.29414612 0.839541375
2386400 -0.290682673 0.841238081
2392400 -0.286551415 0.841523349
2398300 -0.283050388 0.842792987
2404300 -0.279057562 0.843360006
2410200 -0.275354981 0.844138562
2416200 -0.271967172 0.845738053
2422100 -0.268249273 0.846862077
2428100 -0.264378398 0.847272992
2434000 -0.260951817 0.849185466
2440000 -0.257102102 0.850408077
2445900 -0.25354436 0.851498305
2451800 -0.249697387 0.852459549
2457800 -0.245874479 0.853545725
2463700 -0.241993442 0.854103028
2469700 -0.237869322 0.855162799
2475600 -0.234095856 0.85575354
2481600 -0.229896366 0.856509923
2487500 -0.225958645 0.856983721
2493500 -0.221822619 0.857601404
2499400 -0.217793852 0.858257591
2505400 -0.213776543 0.85882616
2511300 -0.209920004 0.859298467
2517300 -0.205653756 0.859858512
2523200 -0.20160599 0.860472559
2529100 -0.197482392 0.861053824
2535100 -0.193268492 0.861451983
2541000 -0.189199894 0.86182183
2547000 -0.185023933 0.862401068
2552900 -0.180816486 0.862712621
2558900 -0.176426917 0.863161861
2564800 -0.172390267 0.863399028
2570800 -0.168123036 0.863621532
2576700 -0.164089024 0.864041924
2582700 -0.159672349 0.864460587
2588600 -0.155568778 0.864696443
2594600 -0.151122912 0.865256965
2600546 -0.147486373 0.86882174
2606446 -0.143005907 0.869147419
2612346 -0.138760566 0.86932075
2618346 -0.134563863 0.869522035
2624246 -0.129770517 0.86943221
2630246 -0.125583842 0.86949414
2636146 -0.121078327 0.869566679
2642146 -0.116478338 0.869458436
2648046 -0.112222351 0.869561076
2654046 -0.107702791 0.869528532
2659946 -0.103270418 0.869526803
2665946 -0.098788343 0.869404971
2671846 -0.094253771 0.869337797
2677746 -0.089882478 0.869230091
2683746 -0.084905907 0.869020879
2689646 -0.080351784 0.868908822
2695646 -0.075736708 0.868605315
2701546 -0.07112208 0.868389189
2707546 -0.066456511 0.867982447
2713446 -0.061625089 0.867558479
2719446 -0.056996352 0.867139399
2725346 -0.052318274 0.866643667
2731346 -0.047521032 0.866040349
2737246 -0.042772538 0.865559935
2743246 -0.03801763 0.864956319
2749146 -0.033413324 0.864619791
2755046 -0.028630942 0.864038407
2761046 -0.023567488 0.86326617
2766946 -0.018843065 0.862628042
2772946 -0.013843616 0.861856758
2778846 -0.009157748 0.861227869
2784846 -0.004214591 0.860115051
2790746 0.000724548 0.859254598
2796746 0.005550427 0.858378946
2802646 0.01042531 0.857474386
2808646 0.015244067 0.85669732
2814546 0.01992201 0.855668067
2820546 0.024789348 0.85466969
2826446 0.029792346 0.853517115
2832346 0.03463434 0.852548301
2838346 0.039758183 0.851528942
2844246 0.044725246 0.850409686
2850246 0.049754731 0.84908092
2856146 0.054773591 0.847829461
2862146 0.060008157 0.846417367
2868046 0.064934156 0.844958961
2874046 0.069988243 0.843352615
2879946 0.075159333 0.841879606
2885946 0.080087132 0.839993357
2891846 0.085123635 0.838460266
2897846 0.090338207 0.836784899
2903746 0.095342658 0.835275113
2909646 0.100325286 0.833584249
2915646 0.105684176 0.831724822
2921546 0.110633835 0.829933464
2927546 0.116060785 0.827728748
2933446 0.121340066 0.825646698
2939446 0.126459747 0.823566973
2945346 0.131498172 0.821252584
2951346 0.136693835 0.819217264
2957246 0.141753852 0.816834568
2963246 0.146917954 0.814363718
2969146 0.152015447 0.8120718
2975046 0.156882554 0.809471786
2981046 0.162259444 0.807030558
2986946 0.167187482 0.804569184
2992946 0.172416925 0.802013158
2998846 0.177491322 0.799333572
3004846 0.182737022 0.796616137
3010746 0.187922224 0.793906033
3016746 0.193034917 0.790905416
3022646 0.198000282 0.787726938
3028646 0.203135266 0.784573018
3034546 0.208080425 0.781534552
3040546 0.213177427 0.778534114
3046446 0.217990815 0.775385737
3052346 0.223009824 0.772226035
3058346 0.228151589 0.769055485
3064246 0.233422815 0.765735864
3070246 0.238453179 0.762257814
3076146 0.243731856 0.758729398
3082146 0.248975709 0.754961192
3088046 0.253936588 0.751027107
3094046 0.259073644 0.747144758
3099946 0.264045745 0.743177056
3105946 0.268827944 0.738991498
3111846 0.273675233 0.734868705
3117846 0.278464406 0.730539143
3123746 0.283228069 0.726432502
3129646 0.288091391 0.722093105
3135646 0.292786568 0.717709422
3141546 0.297751128 0.713147282
3147546 0.302618443 0.70859754
3153446 0.307435393 0.703888177
3159446 0.312179952 0.698896646
3165346 0.316681653 0.693893551
3171346 0.321170538 0.688649475
3177246 0.325502127 0.683239459
3183246 0.329558759 0.677996039
3189146 0.333679854 0.672912478
3195146 0.337864398 0.667467534
3201092 0.341890811 0.662504673
3206992 0.346028536 0.657011568
3212892 0.350032061 0.651514828
3218892 0.354153573 0.646102309
3224792 0.358041495 0.640514612
3230792 0.362070858 0.634412229
3236692 0.365752905 0.628437757
3242692 0.369575142 0.622344732
3248592 0.372979819 0.616258084
3254592 0.376386135 0.609978139
3260492 0.379621148 0.603843748
3266492 0.38260284 0.597639024
3272392 0.385718882 0.591471254
3278292 0.388855069 0.585517168
3284292 0.392095953 0.579114496
3290192 0.395195215 0.572826802
3296192 0.398573338 0.56606847
3302092 0.401329696 0.559575557
3308092 0.40420404 0.552614152
3313992 0.406738191 0.545445859
3319992 0.409298986 0.53833121
3325892 0.411367267 0.531295359
3331892 0.41337344 0.523964881
3337792 0.415267318 0.516958177
3343792 0.416988134 0.509959161
3349692 0.418560355 0.502973616
3355592 0.420245856 0.495961248
3361592 0.421869307 0.488595545
3367492 0.423485159 0.481305271
3373492 0.424764484 0.473869234
3379392 0.425965934 0.466344684
3385392 0.426912218 0.458566606
3391292 0.427630811 0.450983852
3397292 0.428009122 0.443272382
3403192 0.428253024 0.435565918
3409192 0.428199797 0.428373456
3415092 0.427972733 0.421184867
3421092 0.428166061 0.413784652
3426992 0.428038001 0.406525075
3432892 0.427651107 0.399457663
3438892 0.427641987 0.391958951
3444792 0.427201479 0.384687036
3450792 0.42680478 0.37684369
3456692 0.425796091 0.369335412
3462692 0.424897551 0.361588507
3468592 0.423738569 0.354129731
3474592 0.422092169 0.346549481
3480492 0.42044112 0.339101701
3486492 0.418532997 0.331749796
3492392 0.41638416 0.324702024
3498392 0.414458632 0.317575573
3504292 0.41226527 0.31054449
3510192 0.410089671 0.303562968
3516192 0.407754749 0.296324998
3522092 0.405197679 0.289174348
3528092 0.402229905 0.281862527
3533992 0.399068057 0.274830043
3539992 0.395569115 0.267464041
3545892 0.391724169 0.260653108
3551892 0.38762933 0.254170715
3557792 0.383410573 0.247995257
3563792 0.379132419 0.241886273
3569692 0.374471127 0.236023545
3575592 0.370072096 0.230572819
3581592 0.365862637 0.225086867
3587492 0.361344635 0.219680085
3593492 0.356719076 0.214479461
3599392 0.352136254 0.209218204
3605392 0.347383707 0.204279839
3611292 0.342511683 0.199244394
3617292 0.337038427 0.194366216
3623192 0.331714093 0.189960673
3629192 0.32612881 0.185689494
3635092 0.32079482 0.18215543
3641092 0.315532475 0.178636685
3646992 0.31052947 0.175225123
3652892 0.305534571 0.171823725
3658892 0.300312608 0.168271914
3664792 0.295354723 0.164909869
3670792 0.289990574 0.161603525
3676692 0.28455618 0.15836431
3682692 0.278865545 0.1551162
3688592 0.273114085 0.152498111
3694592 0.266957342 0.149879664
3700492 0.261158674 0.147706761
3706492 0.25508216 0.145890325
3712392 0.249546453 0.14432998
3718392 0.243516415 0.142883643
3724292 0.238244503 0.141810536
3730192 0.232859045 0.140738934
3736192 0.227340653 0.139867529
3742092 0.222234129 0.138764679
3748092 0.216767653 0.137677833
3753992 0.211210146 0.137035548
3759992 0.205557912 0.136132001
3765892 0.199574396 0.135918304
3771892 0.193957328 0.136241048
3777792 0.188265889 0.136725023
3783792 0.18299587 0.137554123
3789692 0.177857637 0.138499736
3795692 0.173288106 0.139508739
3801638 0.168877407 0.140694916
3807538 0.164420068 0.14190936
3813438 0.160251855 0.142982244
3819438 0.156049847 0.143928468
3825338 0.151698142 0.145145773
3831338 0.147439152 0.146390691
3837238 0.143230721 0.147676542
3843238 0.138789668 0.149585992
3849138 0.13461329 0.151438176
3855138 0.130890339 0.153629899
3861038 0.127010986 0.156041398
3867038 0.123520486 0.158453792
3872938 0.120504401 0.16068609
3878838 0.117660179 0.163170009
3884838 0.115019559 0.165483713
3890738 0.112171247 0.167706176
3896738 0.109392605 0.16985692
3902638 0.106782756 0.171878144
3908638 0.103763744 0.174307391
3914538 0.101136498 0.176933094
3920538 0.098426833 0.179678454
3926438 0.095974951 0.182501882
3932438 0.093803882 0.185665518
3938338 0.09183038 0.188890025
3944338 0.090137071 0.191925823
3950238 0.088889978 0.195140376
3956138 0.087573543 0.197978347
3962138 0.086444035 0.200869306
3968038 0.085164107 0.203316479
3974038 0.084057539 0.206198871
3979938 0.082798801 0.209087505
3985938 0.081824757 0.212019413
3991838 0.08098749 0.215385124
3997838 0.080109849 0.218543499
4003738 0.079555474 0.221851378
4009738 0.079655647 0.225080385
4015638 0.07948181 0.22839713
4021638 0.07991077 0.231587886
4027538 0.080488286 0.234305426
4033438 0.08108098 0.237064972
4039438 0.081642217 0.239456921
4045338 0.082176513 0.241847187
4051338 0.082712709 0.24416995
4057238 0.083191432 0.246726855
4063238 0.083856731 0.249201789
4069138 0.084521412 0.251662909
4075138 0.085434116 0.254316419
4081038 0.086334228 0.256983369
4087038 0.087565228 0.259311169
4092938 0.088875956 0.26171112
4098938 0.090318821 0.263977915
4104838 0.091773457 0.265987634
4110738 0.093280829 0.267962336
4116738 0.09461119 0.269715309
4122638 0.09608443 0.271828144
4128638 0.097348585 0.273623317
4134538 0.098949179 0.275588989
4140538 0.100487254 0.277609676
4146438 0.102256856 0.279599875
4152438 0.104112051 0.281658351
4158338 0.106192916 0.28370881
4164338 0.108250126 0.285617679
4170238 0.110705271 0.287553012
4176138 0.112997934 0.288931727
4182138 0.115756653 0.290425121
4188038 0.118103116 0.291632056
4194038 0.1208705 0.293101936
4199938 0.123201817 0.294126898
4205938 0.125953704 0.295252293
4211838 0.128445163 0.296299427
4217838 0.131019219 0.297159135
4223738 0.134051635 0.298080712
4229738 0.136774525 0.298973858
4235638 0.1396977 0.299715161
4241638 0.142687797 0.300231337
4247538 0.145622476 0.300666123
4253438 0.148691207 0.300934255
4259438 0.151642724 0.30114597
4265338 0.154543951 0.301262855
4271338 0.157431498 0.30110687
4277238 0.160439535 0.301019459
4283238 0.163150995 0.300844907
4289138 0.165889263 0.300668001
4295138 0.168917775 0.300531864
4301038 0.171643242 0.300188213
4307038 0.174600824 0.299726933
4312938 0.177690967 0.299516648
4318938 0.180612176 0.29915896
4324838 0.183508247 0.298620641
4330738 0.18630962 0.298013925
4336738 0.189677968 0.297299414
4342638 0.192320734 0.296480327
4348638 0.195284128 0.295688331
4354538 0.198241189 0.294811278
4360538 0.20114158 0.293767601
4366438 0.204026788 0.292930722
4372438 0.207055181 0.291948288
4378338 0.209909632 0.290724009
4384338 0.213177278 0.289512604
4390238 0.216269105 0.288152962
4396238 0.219133526 0.286716312
4402184 0.222265049 0.285269826
4408084 0.225120067 0.283731073
4413984 0.228102967 0.282019615
4419984 0.230897977 0.280026227
4425884 0.233741968 0.278188049
4431884 0.236402481 0.276106506
4437784 0.239151075 0.274288117
4443784 0.241957545 0.272041678
4449684 0.244533345 0.270004212
4455684 0.247232005 0.268028169
4461584 0.249841794 0.26568675
4467584 0.252391964 0.263421654
4473484 0.254897445 0.261047929
4479384 0.257513523 0.258826792
4485384 0.25986737 0.256234854
4491284 0.261982649 0.253604531
4497284 0.264285981 0.251071751
4503184 0.266504466 0.248470947
4509184 0.268734961 0.245934903
4515084 0.270619243 0.243446439
4521084 0.272848248 0.240794181
4526984 0.274944126 0.238490462
4532984 0.277197867 0.235720455
4538884 0.279265791 0.233255788
4544884 0.281367391 0.230456441
4550784 0.283788919 0.227741166
4556684 0.285650968 0.224820315
4562684 0.287885546 0.221893951
4568584 0.289914071 0.219146311
4574584 0.29198876 0.215894728
4580484 0.293708056 0.212942719
4586484 0.295762151 0.209664076
4592384 0.29740563 0.206745862
4598384 0.299119293 0.203448414
4604284 0.301048815 0.200171932
4610284 0.302923232 0.196945935
4616184 0.304431796 0.193602532
4622184 0.305963039 0.190276369
4628084 0.307724922 0.186664804
4633984 0.309061437 0.183202624
4639984 0.310517668 0.179663002
4645884 0.3118245 0.175804764
4651884 0.313145995 0.172523677
4657784 0.314295142 0.169045448
4663784 0.315414994 0.165373519
4669684 0.316479831 0.16187185
4675684 0.31760925 0.15824458
4681584 0.318594098 0.15488471
4687584 0.319619506 0.151237517
4693484 0.320745199 0.147551432
4699484 0.321694284 0.143858447
4705384 0.322591006 0.140063971
4711284 0.32335627 0.136263072
4717284 0.324210077 0.132573962
4723184 0.325002044 0.12882395
4729184 0.325387954 0.125166863
4735084 0.326120346 0.121205613
4741084 0.326763778 0.117505982
4746984 0.32717812 0.113983817
4752984 0.327747076 0.109921753
4758884 0.328321099 0.106075376
4764884 0.328711956 0.102324932
4770784 0.329171925 0.098588325
4776684 0.329543709 0.094478584
4782684 0.329693704 0.090366072
4788584 0.330173015 0.08650615
4794584 0.330335468 0.082360617
4800484 0.33052659 0.078424632
4806484 0.330540418 0.074106037
4812384 0.330513 0.070071637
4818384 0.330420017 0.065953359
4824284 0.330377519 0.062021121
4830284 0.330059647 0.057659301
4836184 0.329995632 0.053668096
4842184 0.329647362 0.049395348
4848084 0.329432308 0.045112602
4853984 0.328949719 0.040994737
4859984 0.328279793 0.03660256
4865884 0.327710449 0.032445471
4871884 0.3268902 0.028357485
4877784 0.326154917 0.024146208
4883784 0.325302898 0.019830266
4889684 0.324430972 0.015809906
4895684 0.323458343 0.011617541
4901584 0.322290629 0.007502353
4907584 0.321263045 0.003381049
4913484 0.320177584 -0.000790827
4919484 0.318968892 -0.004990312
4925384 0.317727357 -0.009150566
4931284 0.316391736 -0.013037746
4937284 0.315114021 -0.017286233
4943184 0.313654005 -0.021208742
4949184 0.312021702 -0.025348
4955084 0.310295552 -0.029466243
4961084 0.308447986 -0.03333757
4966984 0.306962043 -0.037340991
4972984 0.305258572 -0.041241936
4978884 0.30342248 -0.045237712
4984884 0.301278769 -0.048995073
4990784 0.299292653 -0.052979111
4996784 0.297525942 -0.056834451
5002730 0.295419991 -0.060853898
5008630 0.29344967 -0.064658246
5014530 0.291214436 -0.068383507
5020530 0.288806915 -0.072150021
5026430 0.286789745 -0.07589396
5032430 0.284069895 -0.079496152
5038330 0.281722873 -0.08330781
5044330 0.278968423 -0.086750611
5050230 0.276610225 -0.090374
5056230 0.273986816 -0.093694522
5062130 0.271450996 -0.097229033
5068130 0.268751502 -0.100802138
5074030 0.265956997 -0.104124091
5079930 0.263145536 -0.107399582
5085930 0.260302245 -0.110979169
5091830 0.257261246 -0.114136718
5097830 0.25421065 -0.11740636
5103730 0.251280397 -0.120764777
5109730 0.248031392 -0.123832024
5115630 0.244926035 -0.126878827
5121630 0.241772696 -0.129873663
5127530 0.238635852 -0.13272266
5133530 0.235399097 -0.135615214
5139430 0.232092782 -0.138630896
5145430 0.228784531 -0.141246795
5151330 0.225389063 -0.144065156
5157230 0.221958741 -0.14697811
5163230 0.218473911 -0.149551376
5169130 0.215142309 -0.152062311
5175130 0.211479008 -0.154616564
5181030 0.208059355 -0.15715003
5187030 0.204326912 -0.15970683
5192930 0.200892373 -0.162091046
5198930 0.197150349 -0.164189323
5204830 0.193442121 -0.166673734
5210830 0.189817547 -0.168933376
5216730 0.186194837 -0.171042054
5222730 0.182419106 -0.173244446
5228630 0.178699404 -0.17528437
5234530 0.174914911 -0.177439376
5240530 0.170871257 -0.179506808
5246430 0.167157605 -0.181463181
5252430 0.16288197 -0.183243915
5258330 0.159090533 -0.185140535
5264330 0.155011624 -0.186732739
5270230 0.150982186 -0.18859668
5276230 0.146872222 -0.190076857
5282130 0.142923444 -0.191797971
5288130 0.138565257 -0.193106546
5294030 0.134510636 -0.194799736
5300030 0.13028559 -0.195775061
5305930 0.126147314 -0.197236984
5311830 0.122018344 -0.19848226
5317830 0.117676243 -0.199513643
5323730 0.113457798 -0.200437128
5329730 0.109201088 -0.201491206
5335630 0.104861088 -0.202429577
5341630 0.100601695 -0.203198254
5347530 0.096474938 -0.20380862
5353530 0.09201651 -0.20446977
5359430 0.087790101 -0.205199554
5365430 0.083528913 -0.205653533
5371330 0.079324439 -0.206164911
5377230 0.075035013 -0.206473857
5383230 0.070653781 -0.206859976
5389130 0.066483952 -0.207074269
5395130 0.062239024 -0.207298174
5401030 0.057999629 -0.207394465
5407030 0.053731594 -0.207425415
5412930 0.049333501 -0.207566946
5418930 0.045025132 -0.207430392
5424830 0.040763825 -0.207332313
5430830 0.036603145 -0.207170695
5436730 0.032366756 -0.206846967
5442730 0.028175244 -0.206537857
5448630 0.023839846 -0.205847859
5454530 0.019935447 -0.205611228
5460530 0.015405835 -0.204937621
5466430 0.011232315 -0.204383477
5472430 0.006973265 -0.203755483
5478330 0.002781201 -0.202944681
5484330 -0.001434505 -0.202014788
5490230 -0.005516764 -0.201291128
5496230 -0.009664985 -0.200217023
5502130 -0.014004322 -0.199019759
5508130 -0.017942693 -0.197872653
5514030 -0.02209199 -0.196863457
5520030 -0.0263097 -0.195302695
5525930 -0.030204782 -0.194015666
5531830 -0.034196294 -0.192408308
5537830 -0.038148436 -0.191044375
5543730 -0.042157568 -0.189363807
5549730 -0.046076022 -0.187653943
5555630 -0.049788989 -0.185721278
5561630 -0.053800713 -0.184006214
5567530 -0.057402789 -0.182107806
5573530 -0.061325371 -0.180075883
5579430 -0.064781047 -0.178275749
5585430 -0.068538896 -0.176088914
5591330 -0.071820817 -0.174060493
5597330 -0.075561687 -0.171963617
5603276 -0.078720338 -0.169697582
5609176 -0.082413539 -0.1674221
5615076 -0.085753194 -0.165206134
5621076 -0.08917012 -0.16267386
5626976 -0.092431105 -0.160304218
5632976 -0.095837458 -0.15789166
5638876 -0.099159404 -0.155321642
5644876 -0.102426119 -0.152731746
5650776 -0.105753824 -0.15011987
5656776 -0.108805723 -0.147328346
5662676 -0.112067736 -0.144686028
5668676 -0.11495538 -0.141867071
5674576 -0.118153609 -0.138942539
