# Hz S RI R 50
5000000 0.492576181 -0.307270944
5005900 0.488065928 -0.309292286
5011800 0.48376429 -0.311099708
5017800 0.479043781 -0.312918901
5023700 0.474723726 -0.31447184
5029700 0.470074892 -0.316233187
5035600 0.465810656 -0.31769061
5041600 0.461391985 -0.319240421
5047500 0.457020103 -0.32047975
5053500 0.452765345 -0.32203415
5059400 0.448443353 -0.323492318
5065400 0.444031536 -0.324919253
5071300 0.439777821 -0.326230108
5077200 0.435699164 -0.327669978
5083200 0.431347608 -0.32878071
5089100 0.427060902 -0.330124735
5095100 0.422637253 -0.33138597
5101000 0.418608009 -0.332612186
5107000 0.414431691 -0.333928465
5112900 0.410012841 -0.335096418
5118900 0.405630171 -0.336315304
5124800 0.401459991 -0.337391197
5130800 0.397036522 -0.338553786
5136700 0.392877638 -0.339874625
5142700 0.388473242 -0.340963989
5148600 0.384323388 -0.341947108
5154500 0.379991143 -0.343071967
5160500 0.375526696 -0.34412828
5166400 0.371083766 -0.345058023
5172400 0.36663866 -0.346152573
5178300 0.36223638 -0.347203701
5184300 0.357521981 -0.348045587
5190200 0.35310027 -0.348985254
5196200 0.348216116 -0.349733144
5202100 0.343694627 -0.350228995
5208100 0.338799715 -0.351079404
5214000 0.334166377 -0.351498275
5220000 0.329523622 -0.351844638
5225900 0.324634879 -0.352225631
5231800 0.320127099 -0.352142333
5237800 0.315599739 -0.352337688
5243700 0.310890316 -0.352512538
5249700 0.306689441 -0.352535516
5255600 0.302108585 -0.352524667
5261600 0.297543555 -0.35273382
5267500 0.293169468 -0.352802455
5273500 0.288538783 -0.352772653
5279400 0.284363061 -0.352670162
5285400 0.27972725 -0.352515757
5291300 0.275039643 -0.352319926
5297300 0.270572602 -0.351886928
5303200 0.266285181 -0.351721316
5309100 0.261848062 -0.3512322
5315100 0.25728172 -0.350745886
5321000 0.252872496 -0.350185602
5327000 0.248408436 -0.349515616
5332900 0.244011476 -0.348824858
5338900 0.239388808 -0.347941607
5344800 0.235408931 -0.347111463
5350800 0.231284752 -0.346313923
5356700 0.227179512 -0.34537068
5362700 0.223022267 -0.344460844
5368600 0.219113722 -0.34360063
5374500 0.21500203 -0.342510491
5380500 0.211186394 -0.341615051
5386400 0.207107305 -0.34057331
5392400 0.203273206 -0.339544564
5398300 0.199568077 -0.338540554
5404300 0.195673257 -0.337252557
5410200 0.191914334 -0.336237967
5416200 0.188167214 -0.335187762
5422100 0.184569984 -0.333891779
5428100 0.180667638 -0.332972973
5434000 0.177309378 -0.331966549
5440000 0.173334419 -0.330874502
5445900 0.169855758 -0.329879373
5451800 0.166061595 -0.328949362
5457800 0.162246957 -0.327698081
5463700 0.158565923 -0.326596885
5469700 0.154463112 -0.325464099
5475600 0.150908321 -0.3241418
5481600 0.14683032 -0.322498828
5487500 0.143224671 -0.321285218
5493500 0.139174178 -0.319685727
5499400 0.135674759 -0.317940711
5505400 0.132043927 -0.316286295
5511300 0.128599509 -0.31438753
5517300 0.124998144 -0.312725812
5523200 0.121884316 -0.310956299
5529100 0.118504151 -0.309144318
5535100 0.115248374 -0.307189792
5541000 0.112110584 -0.305293023
5547000 0.108815312 -0.303520053
5552900 0.105697855 -0.301850318
5558900 0.102707244 -0.300022393
5564800 0.099635198 -0.298044115
5570800 0.096603617 -0.296387583
5576700 0.093513645 -0.294589132
5582700 0.090683646 -0.292520821
5588600 0.087894357 -0.290676176
5594600 0.08504121 -0.288936227
5600546 0.083651132 -0.28636378
5606446 0.080976411 -0.284573733
5612346 0.078167155 -0.282878398
5618346 0.075793743 -0.281129896
5624246 0.073048338 -0.279530793
5630246 0.070296972 -0.277788698
5636146 0.067752018 -0.276057392
5642146 0.065004438 -0.274598002
5648046 0.062491074 -0.272864609
5654046 0.059471268 -0.271377593
5659946 0.056742526 -0.269805461
5665946 0.053979657 -0.268015831
5671846 0.050999782 -0.266432523
5677746 0.04837612 -0.264742314
5683746 0.045309998 -0.262753754
5689646 0.042288973 -0.260784268
5695646 0.039513513 -0.258945137
5701546 0.036739062 -0.256923437
5707546 0.033849686 -0.254849851
5713446 0.031024269 -0.252896875
5719446 0.028257263 -0.250806212
5725346 0.025588145 -0.248512536
5731346 0.022916298 -0.246419727
5737246 0.020480543 -0.244001299
5743246 0.017802521 -0.241728097
5749146 0.015250751 -0.239548295
5755046 0.012932929 -0.237298294
5761046 0.010385723 -0.235088557
5766946 0.008015922 -0.232713147
5772946 0.005540432 -0.23076865
5778846 0.003245709 -0.228470847
5784846 0.000900478 -0.226208984
5790746 -0.001463413 -0.224145412
5796746 -0.004014273 -0.221929118
5802646 -0.006256596 -0.219818964
5808646 -0.008940277 -0.217575177
5814546 -0.011266872 -0.215326368
5820546 -0.013922631 -0.212831512
5826446 -0.016407711 -0.210636436
5832346 -0.019092239 -0.208021238
5838346 -0.021503917 -0.205504342
5844246 -0.024118285 -0.202822968
5850246 -0.026606233 -0.19986844
5856146 -0.029107071 -0.19702357
5862146 -0.031308062 -0.194164589
5868046 -0.033531591 -0.19119963
5874046 -0.0357748 -0.188159644
5879946 -0.037809628 -0.184887856
5885946 -0.039696298 -0.181815147
5891846 -0.041707407 -0.178777471
5897846 -0.043167054 -0.1754148
5903746 -0.044925149 -0.172530144
5909646 -0.046375796 -0.169487848
5915646 -0.048071436 -0.166516095
5921546 -0.049439322 -0.163748711
5927546 -0.050915859 -0.1606967
5933446 -0.052505727 -0.157936215
5939446 -0.053797461 -0.155212581
5945346 -0.055381227 -0.152216017
5951346 -0.056942809 -0.149317935
5957246 -0.058563437 -0.146627485
5963246 -0.059923138 -0.143662184
5969146 -0.061248008 -0.140618994
5975046 -0.062921419 -0.137579292
5981046 -0.064254559 -0.134421423
5986946 -0.065571986 -0.131217941
5992946 -0.066773429 -0.128176763
5998846 -0.067804627 -0.12526223
6004846 -0.06889116 -0.122019909
6010746 -0.06979689 -0.119285911
6016746 -0.070945106 -0.116001889
6022646 -0.071820862 -0.113163873
6028646 -0.072751782 -0.110092282
6034546 -0.073737747 -0.107389993
6040546 -0.074642702 -0.104470118
6046446 -0.07550621 -0.101338081
6052346 -0.07652153 -0.098608225
6058346 -0.077478602 -0.095453716
6064246 -0.07834085 -0.092570826
6070246 -0.079341061 -0.089341811
6076146 -0.080090507 -0.086235366
6082146 -0.080917827 -0.083203651
6088046 -0.08169125 -0.080041415
6094046 -0.082485705 -0.076646491
6099946 -0.08280576 -0.073507666
6105946 -0.083229802 -0.070188611
6111846 -0.08367151 -0.067315302
6117846 -0.083955325 -0.063931033
6123746 -0.084214843 -0.061027307
6129646 -0.084430582 -0.058155782
6135646 -0.084606476 -0.055041886
6141546 -0.084621168 -0.052040692
6147546 -0.084817841 -0.049264244
6153446 -0.084912925 -0.046364136
6159446 -0.085135348 -0.04373794
6165346 -0.085273563 -0.040893781
6171346 -0.085334777 -0.038021396
6177246 -0.085552617 -0.035125508
6183246 -0.085620597 -0.032288879
6189146 -0.085626281 -0.029498135
6195146 -0.08588238 -0.026782196
6201092 -0.083305224 -0.028627328
6206992 -0.083549991 -0.025838857
6212892 -0.083344593 -0.023195696
6218892 -0.083483569 -0.020353632
6224792 -0.083531565 -0.017521249
6230792 -0.083511538 -0.014878262
6236692 -0.083456583 -0.011910581
6242692 -0.083419866 -0.009068003
6248592 -0.083364851 -0.006326884
6254592 -0.082935243 -0.003243537
6260492 -0.082940839 -0.000288893
6266492 -0.082529246 0.002402092
6272392 -0.081963412 0.005693469
6278292 -0.081484906 0.008291273
6284292 -0.080783814 0.011105227
6290192 -0.080178081 0.013878916
6296192 -0.079466655 0.016429977
6302092 -0.07889568 0.019136847
6308092 -0.078030198 0.021609732
6313992 -0.077579535 0.024121081
6319992 -0.076854854 0.026637598
6325892 -0.076210305 0.029077665
6331892 -0.075735092 0.031473603
6337792 -0.074802123 0.03400018
6343792 -0.074386484 0.036524217
6349692 -0.073844864 0.038987722
6355592 -0.073053784 0.041415661
6361592 -0.072472423 0.044044669
6367492 -0.071492366 0.046734653
6373492 -0.070651963 0.049323387
6379392 -0.069816768 0.051924668
6385392 -0.06897103 0.054391235
6391292 -0.067775413 0.056846961
6397292 -0.066660515 0.059449948
6403192 -0.065475873 0.061809051
6409192 -0.064450994 0.064037792
6415092 -0.062959045 0.066394083
6421092 -0.061705093 0.068432517
6426992 -0.060525987 0.070635244
6432892 -0.059287663 0.072367966
6438892 -0.058328516 0.074531108
6444792 -0.057091642 0.076514415
6450792 -0.056171197 0.078382492
6456692 -0.055036988 0.080332264
6462692 -0.054161608 0.082285687
6468592 -0.053061515 0.084485858
6474592 -0.052108738 0.086352184
6480492 -0.051036801 0.088464885
6486492 -0.049876347 0.090472117
6492392 -0.048846617 0.09245716
6498392 -0.047703206 0.094359531
6504292 -0.046558175 0.096310183
6510192 -0.04539946 0.098404876
6516192 -0.044579833 0.100432589
6522092 -0.04330758 0.102359801
6528092 -0.042165648 0.104463815
6533992 -0.04081583 0.106338039
6539992 -0.039660543 0.108423568
6545892 -0.038427405 0.110422462
6551892 -0.037247646 0.112652346
6557792 -0.035972893 0.114373765
6563792 -0.03473775 0.116928771
6569692 -0.033564276 0.118783131
6575592 -0.03221492 0.120982736
6581592 -0.030810477 0.123085282
6587492 -0.029442874 0.125381425
6593492 -0.028026448 0.127583682
6599392 -0.026355721 0.129692777
6605392 -0.024696713 0.131961733
6611292 -0.023157946 0.134165421
6617292 -0.021376051 0.136497244
6623192 -0.01942466 0.138671413
6629192 -0.017681842 0.140993401
6635092 -0.015539119 0.143373996
6641092 -0.013239752 0.14543879
6646992 -0.01117461 0.147550955
6652892 -0.009003345 0.149538457
6658892 -0.006619072 0.151607587
6664792 -0.004245577 0.153765738
6670792 -0.001642775 0.155848816
6676692 0.001180027 0.157644003
6682692 0.003772668 0.159627288
6688592 0.006474843 0.161381646
6694592 0.009511704 0.163140714
6700492 0.012522258 0.164604589
6706492 0.015760129 0.166359752
6712392 0.018805375 0.167691051
6718392 0.021945441 0.169148564
6724292 0.025209076 0.17016381
6730192 0.028666676 0.171169102
6736192 0.032050184 0.172340586
6742092 0.035564776 0.17282401
6748092 0.039049159 0.173570662
6753992 0.042322512 0.173959165
6759992 0.046057626 0.174501478
6765892 0.049365952 0.174271002
6771892 0.05289391 0.174598351
6777792 0.05656325 0.174313887
6783792 0.060033131 0.173957154
6789692 0.063391864 0.173410862
6795692 0.066848158 0.172980114
6801638 0.061258748 0.173341885
6807538 0.064905889 0.172564297
6813438 0.068079888 0.172182425
6819438 0.071504645 0.171044707
6825338 0.07472074 0.170036554
6831338 0.077887937 0.168864578
6837238 0.080798633 0.167506173
6843238 0.08357504 0.16620551
6849138 0.086506336 0.164294376
6855138 0.088928058 0.162701636
6861038 0.091374963 0.160936594
6867038 0.093640223 0.159002333
6872938 0.095789 0.15706785
6878838 0.097480945 0.154875472
6884838 0.099276132 0.152872204
6890738 0.100820317 0.150661632
6896738 0.101999796 0.148747101
6902638 0.103234767 0.14653401
6908638 0.103903979 0.144618988
6914538 0.104793272 0.142754763
6920538 0.105301447 0.14083679
6926438 0.10581354 0.139439195
6932438 0.106117226 0.137638226
6938338 0.106474421 0.136308982
6944338 0.106711424 0.134763076
6950238 0.106834076 0.13353312
6956138 0.107011072 0.132625728
6962138 0.10697405 0.131481975
6968038 0.106911472 0.130738466
6974038 0.106878928 0.129758283
6979938 0.10685645 0.129058539
6985938 0.106929011 0.128462195
6991838 0.106956079 0.127919837
6997838 0.106612779 0.127436012
7003738 0.106706604 0.127332746
7009738 0.106654003 0.127124175
7015638 0.106624737 0.126958519
7021638 0.106731258 0.127187728
7027538 0.10668791 0.127249404
7033438 0.106876984 0.127243176
7039438 0.107097044 0.127811431
7045338 0.107414267 0.128173962
7051338 0.10786464 0.128656312
7057238 0.108532823 0.12920089
7063238 0.109246917 0.129766866
7069138 0.110028751 0.130289405
7075138 0.110992453 0.130996227
7081038 0.112171672 0.131493911
7087038 0.113427653 0.131988629
7092938 0.114770986 0.132299363
7098938 0.11628969 0.132632523
7104838 0.117926783 0.132928684
7110738 0.119572952 0.132968574
7116738 0.121264077 0.13323681
7122638 0.12289296 0.133015483
7128638 0.124797023 0.132882595
7134538 0.126580491 0.132540896
7140538 0.128388464 0.132159516
7146438 0.13018316 0.13185957
7152438 0.132108643 0.13109672
7158338 0.13385421 0.130558595
7164338 0.135712057 0.129626855
7170238 0.137715637 0.128777235
7176138 0.139387652 0.12755458
7182138 0.14111045 0.126480221
7188038 0.142743438 0.125293523
7194038 0.144293263 0.123832188
7199938 0.145882427 0.122258529
7205938 0.147083595 0.120793074
7211838 0.148482754 0.119172722
7217838 0.149638399 0.117328554
7223738 0.150624454 0.115741692
7229738 0.151531249 0.113954067
7235638 0.152343958 0.112196162
7241638 0.152766019 0.110422089
7247538 0.15348564 0.10879191
7253438 0.153870418 0.106763668
7259438 0.154152452 0.105148226
7265338 0.154346749 0.103663429
7271338 0.154430434 0.102122865
7277238 0.154651179 0.100463174
7283238 0.154660582 0.099057614
7289138 0.154557451 0.097776032
7295138 0.154509171 0.096617192
7301038 0.154530987 0.095300383
7307038 0.154405534 0.093955025
7312938 0.154262945 0.093015164
7318938 0.154184222 0.09199696
7324838 0.153878659 0.090956524
7330738 0.153805166 0.090036958
7336738 0.153744667 0.089079424
7342638 0.153642818 0.088202007
7348638 0.153421878 0.087465316
7354538 0.153255283 0.086739555
7360538 0.153295606 0.085990488
7366438 0.153402373 0.085352711
7372438 0.15296106 0.084763109
7378338 0.153117507 0.083989217
7384338 0.153221562 0.083342857
7390238 0.153310388 0.082842834
7396238 0.153339251 0.08205381
7402184 0.153593465 0.082526847
7408084 0.153587877 0.081878639
7413984 0.153885111 0.081236511
7419984 0.153727754 0.080589137
7425884 0.153917163 0.079867586
7431884 0.154035374 0.079240024
7437784 0.154373109 0.078473575
7443784 0.154397413 0.077605366
7449684 0.154542982 0.076856344
7455684 0.154829546 0.076244406
7461584 0.155028641 0.075357079
7467584 0.155038028 0.074364028
7473484 0.155094608 0.073833934
7479384 0.155120402 0.073003739
7485384 0.155072391 0.072062343
7491284 0.155042767 0.07138282
7497284 0.15502952 0.070646852
7503184 0.155029073 0.069955125
7509184 0.154800802 0.069088958
7515084 0.154700189 0.068538539
7521084 0.154619872 0.067911334
7526984 0.154523551 0.067482553
7532984 0.154564186 0.066744886
7538884 0.154460743 0.066428884
7544884 0.154348894 0.065912507
7550784 0.154553517 0.065635122
7556684 0.154502734 0.065070152
7562684 0.154741764 0.064557686
7568584 0.154944077 0.064231976
7574584 0.15528196 0.063794501
7580484 0.155475437 0.063081264
7586484 0.155851334 0.062587849
7592384 0.156101703 0.061986435
7598384 0.156434476 0.061501879
7604284 0.156633585 0.06093372
7610284 0.157039061 0.060189705
7616184 0.157356157 0.059473503
7622184 0.157926231 0.058736663
7628084 0.158256307 0.057944804
7633984 0.1587338 0.057004295
7639984 0.159017547 0.056214619
7645884 0.159237325 0.055049967
7651884 0.159922227 0.054089356
7657784 0.159960776 0.0532398
7663784 0.16050817 0.052009228
7669684 0.160963639 0.050942067
7675684 0.160919785 0.049809005
7681584 0.161150529 0.048575382
7687584 0.161438003 0.047345649
7693484 0.161451876 0.04582183
7699484 0.16143611 0.0444373
7705384 0.161602437 0.043398201
7711284 0.161421895 0.041816532
7717284 0.161181673 0.040323413
7723184 0.160918995 0.03898929
7729184 0.160582885 0.037637002
7735084 0.159982457 0.036271762
7741084 0.159589454 0.034994818
7746984 0.158726245 0.033608481
7752984 0.158168986 0.032506737
7758884 0.157499045 0.031414393
7764884 0.156842634 0.030409261
7770784 0.156028047 0.029649734
7776684 0.155405417 0.028887454
7782684 0.154704138 0.028109682
7788584 0.153973504 0.027487494
7794584 0.153347179 0.027009161
7800484 0.152694627 0.026334041
7806484 0.152205199 0.025595797
7812384 0.151802733 0.025157524
7818384 0.151498898 0.024617975
7824284 0.151038646 0.023921886
7830284 0.150694698 0.023570645
7836184 0.150338992 0.023021781
7842184 0.150189444 0.022387227
7848084 0.1498425 0.021809097
7853984 0.149410083 0.021153926
7859984 0.149121329 0.020397065
7865884 0.149069562 0.019937589
7871884 0.148826569 0.01926391
7877784 0.148511484 0.018430061
7883784 0.148351848 0.017861744
7889684 0.14819096 0.017251016
7895684 0.148135691 0.016438545
7901584 0.14787361 0.015572467
7907584 0.147579133 0.014810524
7913484 0.147549435 0.014087365
7919484 0.147504866 0.013229563
7925384 0.147385492 0.012350289
7931284 0.14727059 0.011470773
7937284 0.147176846 0.010497515
7943184 0.146802872 0.009284643
7949184 0.146740138 0.008389327
7955084 0.146498918 0.007063774
7961084 0.146098434 0.005815291
7966984 0.145888969 0.004685208
7972984 0.145356804 0.003577967
7978884 0.144762232 0.002171656
7984884 0.144074887 0.001074492
7990784 0.143561378 -0.000397543
7996784 0.142904713 -0.001532736
8002730 0.143733814 -0.000721062
8008630 0.142926707 -0.001719127
8014530 0.142185226 -0.002877014
8020530 0.141526922 -0.003982087
8026430 0.14081043 -0.005076845
8032430 0.139630004 -0.006099632
8038330 0.138914033 -0.007250289
8044330 0.137800678 -0.008136298
8050230 0.13675554 -0.009215549
8056230 0.135870099 -0.009992314
8062130 0.134648948 -0.010753642
8068130 0.133715406 -0.01175618
8074030 0.13268955 -0.012203253
8079930 0.131820946 -0.012861604
8085930 0.130760461 -0.013657386
8091830 0.130011245 -0.014275853
8097830 0.129161357 -0.014977282
8103730 0.128397136 -0.015377649
8109730 0.12763378 -0.016058029
8115630 0.126871883 -0.016561996
8121630 0.126101389 -0.017385041
8127530 0.12546046 -0.018074292
8133530 0.124875709 -0.018678387
8139430 0.124213963 -0.019553709
8145430 0.123447231 -0.020296992
8151330 0.122703827 -0.021318417
8157230 0.121985234 -0.022097444
8163230 0.121257565 -0.022792758
8169130 0.120439715 -0.023674735
8175130 0.119696289 -0.02456692
8181030 0.11887864 -0.025438725
8187030 0.118125192 -0.026400741
8192930 0.117059975 -0.027428612
8198930 0.11621835 -0.028244176
8204830 0.11524108 -0.029333135
8210830 0.113999947 -0.030194824
8216730 0.113193728 -0.031113266
8222730 0.112146355 -0.032082982
8228630 0.111036233 -0.033209715
8234530 0.109886825 -0.034158114
8240530 0.10863012 -0.03506121
8246430 0.107432328 -0.036001566
8252430 0.106196537 -0.036801472
8258330 0.104784987 -0.037608187
8264330 0.103339351 -0.0387162
8270230 0.10186737 -0.03934776
8276230 0.100472882 -0.039991248
8282130 0.099089048 -0.040629427
8288130 0.097238294 -0.041509408
8294030 0.09584248 -0.041807282
8300030 0.094503402 -0.042380753
8305930 0.092810995 -0.042892392
8311830 0.091438002 -0.043348968
8317830 0.089742839 -0.043630734
8323730 0.088509291 -0.043979089
8329730 0.086985781 -0.044367861
8335630 0.085625447 -0.044663138
8341630 0.08445046 -0.045068435
8347530 0.082897908 -0.045357853
8353530 0.08186879 -0.045686423
8359430 0.080409295 -0.045807659
8365430 0.079256676 -0.046321649
8371330 0.078061282 -0.046619314
8377230 0.076673455 -0.046705063
8383230 0.075583882 -0.047200325
8389130 0.074245013 -0.047757945
8395130 0.072794251 -0.048087067
8401030 0.071571722 -0.048660799
8407030 0.070230223 -0.048929993
8412930 0.068671971 -0.049429733
8418930 0.067341446 -0.049850236
8424830 0.065583631 -0.05017941
8430830 0.064200855 -0.050450511
8436730 0.062698282 -0.050830792
8442730 0.061056058 -0.051184415
8448630 0.059637021 -0.05144114
8454530 0.058082751 -0.051806163
8460530 0.056505039 -0.052047606
8466430 0.054964676 -0.052298989
8472430 0.053164437 -0.052411634
8478330 0.051802527 -0.0525745
8484330 0.050019994 -0.052951823
8490230 0.048313152 -0.053072974
8496230 0.046588666 -0.053266607
8502130 0.044814258 -0.053356699
8508130 0.043139804 -0.053283199
8514030 0.041498634 -0.053264565
8520030 0.039451424 -0.053074643
8525930 0.037900529 -0.053048685
8531830 0.036099407 -0.052875004
8537830 0.034401722 -0.052832651
8543730 0.032665528 -0.052521169
8549730 0.031020244 -0.052206017
8555630 0.02931069 -0.051793232
8561630 0.027624888 -0.051843527
8567530 0.02578113 -0.051343079
8573530 0.024149606 -0.050917498
8579430 0.022322632 -0.050463233
8585430 0.020597605 -0.0499283
8591330 0.018861381 -0.049449417
8597330 0.017205379 -0.048899479
8603276 0.017963282 -0.05071089
8609176 0.016587756 -0.050075359
8615076 0.014836478 -0.049619242
8621076 0.0134331 -0.04874226
8626976 0.01185954 -0.048296727
8632976 0.010549088 -0.047433055
8638876 0.009073941 -0.046661455
8644876 0.007899666 -0.045950185
