# Hz S RI R 50
2000000 -0.284175723 0.830537617
2012800 -0.278066307 0.832794964
2025700 -0.271877259 0.834672152
2038600 -0.265936106 0.837133288
2051500 -0.259387344 0.839189827
2064400 -0.253605842 0.840749144
2077300 -0.247595474 0.843151032
2090100 -0.24104996 0.844915509
2103000 -0.235317364 0.846829712
2115900 -0.228432402 0.84931159
2128800 -0.222244441 0.85051757
2141700 -0.215751498 0.852754354
2154600 -0.209259912 0.85405898
2167400 -0.203323751 0.8560099
2180300 -0.196362987 0.858036458
2193200 -0.190361455 0.858900249
2206100 -0.183605819 0.860569775
2219000 -0.177115783 0.862217545
2231900 -0.17077358 0.863298237
2244700 -0.163853287 0.865347206
2257600 -0.157654196 0.866251349
2270500 -0.151266589 0.867244482
2283400 -0.144431367 0.86878848
2296300 -0.137947276 0.869709908
2309200 -0.131583839 0.870794713
2322100 -0.124945454 0.871704876
2334900 -0.118883043 0.872947752
2347800 -0.111491113 0.873591065
2360700 -0.104805059 0.874266207
2373600 -0.098651595 0.874709308
2386500 -0.091710478 0.876031458
2399400 -0.085302166 0.876703023
2412200 -0.078687608 0.876824676
2425100 -0.071810841 0.877359628
2438000 -0.065426103 0.87750864
2450900 -0.058676522 0.877889871
2463800 -0.052530374 0.87785387
2476700 -0.04638087 0.878111183
2489500 -0.040118116 0.878425061
2502400 -0.033630557 0.878663182
2515300 -0.027195533 0.878919243
2528200 -0.021229047 0.879280388
2541100 -0.014775933 0.879908382
2554000 -0.008726608 0.879447162
2566800 -0.002282837 0.879997253
2579700 0.004090211 0.879968822
2592600 0.010226328 0.880570709
2605500 0.016723912 0.880935728
2618400 0.02328114 0.88142836
2631300 0.030467187 0.880670905
2644200 0.036888867 0.881195902
2657000 0.042925413 0.880830109
2669900 0.049626182 0.88057357
2682800 0.056545827 0.880103349
2695700 0.062898851 0.880081832
2708600 0.069709584 0.879578948
2721500 0.076240934 0.879096865
2734300 0.08303114 0.878561854
2747200 0.089569523 0.878214597
2760100 0.096176601 0.877494275
2773000 0.103027045 0.87676686
2785900 0.109567366 0.875942647
2798800 0.116275548 0.87459582
2811600 0.122629605 0.874186635
2824500 0.129600837 0.873180508
2837400 0.13554874 0.871683001
2850300 0.141972541 0.870421469
2863200 0.148556724 0.869567096
2876100 0.15501593 0.867772638
2888900 0.160972252 0.866677701
2901800 0.167165055 0.865592181
2914700 0.173504069 0.864029705
2927600 0.179584205 0.863045513
2940500 0.185445934 0.86160767
2953400 0.191817581 0.859756112
2966300 0.197930738 0.859202265
2979100 0.203859522 0.857878208
2992000 0.21039623 0.856330513
3004900 0.216640278 0.855435669
3017800 0.223558083 0.854055225
3030700 0.229733437 0.852815449
3043600 0.236302495 0.850922703
3056400 0.24237281 0.849259018
3069300 0.249378323 0.847662687
3082200 0.25544393 0.845733523
3095100 0.261842578 0.84387201
3108000 0.268049508 0.841860413
3120900 0.27490431 0.839536607
3133700 0.280893534 0.83749926
3146600 0.287443071 0.835462212
3159500 0.293582975 0.832920074
3172400 0.299744069 0.830814063
3185300 0.306245297 0.828404605
3198200 0.312596529 0.826000094
3211000 0.318257629 0.823475122
3223900 0.324587941 0.821135759
3236800 0.330376714 0.818597614
3249700 0.336458981 0.816390812
3262600 0.342193275 0.813225567
3275500 0.348559349 0.810787379
3288400 0.355037599 0.808307111
3301284 0.360484033 0.806355357
3314084 0.366933286 0.803469061
3326984 0.372549951 0.800237536
3339884 0.379349887 0.797305226
3352784 0.38458237 0.794622182
3365684 0.390805304 0.791718959
3378584 0.396881759 0.788964569
3391384 0.402956396 0.785493314
3404284 0.409161031 0.782029271
3417184 0.414906322 0.779083311
3430084 0.420663148 0.775093257
3442984 0.426571756 0.772314488
3455884 0.432367086 0.768422007
3468684 0.438296288 0.765370845
3481584 0.443902701 0.76155591
3494484 0.449743151 0.757914721
3507384 0.45551446 0.754441797
3520284 0.460992991 0.751208484
3533184 0.466766744 0.746849298
3545984 0.472130358 0.743510842
3558884 0.477952629 0.739120066
3571784 0.483240097 0.735147535
3584684 0.489384412 0.731758236
3597584 0.494586616 0.727430582
3610484 0.500521004 0.723051667
3623384 0.505223453 0.719136059
3636184 0.510915935 0.714584171
3649084 0.516272366 0.710307359
3661984 0.521616578 0.70618838
3674884 0.527172267 0.701326131
3687784 0.532503128 0.697060525
3700684 0.537619829 0.692367136
3713484 0.542528867 0.687750279
3726384 0.5476107 0.683368504
3739284 0.552648305 0.678316771
3752184 0.55755949 0.673679471
3765084 0.562599241 0.668194532
3777984 0.567515254 0.663530766
3790784 0.57219392 0.658919453
3803684 0.576479554 0.653830766
3816584 0.581715881 0.648239493
3829484 0.585980236 0.643238663
3842384 0.590435206 0.638799071
3855284 0.595028698 0.633263051
3868084 0.599159479 0.627920448
3880984 0.604166805 0.622657418
3893884 0.608382463 0.617597222
3906784 0.612923622 0.612033605
3919684 0.617337465 0.606655955
3932584 0.621834039 0.600903213
3945484 0.62584269 0.595546066
3958284 0.630296647 0.589729547
3971184 0.634252071 0.583607256
3984084 0.638435602 0.577570497
3996984 0.641604304 0.571553349
4009884 0.645658969 0.565574944
4022784 0.649353504 0.558960855
4035584 0.652230739 0.553131401
4048484 0.655164599 0.547062873
4061384 0.658292949 0.540503799
4074284 0.661928057 0.53399527
4087184 0.664616286 0.528212726
4100084 0.667014181 0.521675348
4112884 0.669777989 0.515755474
4125784 0.671834766 0.508884191
4138684 0.674703061 0.50279361
4151584 0.676241695 0.496382504
4164484 0.678598463 0.489857405
4177384 0.679543316 0.483425706
4190184 0.681539118 0.476776361
4203084 0.68282932 0.470645427
4215984 0.683147013 0.4644818
4228884 0.684412837 0.458609431
4241784 0.684725165 0.452784538
4254684 0.685026407 0.447415858
4267584 0.684883356 0.442029207
4280384 0.685576558 0.437853336
4293284 0.685341 0.432803571
4306184 0.686164021 0.428792119
4319084 0.685698688 0.42506361
4331984 0.686475157 0.421157956
4344884 0.686923503 0.417622655
4357684 0.688070476 0.414758503
4370584 0.688816666 0.411659568
4383484 0.690227568 0.408198267
4396384 0.691203773 0.405893057
4409284 0.692656219 0.40278548
4422184 0.694808006 0.400127142
4434984 0.696778297 0.397772848
4447884 0.69966185 0.395169287
4460784 0.701958596 0.39243108
4473684 0.704899072 0.389760464
4486584 0.708164274 0.387046396
4499484 0.710933625 0.383883267
4512284 0.71460992 0.380801886
4525184 0.718175292 0.376886069
4538084 0.721910476 0.373800247
4550984 0.725449025 0.370105683
4563884 0.72952038 0.366856098
4576784 0.73358488 0.36275047
4589684 0.737695395 0.358481287
4602568 0.741232216 0.355203926
4615368 0.745954513 0.350315183
4628268 0.750633418 0.345692276
4641168 0.755012333 0.340299844
4654068 0.759496271 0.335382789
4666968 0.764226913 0.329548209
4679868 0.768587648 0.323815524
4692668 0.772622287 0.317816197
4705568 0.777283489 0.311846226
4718468 0.781149208 0.305263936
4731368 0.785582244 0.298433929
4744268 0.789174616 0.291655689
4757168 0.792885243 0.284552544
4769968 0.796499133 0.277092188
4782868 0.799655854 0.270031601
4795768 0.802650034 0.262153953
4808668 0.805231213 0.254958003
4821568 0.808062136 0.247162699
4834468 0.811521291 0.239916354
4847268 0.814389944 0.23307982
4860168 0.816919088 0.225108519
4873068 0.819920659 0.217561274
4885968 0.822359681 0.20972301
4898868 0.824896931 0.200862213
4911768 0.827416062 0.192586079
4924668 0.829663515 0.18393208
4937468 0.831304609 0.175815984
4950368 0.833402156 0.166352629
4963268 0.834887623 0.158081158
4976168 0.835829496 0.14918664
4989068 0.8371858 0.140406101
5001968 0.83873713 0.131446629
5014768 0.838715553 0.122490741
5027668 0.839458107 0.113579832
5040568 0.839324831 0.104488633
5053468 0.839848697 0.09597925
5066368 0.839347422 0.086880236
5079268 0.839151859 0.078286752
5092068 0.838791728 0.069770365
5104968 0.838954985 0.061140701
5117868 0.838506698 0.053305521
5130768 0.838630616 0.044600989
5143668 0.838241457 0.035515151
5156568 0.837355077 0.026918793
5169368 0.836930215 0.017907125
5182268 0.835361361 0.009664848
5195168 0.834733784 0.000505887
5208068 0.833774447 -0.00851632
5220968 0.832783222 -0.017725976
5233868 0.831297934 -0.02647889
5246768 0.829195678 -0.035956267
5259568 0.827620446 -0.044882353
5272468 0.825832426 -0.053626298
5285368 0.822770178 -0.062457378
5298268 0.820461392 -0.071217566
5311168 0.817785561 -0.079904109
5324068 0.815386533 -0.088122196
5336868 0.812052905 -0.096214167
5349768 0.809009909 -0.104587681
5362668 0.806633532 -0.112611331
5375568 0.804620146 -0.120108991
5388468 0.80245608 -0.128208518
5401368 0.800017833 -0.136479243
5414168 0.797869682 -0.14567092
5427068 0.794644594 -0.153992205
5439968 0.79170376 -0.162808522
5452868 0.788457393 -0.1720279
5465768 0.785526931 -0.181384891
5478668 0.781475543 -0.190663129
5491468 0.777497649 -0.199739322
5504368 0.773364126 -0.209475234
5517268 0.768736064 -0.217847377
5530168 0.76392883 -0.227102428
5543068 0.758101046 -0.235921278
5555968 0.753380537 -0.245317712
5568868 0.747769296 -0.253440648
5581668 0.741587758 -0.261706531
5594568 0.735883891 -0.269480496
5607468 0.730249524 -0.277562618
5620368 0.723940312 -0.284751921
5633268 0.718397736 -0.29234758
5646168 0.712641358 -0.300123602
5658968 0.707682728 -0.307382881
5671868 0.700988233 -0.315907686
5684768 0.695048391 -0.324268102
5697668 0.688722908 -0.331901103
5710568 0.682260215 -0.339669555
5723468 0.675167202 -0.348011612
5736268 0.668009281 -0.355620294
5749168 0.660715878 -0.363273382
5762068 0.652817964 -0.371188998
5774968 0.644466102 -0.378890335
5787868 0.636095643 -0.38622266
5800768 0.627560317 -0.39312613
5813568 0.618712484 -0.399530351
5826468 0.60983473 -0.406007587
5839368 0.600612998 -0.412150919
5852268 0.591523408 -0.417985916
5865168 0.582267284 -0.423909813
5878068 0.573506355 -0.429113864
5890968 0.564198017 -0.435022205
5903852 0.556156635 -0.443357586
5916652 0.546608448 -0.44838345
5929552 0.537656366 -0.453483521
5942452 0.528163313 -0.458457946
5955352 0.518390893 -0.463041186
5968252 0.509338319 -0.467710107
5981152 0.499638974 -0.472570121
5993952 0.48939985 -0.477144598
6006852 0.47984755 -0.481667816
6019752 0.469374775 -0.486238598
6032652 0.458752632 -0.490272134
6045552 0.448493719 -0.49449408
6058452 0.43704158 -0.49851495
6071252 0.425509959 -0.502169966
6084152 0.414168715 -0.505215346
6097052 0.402689814 -0.508095085
6109952 0.390865296 -0.510284602
6122852 0.379479318 -0.512009263
6135752 0.367886453 -0.513385057
6148552 0.356728464 -0.51509267
6161452 0.345084697 -0.515109539
6174352 0.334008812 -0.516289889
6187252 0.322754859 -0.516738951
6200152 0.312060207 -0.517490684
6213052 0.300951987 -0.517391622
6225952 0.289550155 -0.517907023
6238752 0.278644263 -0.518277704
6251652 0.267980605 -0.518330216
6264552 0.255914241 -0.518114805
6277452 0.244019255 -0.517924785
6290352 0.232150182 -0.517521798
6303252 0.219893664 -0.5159747
6316052 0.208571314 -0.514590859
6328952 0.196192204 -0.512760639
6341852 0.184217035 -0.5101071
6354752 0.171640112 -0.50759077
6367652 0.159600898 -0.503744781
6380552 0.147376194 -0.500608563
6393352 0.135601297 -0.495495378
6406252 0.124247483 -0.490779548
6419152 0.112891606 -0.485616624
6432052 0.101990632 -0.479898244
6444952 0.09157104 -0.474301427
6457852 0.080867558 -0.468440204
6470652 0.070644319 -0.462636381
6483552 0.061317753 -0.456420212
6496452 0.05109626 -0.450066
6509352 0.041780535 -0.443495571
6522252 0.032608877 -0.436947464
6535152 0.022716913 -0.430196285
6548052 0.013500475 -0.423489421
6560852 0.004078555 -0.415407866
6573752 -0.005169496 -0.408142149
6586652 -0.014409406 -0.399631083
6599552 -0.022886129 -0.392060369
6612452 -0.031714275 -0.383589953
6625352 -0.039632119 -0.374387979
6638152 -0.047865077 -0.365574091
6651052 -0.054860662 -0.355427324
6663952 -0.062141098 -0.346064656
6676852 -0.068409256 -0.336452186
6689752 -0.075145117 -0.326453745
6702652 -0.081085957 -0.315905362
6715452 -0.086251109 -0.305423647
6728352 -0.09150464 -0.296185702
6741252 -0.095997028 -0.285809278
6754152 -0.100439518 -0.276198238
6767052 -0.105173565 -0.266076266
6779952 -0.108922995 -0.25543946
6792752 -0.112686902 -0.245355933
6805652 -0.11570198 -0.236082881
6818552 -0.119925439 -0.225651174
6831452 -0.123212523 -0.215312123
6844352 -0.126404866 -0.204489901
6857252 -0.128886178 -0.193771883
6870152 -0.131272554 -0.182868987
6882952 -0.133092731 -0.172467216
6895852 -0.134920656 -0.161692902
6908752 -0.135726422 -0.150623843
6921652 -0.136299312 -0.139903396
6934552 -0.136669844 -0.128465935
6947452 -0.137271106 -0.118120923
6960252 -0.136437714 -0.107402116
6973152 -0.135991171 -0.097071968
6986052 -0.134404078 -0.086601957
6998952 -0.132870614 -0.076361462
7011852 -0.131440892 -0.066260211
7024752 -0.129947617 -0.056233599
7037552 -0.127637028 -0.046056199
7050452 -0.125877872 -0.036358449
7063352 -0.12327414 -0.026432657
7076252 -0.120573602 -0.016564186
7089152 -0.117856428 -0.006443214
7102052 -0.114836126 0.003319608
7114852 -0.110881492 0.01324189
7127752 -0.107234261 0.022677734
7140652 -0.102865524 0.032207041
7153552 -0.097963713 0.042069811
7166452 -0.093136206 0.05100812
7179352 -0.087073862 0.060288719
7192252 -0.08162561 0.068943098
7205136 -0.065870173 0.056912004
7217936 -0.06018098 0.06485372
7230836 -0.054371558 0.072002887
7243736 -0.048459846 0.079967081
7256636 -0.041948959 0.086821854
7269536 -0.035314101 0.093662194
7282436 -0.028281232 0.100021027
7295236 -0.021400138 0.106579132
7308136 -0.014127977 0.112953931
7321036 -0.006283411 0.118444465
7333936 0.001129382 0.12343733
7346836 0.008356899 0.128668144
7359736 0.016630042 0.133349299
7372536 0.024416858 0.137644141
7385436 0.0319296 0.141346305
7398336 0.040344201 0.14478299
7411236 0.048034656 0.148814797
7424136 0.055644128 0.151774153
7437036 0.064182974 0.155305966
7449836 0.072467491 0.157817423
7462736 0.080119535 0.160687997
7475636 0.088931553 0.162841036
7488536 0.096951447 0.165098875
7501436 0.105939731 0.167017742
7514336 0.114441566 0.168495938
7527236 0.12314292 0.169806212
7540036 0.13220182 0.170543655
7552936 0.140580475 0.171066701
7565836 0.149536505 0.17144744
7578736 0.158507853 0.171630114
7591636 0.167040601 0.17050378
7604536 0.175723835 0.16966556
7617336 0.18395777 0.168798714
7630236 0.192819535 0.167426288
7643136 0.200640812 0.165716648
7656036 0.209520861 0.163759678
7668936 0.217732116 0.161899909
7681836 0.225518181 0.159189194
7694636 0.233674407 0.156872212
7707536 0.241445064 0.154087722
7720436 0.249539792 0.150435283
7733336 0.257351994 0.14757362
7746236 0.265179753 0.143954813
7759136 0.273192018 0.14021784
7771936 0.280988425 0.136275827
7784836 0.287987232 0.131251975
7797736 0.295513749 0.126991689
7810636 0.302379399 0.121690623
7823536 0.309446722 0.116505652
7836436 0.316524267 0.110971875
7849336 0.322571247 0.104725889
7862136 0.329261898 0.09879297
7875036 0.335453003 0.092218697
7887936 0.341352432 0.085374601
7900836 0.346658676 0.078840367
7913736 0.352042257 0.071992002
7926636 0.356331646 0.064780354
7939436 0.360907852 0.057698063
7952336 0.365535467 0.050898309
7965236 0.369662374 0.04353597
7978136 0.373427629 0.035364791
7991036 0.377004712 0.028516542
8003936 0.380755275 0.021083988
8016736 0.384047806 0.014008061
8029636 0.387075394 0.006226188
8042536 0.390318095 -0.001099568
8055436 0.392830491 -0.008989835
8068336 0.395760178 -0.017110312
8081236 0.398158371 -0.024985758
8094036 0.400489121 -0.032948628
8106936 0.402999192 -0.040865413
8119836 0.404475241 -0.049010567
8132736 0.40609911 -0.057391829
8145636 0.408013731 -0.06602329
8158536 0.408823519 -0.075160078
8171436 0.40908569 -0.083872064
8184236 0.409232228 -0.092629723
8197136 0.40972203 -0.100414164
8210036 0.409389883 -0.109188452
8222936 0.409344375 -0.117599941
8235836 0.408298552 -0.126146435
8248736 0.408199518 -0.134110212
8261536 0.406997233 -0.142241671
8274436 0.406841576 -0.150736957
8287336 0.405451148 -0.158986896
8300236 0.404462218 -0.167349174
8313136 0.403093159 -0.17582488
8326036 0.401108592 -0.183856949
8338836 0.400052547 -0.192346006
8351736 0.398141175 -0.201043576
8364636 0.396154433 -0.210397347
8377536 0.393631309 -0.218897596
8390436 0.39103493 -0.227732509
8403336 0.388134866 -0.236929982
8416136 0.384760469 -0.246142506
8429036 0.380855411 -0.254918545
8441936 0.37671566 -0.26347354
8454836 0.372675031 -0.272474944
8467736 0.36766684 -0.280838429
8480636 0.36308372 -0.289395987
8493536 0.357995212 -0.297843128
8506420 0.352876365 -0.304495304
8519220 0.347085684 -0.312586396
8532120 0.34132263 -0.320146113
8545020 0.335469007 -0.328000098
8557920 0.32941854 -0.335941135
8570820 0.32280308 -0.343611508
8583720 0.316215783 -0.350935399
8596520 0.309613674 -0.3582623
8609420 0.302550017 -0.365372478
8622320 0.295536696 -0.372920483
8635220 0.287303894 -0.379925668
8648120 0.279595971 -0.386783897
8661020 0.271794557 -0.394028723
8673820 0.262856006 -0.400254815
8686720 0.254502832 -0.406293302
8699620 0.245616525 -0.412252604
8712520 0.236804753 -0.418021261
8725420 0.227151691 -0.423396825
8738320 0.217782288 -0.428463786
8751120 0.209008455 -0.433311223
8764020 0.199785396 -0.437530994
8776920 0.189750596 -0.442339181
8789820 0.180777743 -0.44652909
8802720 0.171182185 -0.451128154
8815620 0.161305531 -0.454815775
8828520 0.151148706 -0.4589715
8841320 0.141451105 -0.462782412
8854220 0.130730926 -0.466225743
8867120 0.120290338 -0.469435334
8880020 0.108859688 -0.473083615
8892920 0.09805943 -0.47609654
8905820 0.086835816 -0.478447407
8918620 0.075014799 -0.480306267
8931520 0.063648462 -0.482234388
8944420 0.051741529 -0.48364526
8957320 0.039944689 -0.484622597
8970220 0.028068576 -0.484507948
8983120 0.016675297 -0.48509556
8995920 0.004587898 -0.484554022
9008820 -0.006622982 -0.483721286
9021720 -0.018223993 -0.482314974
9034620 -0.029619732 -0.481395691
9047520 -0.040582198 -0.480095744
9060420 -0.051502943 -0.478162974
9073220 -0.062372729 -0.476999402
9086120 -0.073414176 -0.474715739
9099020 -0.08425153 -0.472830325
9111920 -0.095125772 -0.471041768
9124820 -0.106858819 -0.468872278
9137720 -0.117912128 -0.466855227
9150620 -0.129465445 -0.463585525
9163420 -0.140588715 -0.460701137
9176320 -0.152209639 -0.457455635
9189220 -0.164401322 -0.453449755
9202120 -0.17520985 -0.448864996
9215020 -0.187533363 -0.444489717
9227920 -0.198819771 -0.439083337
9240720 -0.210513412 -0.433759689
9253620 -0.221198946 -0.427285194
9266520 -0.232071876 -0.420505523
9279420 -0.242484644 -0.413905233
9292320 -0.252767801 -0.407137423
9305220 -0.26301974 -0.399981826
9318020 -0.271983891 -0.3919833
9330920 -0.281235098 -0.383931219
9343820 -0.290565669 -0.37681654
9356720 -0.299184799 -0.368018925
9369620 -0.307985842 -0.36009249
9382520 -0.316391676 -0.352177828
9395320 -0.324881583 -0.344105511
9408220 -0.333021849 -0.335265219
9421120 -0.341108679 -0.326248973
9434020 -0.348463445 -0.317690521
9446920 -0.356729567 -0.308098793
9459820 -0.364085882 -0.298831015
9472720 -0.371136307 -0.28912726
9485520 -0.377970814 -0.278959929
9498420 -0.384951442 -0.269108176
9511320 -0.391504645 -0.258877307
9524220 -0.397064834 -0.247895181
9537120 -0.402907758 -0.237991988
9550020 -0.408140867 -0.227104082
9562820 -0.41358301 -0.216569751
9575720 -0.418740123 -0.205695793
9588620 -0.423259377 -0.194729581
9601520 -0.427642852 -0.183940097
9614420 -0.432389229 -0.172386184
9627320 -0.435908764 -0.161150291
9640120 -0.439449518 -0.149925589
9653020 -0.442490547 -0.138811677
9665920 -0.445457398 -0.127525478
9678820 -0.448189198 -0.115312144
9691720 -0.450840681 -0.103574715
9704620 -0.452724069 -0.091700322
9717420 -0.454288214 -0.079874515
9730320 -0.455347597 -0.067746751
9743220 -0.456329494 -0.056453507
9756120 -0.456430912 -0.044568754
9769020 -0.456355661 -0.032441589
9781920 -0.45630455 -0.020722161
9794820 -0.455258965 -0.009615253
9807704 -0.462632268 0.000881452
9820504 -0.461735725 0.012718669
9833404 -0.460106253 0.024369167
9846304 -0.458187609 0.0358482
9859204 -0.456558346 0.046919547
9872104 -0.454392701 0.058599695
9885004 -0.451677143 0.069067306
9897804 -0.448468089 0.080141946
