# Hz S RI R 50
3000000 0.813165783 -0.511022567
3023800 0.809674501 -0.514821052
3047600 0.805828571 -0.518752515
3071400 0.802092432 -0.522442817
3095200 0.798258364 -0.526189088
3119000 0.794327616 -0.529551625
3142800 0.789841651 -0.532873034
3166600 0.786299645 -0.536376357
3190400 0.78185141 -0.539310634
3214200 0.777604281 -0.542449831
3238000 0.77355355 -0.545804679
3261800 0.769800901 -0.548901259
3285700 0.76576513 -0.551650881
3309500 0.761688411 -0.555039763
3333300 0.757517158 -0.557988345
3357100 0.753198564 -0.560980677
3380900 0.748811364 -0.564468562
3404700 0.744536995 -0.567190349
3428500 0.739612162 -0.569932818
3452300 0.734682738 -0.572250843
3476100 0.73051089 -0.574639976
3499900 0.726174235 -0.576503276
3523700 0.72167617 -0.578575909
3547600 0.718218982 -0.580894947
3571400 0.71417427 -0.582898616
3595200 0.710082113 -0.585208833
3619000 0.70649296 -0.587741732
3642800 0.702733278 -0.590566039
3666600 0.698786377 -0.593394458
3690400 0.694989621 -0.596396028
3714200 0.690850198 -0.599178969
3738000 0.686674416 -0.602596342
3761800 0.682124674 -0.606335341
3785600 0.676996231 -0.609456598
3809500 0.672141253 -0.613019943
3833300 0.666866421 -0.616291463
3857100 0.661148607 -0.619365811
3880900 0.6549111 -0.622743487
3904700 0.648807764 -0.625646948
3928500 0.641708076 -0.628346323
3952300 0.63539952 -0.630536615
3976100 0.628367483 -0.632251501
3999900 0.621389567 -0.634329438
4023700 0.614600002 -0.636182546
4047500 0.606948614 -0.63726896
4071400 0.599726557 -0.638717412
4095200 0.592442214 -0.639376878
4119000 0.584749758 -0.639858543
4142800 0.577243566 -0.640065491
4166600 0.570017635 -0.640283584
4190400 0.562087476 -0.640072584
4214200 0.554168164 -0.639596998
4238000 0.546135365 -0.638997077
4261800 0.538060367 -0.637856364
4285600 0.529895484 -0.636356294
4309400 0.521034836 -0.634151756
4333300 0.51233983 -0.63130784
4357100 0.503967106 -0.628466725
4380900 0.49571377 -0.624335408
4404700 0.486999958 -0.619761705
4428500 0.479130595 -0.614250957
4452300 0.471284925 -0.607885003
4476100 0.464062064 -0.601098358
4499900 0.457203567 -0.593255877
4523700 0.451303213 -0.584881901
4547500 0.446184396 -0.576474428
4571300 0.441836684 -0.56708008
4595200 0.43854615 -0.557059407
4619000 0.436024904 -0.546930849
4642800 0.434764623 -0.537023127
4666600 0.434314966 -0.526548624
4690400 0.435620039 -0.516203999
4714200 0.437571734 -0.505732774
4738000 0.440667122 -0.495388865
4761800 0.445498734 -0.485848575
4785600 0.451205968 -0.477017492
4809400 0.458750396 -0.469156354
4833200 0.466963261 -0.462042242
4857100 0.47630012 -0.456609815
4880900 0.486051678 -0.452611505
4904700 0.496788889 -0.450111389
4928500 0.507208108 -0.449449807
4952300 0.517240583 -0.450786799
4976100 0.527088165 -0.453461736
4999900 0.535517752 -0.458107829
5023700 0.54269278 -0.463371276
5047500 0.54888904 -0.468975454
5071300 0.553282618 -0.475454062
5095100 0.557142257 -0.48195967
5119000 0.559934914 -0.488205671
5142800 0.561253368 -0.493958532
5166600 0.56207323 -0.499614566
5190400 0.562260031 -0.50456494
5214200 0.562378942 -0.508807301
5238000 0.562006533 -0.512162864
5261800 0.56213957 -0.515391588
5285600 0.563004076 -0.51817429
5309400 0.563780725 -0.520650625
5333200 0.565032958 -0.523663818
5357000 0.566375374 -0.526601672
5380900 0.568054497 -0.530022978
5404709 0.569833099 -0.533701419
5428509 0.570852756 -0.537433028
5452309 0.572561681 -0.541524291
5476109 0.573959231 -0.545473814
5499909 0.57542622 -0.549839377
5523709 0.577225863 -0.554057002
5547509 0.57888931 -0.558730721
5571309 0.581214308 -0.563874363
5595109 0.58319956 -0.570269107
5618909 0.584527432 -0.576525568
5642709 0.585906505 -0.583776891
5666509 0.586677968 -0.592073321
5690409 0.586546957 -0.599881112
5714209 0.585844099 -0.608539283
5738009 0.584711134 -0.617117941
5761809 0.58262068 -0.625656962
5785609 0.579474091 -0.634419083
5809409 0.576148748 -0.642511785
5833209 0.572550952 -0.650741398
5857009 0.568032205 -0.65835458
5880809 0.56310302 -0.665913641
5904609 0.55797559 -0.673200726
5928409 0.552156031 -0.680099189
5952309 0.546533405 -0.686699032
5976109 0.54055041 -0.693303883
5999909 0.534325778 -0.699654757
6023709 0.528114736 -0.705049932
6047509 0.521576464 -0.71102643
6071309 0.51456809 -0.716420888
6095109 0.507957994 -0.721398115
6118909 0.501205146 -0.727126896
6142709 0.493616014 -0.731913328
6166509 0.486705154 -0.736659765
6190309 0.479491472 -0.741560399
6214209 0.471816867 -0.746363461
6238009 0.464087218 -0.750572502
6261809 0.456367731 -0.754630327
6285609 0.448996424 -0.758349478
6309409 0.440934509 -0.762158691
6333209 0.433090567 -0.765306174
6357009 0.425151109 -0.768532514
6380809 0.41716665 -0.771324276
6404609 0.40885666 -0.774142801
6428409 0.399886101 -0.776312112
6452209 0.390800803 -0.778078258
6476109 0.381825923 -0.779734015
6499909 0.372397035 -0.780911147
6523709 0.362624913 -0.781967997
6547509 0.352218836 -0.782451629
6571309 0.342628866 -0.782293856
6595109 0.332329541 -0.782203495
6618909 0.322167426 -0.781417548
6642709 0.312341183 -0.780392587
6666509 0.302096754 -0.778883635
6690309 0.292090952 -0.777124583
6714109 0.28247112 -0.775328099
6738009 0.272800594 -0.773108482
6761809 0.263142764 -0.770493626
6785609 0.253440678 -0.767713189
6809409 0.24401316 -0.764454066
6833209 0.234378948 -0.761231243
6857009 0.224706754 -0.757715821
6880809 0.214849874 -0.75370711
6904609 0.205833137 -0.749205112
6928409 0.196114018 -0.744369506
6952209 0.187049999 -0.73888427
6976009 0.178188383 -0.733438909
6999909 0.169210806 -0.727473855
7023709 0.160627767 -0.720837354
7047509 0.152155771 -0.713766276
7071309 0.144305199 -0.706708133
7095109 0.13623549 -0.698862373
7118909 0.129274621 -0.690948545
7142709 0.122111923 -0.682707428
7166509 0.115568943 -0.67396748
7190309 0.109220184 -0.665211796
7214109 0.103128403 -0.655825495
7237909 0.098088122 -0.646150767
7261809 0.092684313 -0.636175572
7285609 0.088263079 -0.62594974
7309409 0.083981446 -0.615675687
7333209 0.080860562 -0.605023801
7357009 0.078225076 -0.594553411
7380809 0.076111689 -0.583845913
7404609 0.074424959 -0.572969853
7428409 0.07342562 -0.561989605
7452209 0.072786293 -0.551156878
7476009 0.073134154 -0.541174709
7499809 0.073845684 -0.530595242
7523709 0.075060553 -0.520098745
7547509 0.076423458 -0.509996592
7571309 0.078773416 -0.500391185
7595109 0.081502556 -0.490716487
7618909 0.084341503 -0.481595635
7642709 0.087986201 -0.472243636
7666509 0.091297492 -0.463468968
7690309 0.095576547 -0.455083847
7714109 0.099962227 -0.446810483
7737909 0.104775041 -0.439106553
7761709 0.109587542 -0.43105486
7785609 0.115369737 -0.423511356
7809418 0.120856776 -0.416320234
7833218 0.126396283 -0.409729778
7857018 0.132788375 -0.402568817
7880818 0.139389351 -0.39658299
7904618 0.146061226 -0.390382856
7928418 0.15327014 -0.384549945
7952218 0.160971865 -0.379207491
7976018 0.168541386 -0.374441087
7999818 0.176470696 -0.369866728
8023618 0.184856921 -0.365756064
8047418 0.1935115 -0.36230722
8071218 0.202278435 -0.359374135
8095118 0.211129352 -0.357086658
8118918 0.22023046 -0.355432748
8142718 0.229071393 -0.354043245
8166518 0.238185793 -0.353449732
8190318 0.247276842 -0.352931112
8214118 0.255952745 -0.353455424
8237918 0.264657855 -0.354507058
8261718 0.273286253 -0.355793297
8285518 0.28158164 -0.357733488
8309318 0.290035188 -0.360273003
8333118 0.297701925 -0.362976789
8357018 0.305240541 -0.366206705
8380818 0.312675625 -0.369809091
8404618 0.319828659 -0.37381494
8428418 0.326217204 -0.378003716
8452218 0.332503288 -0.382769644
8476018 0.338569432 -0.387524962
8499818 0.344110071 -0.392210125
8523618 0.349423944 -0.397509455
8547418 0.354039996 -0.402390182
8571218 0.359016746 -0.407692849
8595018 0.363446176 -0.413029223
8618918 0.367256641 -0.418621361
8642718 0.371126085 -0.424230456
8666518 0.374977052 -0.429738014
8690318 0.378134727 -0.435204923
8714118 0.381471335 -0.440993636
8737918 0.384563237 -0.447115659
8761718 0.387654125 -0.452960014
8785518 0.389723628 -0.458821296
8809318 0.392373949 -0.46506223
8833118 0.394439697 -0.471042424
8856918 0.39613521 -0.477436661
8880818 0.397437602 -0.483531951
8904618 0.398927062 -0.489943981
8928418 0.400278657 -0.495835363
8952218 0.401002883 -0.502264082
8976018 0.401822447 -0.508437633
8999818 0.402678072 -0.51489669
9023618 0.402513921 -0.520913064
9047418 0.40278691 -0.527186155
9071218 0.402742683 -0.53350383
9095018 0.402510821 -0.539708137
9118818 0.401703357 -0.545754611
9142718 0.400918453 -0.551946341
9166518 0.399917274 -0.557952284
9190318 0.39874646 -0.563791811
9214118 0.397403955 -0.569666743
9237918 0.395827233 -0.575759708
9261718 0.394316077 -0.581324577
9285518 0.392380177 -0.586561441
9309318 0.390524536 -0.592568218
9333118 0.38842082 -0.597814917
9356918 0.385923147 -0.603145062
9380718 0.383504539 -0.608130991
9404618 0.38122639 -0.613119959
9428418 0.378530383 -0.618838071
9452218 0.375904887 -0.623524069
9476018 0.37293455 -0.627993106
9499818 0.370431631 -0.632708787
9523618 0.367379784 -0.637028157
9547418 0.364451736 -0.641778588
9571218 0.361270546 -0.646007716
9595018 0.358346402 -0.650143325
9618818 0.355631887 -0.654112696
9642618 0.352289378 -0.658395349
9666518 0.349332749 -0.662499666
9690318 0.345963209 -0.666380763
9714118 0.343104571 -0.670280992
9737918 0.339645326 -0.674059569
9761718 0.336449384 -0.678281486
9785518 0.333024471 -0.68199712
9809318 0.329547852 -0.685589611
9833118 0.325939923 -0.689574956
9856918 0.32240498 -0.69339627
9880718 0.319044947 -0.697095513
9904518 0.31520158 -0.700825393
9928418 0.311553478 -0.704603075
9952218 0.307470291 -0.707785427
9976018 0.30331096 -0.711016535
9999818 0.299486249 -0.714568257
10023618 0.295599669 -0.717551648
10047418 0.291387498 -0.720575392
10071218 0.287330895 -0.723507285
10095018 0.283023029 -0.726459026
10118818 0.278949201 -0.729239821
10142618 0.274796813 -0.731694698
10166418 0.270548582 -0.734482586
10190318 0.266619414 -0.736841559
10214127 0.262293517 -0.739213049
10237927 0.258275777 -0.741872847
10261727 0.254402041 -0.744383513
10285527 0.249942362 -0.747026503
10309327 0.245924979 -0.748843789
10333127 0.241445779 -0.751233756
10356927 0.237393066 -0.75368607
10380727 0.233203127 -0.755609154
10404527 0.228935688 -0.757866144
10428327 0.224364504 -0.760053038
10452127 0.219972476 -0.762012302
10475927 0.215826272 -0.764196157
10499827 0.211546018 -0.766019344
10523627 0.207003623 -0.767842352
10547427 0.202711641 -0.769490659
10571227 0.198239058 -0.771345376
10595027 0.194270998 -0.773247838
10618827 0.189463019 -0.774965405
10642627 0.184800103 -0.776409626
10666427 0.180681243 -0.778163731
10690227 0.175819084 -0.779503762
10714027 0.171381607 -0.781246304
10737827 0.1667075 -0.782747864
10761727 0.162416636 -0.784015238
10785527 0.15770021 -0.785411119
10809327 0.153450563 -0.786628007
10833127 0.148679837 -0.787854671
10856927 0.144027128 -0.789004683
10880727 0.139374047 -0.790266752
10904527 0.134983971 -0.791292786
10928327 0.130433872 -0.792412877
10952127 0.125318661 -0.793462872
10975927 0.120644934 -0.794283151
10999727 0.116136193 -0.795008301
11023627 0.111418686 -0.795995473
11047427 0.106570959 -0.796794593
11071227 0.102022171 -0.79743272
11095027 0.097243517 -0.798111796
11118827 0.092932432 -0.798363804
11142627 0.088509507 -0.798930108
11166427 0.083464011 -0.799591183
11190227 0.079140953 -0.800407528
11214027 0.074277676 -0.800552248
11237827 0.070005364 -0.800831735
11261627 0.065116532 -0.801277399
11285527 0.060555905 -0.801574468
11309327 0.055716808 -0.801540374
11333127 0.05130453 -0.80204904
11356927 0.046553082 -0.802264392
11380727 0.042074516 -0.802590548
11404527 0.037262801 -0.802721738
11428327 0.032504092 -0.802530288
11452127 0.028052469 -0.802794277
11475927 0.023506473 -0.802713096
11499727 0.018813978 -0.80248022
11523527 0.014118711 -0.80287069
11547427 0.009552197 -0.802639067
11571227 0.004937858 -0.802236378
11595027 0.000164096 -0.802197098
11618827 -0.004355625 -0.801800668
11642627 -0.008928851 -0.801426351
11666427 -0.014025059 -0.801261126
11690227 -0.018452342 -0.800903439
11714027 -0.023146927 -0.800566256
11737827 -0.027732143 -0.800112783
11761627 -0.032350644 -0.799503862
11785427 -0.036798339 -0.798902928
11809327 -0.04172283 -0.798757016
11833127 -0.046667143 -0.797886908
11856927 -0.051230493 -0.797249138
11880727 -0.055884353 -0.796607553
11904527 -0.060503199 -0.79534316
11928327 -0.065055221 -0.794666826
11952127 -0.070167846 -0.794038832
11975927 -0.074770525 -0.792944192
11999727 -0.079741917 -0.792319655
12023527 -0.083773992 -0.790988564
12047327 -0.0891238 -0.790063261
12071227 -0.093984737 -0.788801133
12095027 -0.098452776 -0.787766218
12118827 -0.103376157 -0.786629796
12142627 -0.107890069 -0.785143315
12166427 -0.112779557 -0.784004032
12190227 -0.117703028 -0.782976746
12214027 -0.122491635 -0.781129956
12237827 -0.127277731 -0.779763817
12261627 -0.132056981 -0.778381168
12285427 -0.136710494 -0.776657938
12309227 -0.141431152 -0.774771869
12333127 -0.146297529 -0.772865474
12356927 -0.151214495 -0.771195292
12380727 -0.15589784 -0.769408285
12404527 -0.161005839 -0.767585098
12428327 -0.165768757 -0.765147805
12452127 -0.170546874 -0.763258457
12475927 -0.175127774 -0.760638535
12499727 -0.180231586 -0.758473038
12523527 -0.184995621 -0.755960643
12547327 -0.190105065 -0.753673434
12571127 -0.194910943 -0.750736713
12595027 -0.199875354 -0.747404098
12618836 -0.204682826 -0.744435667
12642636 -0.209546253 -0.74162507
12666436 -0.214234352 -0.737689077
12690236 -0.219281464 -0.734753668
12714036 -0.223544508 -0.730753183
12737836 -0.227994188 -0.727140128
12761636 -0.232465669 -0.723386585
12785436 -0.236877694 -0.719048678
12809236 -0.2410582 -0.714750111
12833036 -0.244885191 -0.710354506
12856836 -0.248943686 -0.705544948
12880636 -0.252859592 -0.700796365
12904536 -0.256215631 -0.695934712
12928336 -0.259976118 -0.691092431
12952136 -0.262830168 -0.685571253
12975936 -0.265965521 -0.680884599
12999736 -0.268530726 -0.675419986
13023536 -0.271426707 -0.669782042
13047336 -0.273168623 -0.664556682
13071136 -0.275373518 -0.659010887
13094936 -0.276999354 -0.653442323
13118736 -0.278586626 -0.647622048
13142536 -0.279782235 -0.642241358
13166436 -0.280574321 -0.636229276
13190236 -0.280963718 -0.631258606
13214036 -0.281219422 -0.625662684
13237836 -0.280920296 -0.620079159
13261636 -0.2808232 -0.614812672
13285436 -0.280542254 -0.609857797
13309236 -0.279354125 -0.604714751
13333036 -0.278467476 -0.599900186
13356836 -0.276953756 -0.595181822
13380636 -0.275038838 -0.590899944
13404436 -0.27347204 -0.586633026
13428336 -0.271293759 -0.582675099
13452136 -0.268898963 -0.57889086
13475936 -0.266464084 -0.575510621
13499736 -0.263801395 -0.572710096
13523536 -0.260768413 -0.569594204
13547336 -0.257598042 -0.566950738
13571136 -0.254654616 -0.564919352
13594936 -0.251043379 -0.563589334
13618736 -0.248203605 -0.561892449
13642536 -0.245014965 -0.561068713
13666336 -0.241578802 -0.560318171
13690236 -0.238165497 -0.560373127
13714036 -0.234856516 -0.560434162
13737836 -0.231529101 -0.560695648
13761636 -0.228959172 -0.562317252
13785436 -0.225809127 -0.563374638
13809236 -0.223273485 -0.56548798
13833036 -0.221142798 -0.567180335
13856836 -0.218746885 -0.569773137
13880636 -0.217265471 -0.572036027
13904436 -0.215679287 -0.575264453
13928236 -0.2142369 -0.578443884
13952136 -0.213388189 -0.58170104
13975936 -0.213233485 -0.584819078
13999736 -0.212879896 -0.588464915
14023536 -0.213011354 -0.592132985
14047336 -0.213425487 -0.59562546
14071136 -0.21431753 -0.599762618
14094936 -0.215664416 -0.603331089
14118736 -0.217057839 -0.607044219
14142536 -0.218725457 -0.610546112
14166336 -0.220557361 -0.614497959
14190136 -0.222787573 -0.617838084
14214036 -0.225405097 -0.621440768
14237836 -0.228338837 -0.624951004
14261636 -0.231433242 -0.628578662
14285436 -0.234575033 -0.631647646
14309236 -0.238091319 -0.635288536
14333036 -0.24205698 -0.638572514
14356836 -0.246194645 -0.641187071
14380636 -0.250486761 -0.644234776
14404436 -0.254779577 -0.646870374
14428236 -0.259678184 -0.64949882
14452036 -0.264535665 -0.651970267
14475936 -0.269244432 -0.654144525
14499736 -0.274707585 -0.655960559
14523536 -0.280049711 -0.657954514
14547336 -0.285498648 -0.659416496
14571136 -0.291108906 -0.660675048
14594936 -0.297276914 -0.662305533
14618736 -0.303016483 -0.662861347
14642536 -0.308744251 -0.663654744
14666336 -0.314686834 -0.664122045
14690136 -0.320880472 -0.664939463
14713936 -0.326672524 -0.664569914
14737836 -0.332728326 -0.66491419
14761636 -0.338965982 -0.664675414
14785436 -0.345092654 -0.664215505
14809236 -0.351095348 -0.66350305
14833036 -0.356778979 -0.662765443
14856836 -0.363084137 -0.661438345
14880636 -0.368979036 -0.660334765
14904436 -0.375013023 -0.658869326
14928236 -0.380707383 -0.65753144
14952036 -0.386499077 -0.656140148
14975836 -0.392437309 -0.65409249
14999736 -0.398292422 -0.652068078
