# Hz S RI R 50
3000000 0.463290631 -0.776870131
3023800 0.456415385 -0.779494345
3047600 0.44935435 -0.781870126
3071400 0.442332834 -0.784699797
3095200 0.435137659 -0.787519812
3119000 0.428210079 -0.790216088
3142800 0.420662611 -0.793201029
3166600 0.413116395 -0.796192228
3190400 0.405367285 -0.799032628
3214200 0.397208839 -0.802185118
3238000 0.388600587 -0.804909944
3261800 0.380309939 -0.807625949
3285700 0.371097505 -0.809974491
3309500 0.362300068 -0.812219023
3333300 0.353590041 -0.814428508
3357100 0.344305634 -0.815668106
3380900 0.335290908 -0.817332565
3404700 0.326303035 -0.818644225
3428500 0.317186087 -0.819571197
3452300 0.308361083 -0.820591628
3476100 0.299310535 -0.821647167
3499900 0.290594309 -0.822751879
3523700 0.281283229 -0.823342204
3547600 0.27222228 -0.824636459
3571400 0.262834548 -0.825511693
3595200 0.253402501 -0.82613039
3619000 0.243554636 -0.826964199
3642800 0.233433887 -0.827587187
3666600 0.223627313 -0.827704548
3690400 0.213090032 -0.828123927
3714200 0.202389344 -0.82804501
3738000 0.191329449 -0.827914118
3761800 0.180285841 -0.82751578
3785600 0.168792635 -0.826362907
3809500 0.15674965 -0.825075924
3833300 0.145248353 -0.823442697
3857100 0.133272528 -0.820805966
3880900 0.121270976 -0.818183481
3904700 0.109445407 -0.814723968
3928500 0.097217172 -0.810671269
3952300 0.085025124 -0.806511163
3976100 0.073214858 -0.802273631
3999900 0.061261016 -0.796922504
4023700 0.048817548 -0.791364908
4047500 0.036825079 -0.785246193
4071400 0.024806793 -0.778295278
4095200 0.012719439 -0.771011769
4119000 0.000113276 -0.763085007
4142800 -0.011859133 -0.754236817
4166600 -0.023245157 -0.744415044
4190400 -0.035031665 -0.73354119
4214200 -0.046475894 -0.722064971
4238000 -0.056921202 -0.709904849
4261800 -0.06707479 -0.696850538
4285600 -0.076865471 -0.682703673
4309400 -0.085941039 -0.667788863
4333300 -0.094586931 -0.651868224
4357100 -0.10204266 -0.635031461
4380900 -0.108551524 -0.617085754
4404700 -0.113724663 -0.59839797
4428500 -0.117416568 -0.578368723
4452300 -0.119411669 -0.558012306
4476100 -0.11961136 -0.536908388
4499900 -0.118052497 -0.515453398
4523700 -0.114119321 -0.493870586
4547500 -0.108373142 -0.472584426
4571300 -0.100279152 -0.451157927
4595200 -0.089896194 -0.431075781
4619000 -0.077662512 -0.410855591
4642800 -0.063466429 -0.392865836
4666600 -0.047270193 -0.375493913
4690400 -0.029252495 -0.359702497
4714200 -0.009295709 -0.345026105
4738000 0.012716983 -0.332535773
4761800 0.036602217 -0.322242021
4785600 0.062108457 -0.315281867
4809400 0.088630072 -0.311071634
4833200 0.115636184 -0.310329794
4857100 0.142610743 -0.312834382
4880900 0.169112235 -0.319039702
4904700 0.194477289 -0.327749848
4928500 0.219263553 -0.339675813
4952300 0.241544932 -0.35492137
4976100 0.262140899 -0.372033625
4999900 0.280349045 -0.391606926
5023700 0.295742005 -0.412491261
5047500 0.308320701 -0.434823036
5071300 0.318647652 -0.457645177
5095100 0.326115965 -0.48110342
5119000 0.33136937 -0.504473268
5142800 0.33433479 -0.528157413
5166600 0.334913343 -0.551268935
5190400 0.334346801 -0.573809087
5214200 0.33167693 -0.59594506
5238000 0.327052682 -0.617447853
5261800 0.321138948 -0.638271927
5285600 0.313737958 -0.658278942
5309400 0.305123388 -0.677352726
5333200 0.294867217 -0.695592343
5357000 0.283719956 -0.712747812
5380900 0.271935969 -0.729032158
5404709 0.258975416 -0.743780851
5428509 0.24566932 -0.757528841
5452309 0.231603011 -0.770607709
5476109 0.216959029 -0.782632291
5499909 0.201977863 -0.793209969
5523709 0.186526596 -0.80339092
5547509 0.170974835 -0.81203407
5571309 0.155678331 -0.820037722
5595109 0.139756977 -0.827171921
5618909 0.123755112 -0.833082079
5642709 0.10776259 -0.838523745
5666509 0.091732934 -0.843491733
5690409 0.076118804 -0.847218096
5714209 0.059993863 -0.850615501
5738009 0.044025115 -0.853003561
5761809 0.028484044 -0.855072438
5785609 0.012964742 -0.856548666
5809409 -0.002486429 -0.857350945
5833209 -0.017827324 -0.857441782
5857009 -0.032769136 -0.857236087
5880809 -0.047817107 -0.856338381
5904609 -0.062492545 -0.855213522
5928409 -0.077414572 -0.853638768
5952309 -0.091921284 -0.851523756
5976109 -0.106379814 -0.848724782
5999909 -0.120584875 -0.845920026
6023709 -0.134560927 -0.842839658
6047509 -0.148663625 -0.838855683
6071309 -0.162321627 -0.834501743
6095109 -0.175507098 -0.830272495
6118909 -0.188781619 -0.825308859
6142709 -0.202075213 -0.820248365
6166509 -0.215177133 -0.814869105
6190309 -0.227567777 -0.808839023
6214209 -0.240166172 -0.802682876
6238009 -0.25224176 -0.796687126
6261809 -0.26406911 -0.790033578
6285609 -0.27575019 -0.783551096
6309409 -0.287151783 -0.776407897
6333209 -0.298141717 -0.769347131
6357009 -0.30895406 -0.761887311
6380809 -0.3198255 -0.754348754
6404609 -0.330206841 -0.746166706
6428409 -0.340337336 -0.737670838
6452209 -0.350556999 -0.72898823
6476109 -0.360752046 -0.719498336
6499909 -0.370605796 -0.710086941
6523709 -0.380198627 -0.700222909
6547509 -0.389737367 -0.689734876
6571309 -0.398879766 -0.678529024
6595109 -0.407809168 -0.667331933
6618909 -0.416644454 -0.655584275
6642709 -0.424562454 -0.643563091
6666509 -0.432458639 -0.631333231
6690309 -0.439602643 -0.61873722
6714109 -0.44675076 -0.606092751
6738009 -0.453286051 -0.593248188
6761809 -0.459207832 -0.580354154
6785609 -0.465143769 -0.566865384
6809409 -0.470247864 -0.553302705
6833209 -0.475222915 -0.539880692
6857009 -0.479628324 -0.525794804
6880809 -0.483719646 -0.511888861
6904609 -0.487009286 -0.497917264
6928409 -0.49000743 -0.483553379
6952209 -0.492545723 -0.469384908
6976009 -0.49437806 -0.454704463
6999909 -0.495711177 -0.440217673
7023709 -0.496453642 -0.425826519
7047509 -0.496811836 -0.411048173
7071309 -0.496429324 -0.396616786
7095109 -0.495928883 -0.382444053
7118909 -0.494576096 -0.368257313
7142709 -0.493026822 -0.353686988
7166509 -0.490575611 -0.339514225
7190309 -0.487491905 -0.325498163
7214109 -0.484113067 -0.311047077
7237909 -0.480021923 -0.297237038
7261809 -0.475306451 -0.283671468
7285609 -0.470344692 -0.27027893
7309409 -0.464580982 -0.256988435
7333209 -0.458084702 -0.243902921
7357009 -0.451325058 -0.231492891
7380809 -0.444407582 -0.219313934
7404609 -0.436784982 -0.207754299
7428409 -0.428754329 -0.196225032
7452209 -0.420222818 -0.185059309
7476009 -0.411319911 -0.174043416
7499809 -0.40192458 -0.163627862
7523709 -0.392027646 -0.154003277
7547509 -0.382116407 -0.144386962
7571309 -0.371538132 -0.13540703
7595109 -0.360580533 -0.127129882
7618909 -0.349384486 -0.11928147
7642709 -0.337965995 -0.111996106
7666509 -0.326527684 -0.105416975
7690309 -0.314861297 -0.099248863
7714109 -0.302942365 -0.093219257
7737909 -0.290856897 -0.088101938
7761709 -0.27853918 -0.083166375
7785609 -0.265828132 -0.079189136
7809418 -0.253364711 -0.075463369
7833218 -0.240669801 -0.072397962
7857018 -0.227692991 -0.069957725
7880818 -0.214899241 -0.067587472
7904618 -0.201729685 -0.066360488
7928418 -0.188715219 -0.065731219
7952218 -0.175405323 -0.065575242
7976018 -0.16223745 -0.066219568
7999818 -0.149231165 -0.067534446
8023618 -0.136366218 -0.069160178
8047418 -0.123426571 -0.071786582
8071218 -0.110356032 -0.074911892
8095118 -0.09801235 -0.07897076
8118918 -0.085984729 -0.083874493
8142718 -0.074467323 -0.089314021
8166518 -0.063020989 -0.095032945
8190318 -0.051633369 -0.101590096
8214118 -0.041618183 -0.108428552
8237918 -0.031653981 -0.116210781
8261718 -0.022174708 -0.123967401
8285518 -0.01322979 -0.132302194
8309318 -0.004895163 -0.14102301
8333118 0.003061469 -0.149442747
8357018 0.010247349 -0.158783435
8380818 0.017026083 -0.16804257
8404618 0.023243397 -0.177663475
8428418 0.029392469 -0.187476128
8452218 0.034570965 -0.197463676
8476018 0.039366576 -0.207632392
8499818 0.043712038 -0.217924684
8523618 0.047353837 -0.22841987
8547418 0.050336878 -0.238934472
8571218 0.052717406 -0.249295115
8595018 0.054872456 -0.259844303
8618918 0.056379869 -0.270459741
8642718 0.05709112 -0.280817359
8666518 0.057513535 -0.291281014
8690318 0.057615246 -0.301563769
8714118 0.057149574 -0.311588913
8737918 0.056290999 -0.321695655
8761718 0.054905813 -0.331272304
8785518 0.053235899 -0.340687215
8809318 0.050962597 -0.349673479
8833118 0.048937659 -0.359038174
8856918 0.046081483 -0.367945104
8880818 0.042996123 -0.376293361
8904618 0.039850831 -0.384622484
8928418 0.036033593 -0.392779082
8952218 0.032231856 -0.400727152
8976018 0.028143391 -0.408360749
8999818 0.024257987 -0.415551513
9023618 0.019916528 -0.423008143
9047418 0.015343112 -0.429716676
9071218 0.010663154 -0.436145037
9095018 0.005639452 -0.443087607
9118818 0.00077171 -0.449250102
9142718 -0.004214698 -0.455530077
9166518 -0.009969457 -0.461714029
9190318 -0.015004566 -0.467073053
9214118 -0.020419903 -0.472692161
9237918 -0.026466496 -0.478058427
9261718 -0.032094143 -0.483474999
9285518 -0.037496328 -0.488362967
9309318 -0.043525047 -0.493041008
9333118 -0.049821022 -0.497558504
9356918 -0.055760551 -0.501680314
9380718 -0.061753224 -0.505795955
9404618 -0.067908272 -0.510286748
9428418 -0.074194021 -0.51425594
9452218 -0.08063665 -0.517918169
9476018 -0.086988352 -0.521574139
9499818 -0.093623816 -0.524604856
9523618 -0.100511617 -0.527739524
9547418 -0.106967121 -0.530796229
9571218 -0.113521449 -0.533655107
9595018 -0.119907632 -0.535948336
9618818 -0.126760587 -0.53827691
9642618 -0.133490607 -0.540551126
9666518 -0.14003691 -0.542498707
9690318 -0.146896749 -0.544205546
9714118 -0.153095707 -0.545777618
9737918 -0.159819483 -0.547182738
9761718 -0.166216462 -0.548694849
9785518 -0.172791421 -0.55028361
9809318 -0.179315835 -0.551614582
9833118 -0.185524031 -0.552487432
9856918 -0.191981688 -0.553661227
9880718 -0.198519557 -0.554469108
9904518 -0.204825758 -0.555423736
9928418 -0.211443752 -0.556337296
9952218 -0.217760905 -0.556946873
9976018 -0.224677219 -0.557189762
9999818 -0.231175765 -0.557841002
10023618 -0.237832367 -0.557989776
10047418 -0.244489639 -0.557796359
10071218 -0.250644594 -0.557877182
10095018 -0.257123172 -0.557552993
10118818 -0.263515591 -0.557139694
10142618 -0.26977232 -0.55681914
10166418 -0.275856614 -0.556165993
10190318 -0.281992554 -0.556078135
10214127 -0.288126498 -0.555419027
10237927 -0.294597744 -0.554360985
10261727 -0.30028814 -0.554068863
10285527 -0.306505769 -0.553149342
10309327 -0.312912642 -0.552387416
10333127 -0.31918317 -0.551547706
10356927 -0.325422316 -0.55032587
10380727 -0.331446498 -0.549253225
10404527 -0.337674081 -0.54787898
10428327 -0.343637377 -0.546729862
10452127 -0.349991679 -0.545256197
10475927 -0.355721175 -0.543757975
10499827 -0.362007975 -0.542017698
10523627 -0.368261337 -0.540301084
10547427 -0.374301761 -0.538207113
10571227 -0.380106538 -0.536576926
10595027 -0.385966211 -0.534399509
10618827 -0.391613602 -0.532193481
10642627 -0.397779852 -0.530050575
10666427 -0.403381943 -0.527903854
10690227 -0.408941119 -0.525515854
10714027 -0.414715439 -0.523316562
10737827 -0.420408904 -0.520586848
10761727 -0.426045864 -0.518187105
10785527 -0.431736558 -0.515404105
10809327 -0.436857163 -0.512502014
10833127 -0.442475378 -0.510015428
10856927 -0.447887808 -0.507188916
10880727 -0.453221887 -0.504153132
10904527 -0.458442807 -0.501385509
10928327 -0.463401794 -0.498353421
10952127 -0.468970328 -0.495434731
10975927 -0.474079668 -0.492343723
10999727 -0.479317396 -0.489269018
11023627 -0.484312117 -0.486120611
11047427 -0.489318251 -0.482834756
11071227 -0.494334727 -0.479664027
11095027 -0.499468445 -0.476504862
11118827 -0.504417836 -0.472956538
11142627 -0.509322345 -0.469370365
11166427 -0.514201223 -0.466063827
11190227 -0.519083142 -0.462507873
11214027 -0.524265289 -0.458998024
11237827 -0.528981149 -0.454967737
11261627 -0.533623576 -0.451557219
11285527 -0.538246452 -0.447548389
11309327 -0.54285711 -0.443744719
11333127 -0.547611117 -0.440125942
11356927 -0.552195489 -0.436017721
11380727 -0.557000398 -0.432108551
11404527 -0.561626434 -0.428019046
11428327 -0.566101729 -0.423905789
11452127 -0.570366621 -0.420057654
11475927 -0.575003504 -0.415836006
11499727 -0.579304397 -0.411489456
11523527 -0.583686411 -0.407463848
11547427 -0.588199734 -0.402926385
11571227 -0.592573881 -0.398361712
11595027 -0.597034931 -0.393839597
11618827 -0.601018607 -0.389489591
11642627 -0.605232834 -0.384804487
11666427 -0.609529256 -0.379866272
11690227 -0.613466918 -0.375282764
11714027 -0.617446899 -0.370534718
11737827 -0.621811151 -0.365347415
11761627 -0.625761568 -0.360401481
11785427 -0.629457414 -0.355676352
11809327 -0.633158206 -0.350831061
11833127 -0.637175023 -0.345586299
11856927 -0.640961647 -0.340741604
11880727 -0.644709229 -0.335241079
11904527 -0.648370325 -0.329937636
11928327 -0.652344703 -0.324851244
11952127 -0.655970871 -0.319595605
11975927 -0.659323751 -0.313863396
11999727 -0.66324985 -0.308402508
12023527 -0.666557431 -0.30266267
12047327 -0.669858455 -0.297001272
12071227 -0.673514306 -0.291246652
12095027 -0.676507115 -0.285243213
12118827 -0.68022716 -0.279418051
12142627 -0.683366537 -0.273380309
12166427 -0.686149835 -0.267233759
12190227 -0.689587295 -0.260724157
12214027 -0.69224137 -0.25478363
12237827 -0.695370256 -0.24784249
12261627 -0.698155462 -0.241573914
12285427 -0.701069056 -0.235118448
12309227 -0.703475236 -0.228154882
12333127 -0.705929934 -0.221713021
12356927 -0.708603203 -0.214917093
12380727 -0.710931897 -0.207982227
12404527 -0.713229477 -0.200886279
12428327 -0.715350329 -0.193750888
12452127 -0.717295289 -0.186859548
12475927 -0.719261169 -0.179373055
12499727 -0.721121907 -0.17155461
12523527 -0.72300136 -0.163949474
12547327 -0.724522233 -0.156478092
12571127 -0.725374698 -0.148815885
12595027 -0.727053523 -0.140520632
12618836 -0.728090465 -0.133014962
12642636 -0.728940963 -0.124372586
12666436 -0.729243874 -0.116187639
12690236 -0.72978872 -0.107826881
12714036 -0.729921758 -0.099165588
12737836 -0.729861378 -0.091006144
12761636 -0.729479432 -0.082000635
12785436 -0.728596091 -0.073576979
12809236 -0.727947354 -0.06466978
12833036 -0.72679615 -0.055610124
12856836 -0.725123524 -0.046852327
12880636 -0.723075687 -0.037819087
12904536 -0.720844686 -0.029163515
12928336 -0.71845597 -0.020490003
12952136 -0.715423583 -0.011605157
12975936 -0.711828768 -0.002343557
12999736 -0.707891821 0.006037856
13023536 -0.703844368 0.014785406
13047336 -0.698672711 0.023478718
13071136 -0.694022476 0.031734175
13094936 -0.688283026 0.039829649
13118736 -0.68200469 0.047554526
13142536 -0.675536572 0.055185079
13166436 -0.668768048 0.062586493
13190236 -0.661378979 0.069303438
13214036 -0.653438627 0.075591973
13237836 -0.645217716 0.081683643
13261636 -0.636708855 0.087045572
13285436 -0.627651035 0.09204071
13309236 -0.618296265 0.095993846
13333036 -0.608669996 0.099586643
13356836 -0.598879277 0.102467648
13380636 -0.588910758 0.104096613
13404436 -0.579048693 0.105458602
13428336 -0.568936765 0.106142371
13452136 -0.559155941 0.105574488
13475936 -0.54893893 0.104473546
13499736 -0.539589822 0.10230609
13523536 -0.529767751 0.099709376
13547336 -0.521004855 0.096019558
13571136 -0.512250542 0.091622211
13594936 -0.503738999 0.086691588
13618736 -0.496262371 0.080624714
13642536 -0.4892717 0.074170395
13666336 -0.48333168 0.066768646
13690236 -0.477884173 0.058752618
13714036 -0.472884386 0.050558991
13737836 -0.469371169 0.041866544
13761636 -0.466867566 0.03238957
13785436 -0.465219527 0.023160539
13809236 -0.464765727 0.013584311
13833036 -0.465183705 0.004210306
13856836 -0.466577559 -0.005019978
13880636 -0.469323605 -0.013779059
13904436 -0.472669869 -0.022754272
13928236 -0.477240353 -0.031109796
13952136 -0.482308328 -0.038773082
13975936 -0.488342761 -0.04584046
13999736 -0.494968444 -0.052342884
14023536 -0.50209701 -0.057949285
14047336 -0.509961247 -0.06310755
14071136 -0.518103122 -0.067366555
14094936 -0.526403427 -0.070954754
14118736 -0.535367608 -0.073721237
14142536 -0.544286668 -0.07582724
14166336 -0.552945494 -0.077309794
14190136 -0.561972916 -0.077640607
14214036 -0.571065902 -0.077981136
14237836 -0.579768896 -0.077206902
14261636 -0.588456749 -0.076103046
14285436 -0.596926689 -0.074148453
14309236 -0.605430364 -0.072164781
14333036 -0.613946318 -0.069400511
14356836 -0.621792435 -0.065953388
14380636 -0.629962563 -0.062726482
14404436 -0.637479424 -0.058686118
14428236 -0.644770622 -0.054593075
14452036 -0.651965618 -0.050136908
14475936 -0.659279465 -0.04506734
14499736 -0.66593039 -0.039738096
14523536 -0.672663867 -0.034262329
14547336 -0.678659617 -0.028451597
14571136 -0.68457216 -0.022414142
14594936 -0.69051373 -0.015920169
14618736 -0.69571501 -0.009569276
14642536 -0.701051175 -0.002748089
14666336 -0.705966591 0.004176146
14690136 -0.71044892 0.01116973
14713936 -0.714845597 0.018108842
14737836 -0.7188977 0.025893826
14761636 -0.722723722 0.03316541
14785436 -0.725936055 0.040638498
14809236 -0.729109764 0.048582393
14833036 -0.731705248 0.055740859
14856836 -0.734438836 0.063411228
14880636 -0.73621881 0.070922531
14904436 -0.738147497 0.07863
14928236 -0.740042686 0.086058057
14952036 -0.741823375 0.0936587
14975836 -0.742913246 0.101461783
14999736 -0.743987023 0.108705572
