# Hz S RI R 50
3000000 0.517154514 -0.776896953
3023800 0.508991301 -0.780331254
3047600 0.500762343 -0.783876597
3071400 0.492070615 -0.787315845
3095200 0.483685821 -0.790144205
3119000 0.474993586 -0.793003499
3142800 0.466202825 -0.795919179
3166600 0.457938194 -0.798280119
3190400 0.449219465 -0.800937831
3214200 0.440577566 -0.80305916
3238000 0.431741625 -0.805079579
3261800 0.423461616 -0.807087481
3285700 0.414701402 -0.809152245
3309500 0.406280815 -0.810724616
3333300 0.397654324 -0.812812328
3357100 0.389514207 -0.814568877
3380900 0.380820304 -0.816178858
3404700 0.371902227 -0.818266689
3428500 0.363086849 -0.819854259
3452300 0.354153126 -0.821815192
3476100 0.345199644 -0.823210954
3499900 0.335793495 -0.824594557
3523700 0.326842933 -0.826346039
3547600 0.317069113 -0.827412545
3571400 0.307220995 -0.828456401
3595200 0.297419995 -0.829580426
3619000 0.287633419 -0.830582618
3642800 0.277339756 -0.830572128
3666600 0.266932904 -0.831399381
3690400 0.256333917 -0.831735312
3714200 0.245672106 -0.831738948
3738000 0.234449386 -0.831588983
3761800 0.223376542 -0.831199407
3785600 0.212120503 -0.830207824
3809500 0.200630441 -0.828731596
3833300 0.188941553 -0.826850354
3857100 0.177173882 -0.825317561
3880900 0.165524497 -0.822783291
3904700 0.153385221 -0.820451259
3928500 0.141717523 -0.817173898
3952300 0.129224628 -0.813523232
3976100 0.116973936 -0.809366226
3999900 0.104384496 -0.805094301
4023700 0.091733939 -0.799950182
4047500 0.079326957 -0.793948769
4071400 0.066454537 -0.787885963
4095200 0.053967766 -0.780756056
4119000 0.041448757 -0.773138999
4142800 0.028797645 -0.764657497
4166600 0.016222123 -0.755350053
4190400 0.003647346 -0.745507419
4214200 -0.008559142 -0.734755635
4238000 -0.020732346 -0.722654283
4261800 -0.03227112 -0.709673881
4285600 -0.043485809 -0.695428371
4309400 -0.054346218 -0.680273592
4333300 -0.064321756 -0.66373074
4357100 -0.073418498 -0.645916163
4380900 -0.081736035 -0.627041161
4404700 -0.088237099 -0.607046723
4428500 -0.093558363 -0.585146903
4452300 -0.097257822 -0.562346816
4476100 -0.098740458 -0.538674175
4499900 -0.097434408 -0.513871133
4523700 -0.093449003 -0.488512814
4547500 -0.086407758 -0.463589131
4571300 -0.076497994 -0.438891321
4595200 -0.063262507 -0.415420979
4619000 -0.047589201 -0.393469154
4642800 -0.02864938 -0.373519152
4666600 -0.008495891 -0.356257855
4690400 0.01405292 -0.341398417
4714200 0.037340342 -0.329397797
4738000 0.061415862 -0.319965898
4761800 0.086324349 -0.313250035
4785600 0.111529752 -0.308299958
4809400 0.137469753 -0.306004226
4833200 0.163407191 -0.306618064
4857100 0.188709765 -0.309314787
4880900 0.214644506 -0.315348476
4904700 0.239188551 -0.323743343
4928500 0.263514935 -0.335128992
4952300 0.285779237 -0.349116355
4976100 0.307013064 -0.36496067
4999900 0.324876427 -0.383306622
5023700 0.341912299 -0.40282467
5047500 0.356431424 -0.423793613
5071300 0.368985652 -0.446142137
5095100 0.378842622 -0.469491839
5119000 0.386742621 -0.493860363
5142800 0.391966342 -0.517871618
5166600 0.394833356 -0.542583405
5190400 0.395311743 -0.56701821
5214200 0.393599927 -0.590795993
5238000 0.389614284 -0.614020586
5261800 0.383759409 -0.636517882
5285600 0.377334654 -0.657646358
5309400 0.368756294 -0.677959203
5333200 0.358831763 -0.697423517
5357000 0.347342669 -0.715350449
5380900 0.335817545 -0.732158482
5404709 0.323026001 -0.747825682
5428509 0.309368818 -0.762350976
5452309 0.295485377 -0.775856316
5476109 0.281204938 -0.787881255
5499909 0.266942918 -0.799528062
5523709 0.252213954 -0.80986315
5547509 0.237426429 -0.819113552
5571309 0.222469329 -0.827820122
5595109 0.207152396 -0.836143612
5618909 0.192134186 -0.843549728
5642709 0.177161067 -0.849738776
5666509 0.16146931 -0.855437576
5690409 0.145846903 -0.860698938
5714209 0.130912169 -0.86559391
5738009 0.11526601 -0.869497954
5761809 0.099500857 -0.872649848
5785609 0.084439098 -0.87530595
5809409 0.069085046 -0.877533137
5833209 0.053731326 -0.879392564
5857009 0.038449142 -0.880250394
5880809 0.023502368 -0.880870103
5904609 0.008791802 -0.880746722
5928409 -0.006215973 -0.880656301
5952309 -0.021003991 -0.87982881
5976109 -0.035561006 -0.878635585
5999909 -0.049769248 -0.876881241
6023709 -0.064238749 -0.875315904
6047509 -0.078631401 -0.872751712
6071309 -0.092386037 -0.869649648
6095109 -0.106229893 -0.866683244
6118909 -0.120315775 -0.863396704
6142709 -0.133947551 -0.860197246
6166509 -0.147146761 -0.856188416
6190309 -0.160797178 -0.852001428
6214209 -0.174119785 -0.847542107
6238009 -0.187073498 -0.842686712
6261809 -0.199587821 -0.837523341
6285609 -0.212829038 -0.832441508
6309409 -0.225111871 -0.826891362
6333209 -0.237080588 -0.820648372
6357009 -0.249590724 -0.814303219
6380809 -0.261586815 -0.80783832
6404609 -0.273470103 -0.800601899
6428409 -0.285619676 -0.792676985
6452209 -0.297222137 -0.784613013
6476109 -0.309086441 -0.775632739
6499909 -0.320158451 -0.766370534
6523709 -0.331473767 -0.756472885
6547509 -0.342482626 -0.746022403
6571309 -0.353303164 -0.735850214
6595109 -0.363648802 -0.72425127
6618909 -0.373622387 -0.712495744
6642709 -0.383385121 -0.700882911
6666509 -0.392151355 -0.688296198
6690309 -0.400978565 -0.675658881
6714109 -0.409265816 -0.662852585
6738009 -0.417062163 -0.649432301
6761809 -0.424240767 -0.636410295
6785609 -0.430955708 -0.622699022
6809409 -0.437503367 -0.608822584
6833209 -0.443321943 -0.594864845
6857009 -0.448783934 -0.580621004
6880809 -0.453583061 -0.566604435
6904609 -0.458176046 -0.552167117
6928409 -0.461690336 -0.537967562
6952209 -0.465080887 -0.523257493
6976009 -0.467671275 -0.508497357
6999909 -0.470095694 -0.493760973
7023709 -0.471706598 -0.478929132
7047509 -0.473204165 -0.464172214
7071309 -0.47356081 -0.449341207
7095109 -0.47406578 -0.434430986
7118909 -0.473366349 -0.419291198
7142709 -0.472340404 -0.404843807
7166509 -0.470755457 -0.389298588
7190309 -0.468533366 -0.375012129
7214109 -0.465707451 -0.360597968
7237909 -0.462190806 -0.345972597
7261809 -0.458162695 -0.331720769
7285609 -0.453629463 -0.31791076
7309409 -0.447881877 -0.304151475
7333209 -0.441977202 -0.290966629
7357009 -0.435914307 -0.278287172
7380809 -0.429347962 -0.26587978
7404609 -0.42219302 -0.253934711
7428409 -0.414616018 -0.242580592
7452209 -0.406743288 -0.231090247
7476009 -0.39911893 -0.220199838
7499809 -0.3906942 -0.209520325
7523709 -0.382282614 -0.199216961
7547509 -0.373275667 -0.189064279
7571309 -0.363798141 -0.179480761
7595109 -0.354254037 -0.170154437
7618909 -0.343934804 -0.160855412
7642709 -0.333762675 -0.152425184
7666509 -0.322246938 -0.144209444
7690309 -0.310641318 -0.136582881
7714109 -0.299294143 -0.129630029
7737909 -0.287331223 -0.123046435
7761709 -0.274864464 -0.11714743
7785609 -0.262787878 -0.112102955
7809418 -0.249916791 -0.107848875
7833218 -0.237413272 -0.10352654
7857018 -0.224993541 -0.099787011
7880818 -0.211918503 -0.097114495
7904618 -0.199127584 -0.094321846
7928418 -0.185921713 -0.092225611
7952218 -0.172717124 -0.091197386
7976018 -0.158957913 -0.090294435
7999818 -0.145732253 -0.090378507
8023618 -0.132016137 -0.091205328
8047418 -0.119024977 -0.093120835
8071218 -0.105552703 -0.095448128
8095118 -0.092965304 -0.098933368
8118918 -0.080354884 -0.102560132
8142718 -0.068619288 -0.107218466
8166518 -0.056372892 -0.112382657
8190318 -0.045345824 -0.11755982
8214118 -0.033890936 -0.123541355
8237918 -0.023282697 -0.130674555
8261718 -0.013172999 -0.137505441
8285518 -0.003216477 -0.14500232
8309318 0.005823026 -0.153214484
8333118 0.014695089 -0.161457195
8357018 0.022945398 -0.170212939
8380818 0.030431874 -0.179184868
8404618 0.037389822 -0.188125595
8428418 0.044090904 -0.197732269
8452218 0.050208274 -0.207371398
8476018 0.055570121 -0.217091336
8499818 0.06076822 -0.227289423
8523618 0.06543792 -0.23727335
8547418 0.069475047 -0.247493952
8571218 0.073002375 -0.257966816
8595018 0.076024234 -0.268358767
8618918 0.078420214 -0.278957426
8642718 0.080773845 -0.289360195
8666518 0.081702075 -0.300191223
8690318 0.082743071 -0.310522109
8714118 0.0827986 -0.320813864
8737918 0.082682318 -0.330917745
8761718 0.082084946 -0.341270297
8785518 0.081169404 -0.350924223
8809318 0.079445667 -0.360160231
8833118 0.077591441 -0.369535744
8856918 0.0754188 -0.378629535
8880818 0.072984069 -0.388014018
8904618 0.07020238 -0.396480023
8928418 0.066971652 -0.405235409
8952218 0.063559152 -0.413455903
8976018 0.060189947 -0.421119779
8999818 0.056756861 -0.428890019
9023618 0.05264151 -0.436511307
9047418 0.048396188 -0.4436374
9071218 0.044025793 -0.451071798
9095018 0.039263017 -0.457846075
9118818 0.034848671 -0.464791238
9142718 0.030004413 -0.471378564
9166518 0.024933233 -0.477326661
9190318 0.019756302 -0.483509093
9214118 0.014670365 -0.48901683
9237918 0.008963461 -0.49494934
9261718 0.003576894 -0.500182688
9285518 -0.002083888 -0.505383014
9309318 -0.007776188 -0.510270774
9333118 -0.013570511 -0.514946579
9356918 -0.019314622 -0.519737005
9380718 -0.025090346 -0.524232625
9404618 -0.031212458 -0.528483867
9428418 -0.037330046 -0.532446205
9452218 -0.04345341 -0.536355912
9476018 -0.049639575 -0.539747595
9499818 -0.055515907 -0.543342709
9523618 -0.061923958 -0.546339988
9547418 -0.068283721 -0.549417495
9571218 -0.074281178 -0.552073776
9595018 -0.080169096 -0.554979979
9618818 -0.086294896 -0.557209432
9642618 -0.092336684 -0.559896767
9666518 -0.098182179 -0.562573134
9690318 -0.104112535 -0.56464076
9714118 -0.110119752 -0.566623806
9737918 -0.115445636 -0.568936169
9761718 -0.121976912 -0.570914924
9785518 -0.127342253 -0.572748839
9809318 -0.133474767 -0.574786245
9833118 -0.139292374 -0.576576769
9856918 -0.145606324 -0.578597605
9880718 -0.151760011 -0.58022952
9904518 -0.15754047 -0.581820607
9928418 -0.163945227 -0.583873271
9952218 -0.169857949 -0.585180342
9976018 -0.176390707 -0.586512029
9999818 -0.182779207 -0.588050723
10023618 -0.189397156 -0.58917135
10047418 -0.195777878 -0.590077996
10071218 -0.202387541 -0.590984463
10095018 -0.208660781 -0.59154272
10118818 -0.215613663 -0.592319488
10142618 -0.222272679 -0.592567622
10166418 -0.228630498 -0.593180358
10190318 -0.235743492 -0.592949807
10214127 -0.241943329 -0.592877268
10237927 -0.248723104 -0.592727661
10261727 -0.254979908 -0.592224955
10285527 -0.261374503 -0.592023789
10309327 -0.267806261 -0.591487944
10333127 -0.274297475 -0.590740859
10356927 -0.280434191 -0.58971554
10380727 -0.286676198 -0.589020729
10404527 -0.292520672 -0.587753653
10428327 -0.298754215 -0.58665359
10452127 -0.304680585 -0.58572942
10475927 -0.310635238 -0.584432065
10499827 -0.316332191 -0.583302438
10523627 -0.322007387 -0.58216995
10547427 -0.327942907 -0.581137537
10571227 -0.333568125 -0.579722523
10595027 -0.339395821 -0.578157186
10618827 -0.34501934 -0.577069938
10642627 -0.350789606 -0.575276076
10666427 -0.356456428 -0.574191153
10690227 -0.362556844 -0.572636783
10714027 -0.368057698 -0.570855081
10737827 -0.373628914 -0.569286942
10761727 -0.379515141 -0.567473232
10785527 -0.38495174 -0.565593361
10809327 -0.390890568 -0.563960611
10833127 -0.396109998 -0.562065064
10856927 -0.402045786 -0.559958696
10880727 -0.407915115 -0.55805695
10904527 -0.41337341 -0.556238949
10928327 -0.419220834 -0.553840339
10952127 -0.424728214 -0.551591873
10975927 -0.430363923 -0.54908055
10999727 -0.435911744 -0.546538531
11023627 -0.441325902 -0.544232964
11047427 -0.447318136 -0.541587054
11071227 -0.452494144 -0.539026558
11095027 -0.458026766 -0.536288917
11118827 -0.463720858 -0.533580541
11142627 -0.468673914 -0.530505299
11166427 -0.473875403 -0.527817368
11190227 -0.47952032 -0.524730801
11214027 -0.484690934 -0.522195339
11237827 -0.489952534 -0.518956005
11261627 -0.495131313 -0.516090035
11285527 -0.500662386 -0.51293075
11309327 -0.505643665 -0.50991249
11333127 -0.511330842 -0.506439626
11356927 -0.516187787 -0.503024816
11380727 -0.521372139 -0.500066459
11404527 -0.526716411 -0.496381819
11428327 -0.53212589 -0.493103653
11452127 -0.537257492 -0.489423602
11475927 -0.542650341 -0.485695004
11499727 -0.547907948 -0.482046455
11523527 -0.552862465 -0.47817406
11547427 -0.557730078 -0.474308252
11571227 -0.563013195 -0.470055669
11595027 -0.568046331 -0.466111272
11618827 -0.573036372 -0.461657732
11642627 -0.578037083 -0.457665622
11666427 -0.582739412 -0.453691512
11690227 -0.58781898 -0.449050426
11714027 -0.592640638 -0.444417536
11737827 -0.597079396 -0.44045335
11761627 -0.602115273 -0.435693711
11785427 -0.607013285 -0.430886417
11809327 -0.611699819 -0.425994694
11833127 -0.616323053 -0.421571433
11856927 -0.62103182 -0.416776299
11880727 -0.625658273 -0.411826372
11904527 -0.63023144 -0.406789511
11928327 -0.634907722 -0.401511967
11952127 -0.639404177 -0.396324634
11975927 -0.643625617 -0.390800416
11999727 -0.648012995 -0.38607192
12023527 -0.652540504 -0.380237996
12047327 -0.6569736 -0.374364256
12071227 -0.660988986 -0.368974268
12095027 -0.665222823 -0.363091319
12118827 -0.669467926 -0.357376426
12142627 -0.673636615 -0.351190835
12166427 -0.677729606 -0.345089018
12190227 -0.681800782 -0.338982164
12214027 -0.685687482 -0.332683235
12237827 -0.689307928 -0.32611975
12261627 -0.69294846 -0.319595634
12285427 -0.696790277 -0.31298995
12309227 -0.700282573 -0.306310087
12333127 -0.703822731 -0.299604654
12356927 -0.707363605 -0.292952537
12380727 -0.710464537 -0.285525918
12404527 -0.713754355 -0.278141617
12428327 -0.716882228 -0.271319419
12452127 -0.719998121 -0.26364243
12475927 -0.722620487 -0.256262689
12499727 -0.725378692 -0.248532518
12523527 -0.728358268 -0.240669414
12547327 -0.730976343 -0.23272185
12571127 -0.733106553 -0.224389553
12595027 -0.735338807 -0.216221883
12618836 -0.73742485 -0.207879096
12642636 -0.739153683 -0.199000224
12666436 -0.741384148 -0.190356329
12690236 -0.742638766 -0.181122735
12714036 -0.743582248 -0.172187253
12737836 -0.744477212 -0.163246259
12761636 -0.745140314 -0.153831452
12785436 -0.745282828 -0.144131839
12809236 -0.745326757 -0.134707719
12833036 -0.745527565 -0.124442785
12856836 -0.744890213 -0.115212731
12880636 -0.743627965 -0.104820922
12904536 -0.742286682 -0.095267869
12928336 -0.740630805 -0.084703609
12952136 -0.738303899 -0.075049601
12975936 -0.735676825 -0.064713194
12999736 -0.732456684 -0.054437913
13023536 -0.728682458 -0.044670466
13047336 -0.724862098 -0.034598812
13071136 -0.719931781 -0.024610806
13094936 -0.714999139 -0.015027743
13118736 -0.709016203 -0.005378075
13142536 -0.702949821 0.004007177
13166436 -0.695553839 0.013092407
13190236 -0.687708854 0.021454906
13214036 -0.679910302 0.030301557
13237836 -0.670871198 0.037468135
13261636 -0.661535978 0.044958617
13285436 -0.651713609 0.051609031
13309236 -0.641455471 0.057671017
13333036 -0.630964159 0.063142657
13356836 -0.619240701 0.067515306
13380636 -0.607992053 0.070747509
13404436 -0.595744192 0.073669411
13428336 -0.583582699 0.07502155
13452136 -0.571823298 0.075436465
13475936 -0.559511661 0.074868641
13499736 -0.547778248 0.073188334
13523536 -0.53583002 0.070422187
13547336 -0.524809002 0.066466234
13571136 -0.51367551 0.061750661
13594936 -0.503407955 0.055697035
13618736 -0.493555456 0.048878148
13642536 -0.485044211 0.040844615
13666336 -0.476713836 0.032642301
13690236 -0.470359385 0.023283783
13714036 -0.464235991 0.013542369
13737836 -0.459781527 0.003331696
13761636 -0.456216275 -0.007519
13785436 -0.453819215 -0.018524503
13809236 -0.452740579 -0.029511271
13833036 -0.452405035 -0.041087601
13856836 -0.453787088 -0.052165519
13880636 -0.456159234 -0.062781132
13904436 -0.460246086 -0.072672083
13928236 -0.464784204 -0.082542665
13952136 -0.469949424 -0.091889999
13975936 -0.476060092 -0.100190274
13999736 -0.483484536 -0.107907727
14023536 -0.491173595 -0.115108951
14047336 -0.49953109 -0.121239125
14071136 -0.507863998 -0.127045378
14094936 -0.516787528 -0.130989
14118736 -0.526548087 -0.135366991
14142536 -0.535869896 -0.138056159
14166336 -0.545600354 -0.140104115
14190136 -0.554601192 -0.141719758
14214036 -0.564414203 -0.142483681
14237836 -0.574382841 -0.142857164
14261636 -0.583698809 -0.142534345
14285436 -0.593187808 -0.141640558
14309236 -0.602288961 -0.139944642
14333036 -0.61130613 -0.137937232
14356836 -0.619959294 -0.135529369
14380636 -0.628936648 -0.132874846
14404436 -0.637291371 -0.129530981
14428236 -0.645683825 -0.125946283
14452036 -0.653913915 -0.121828936
14475936 -0.661804258 -0.117078728
14499736 -0.669607162 -0.112871244
14523536 -0.676920235 -0.107261396
14547336 -0.683966517 -0.102384142
14571136 -0.691141605 -0.096899338
14594936 -0.697992146 -0.090693332
14618736 -0.704443693 -0.084379769
14642536 -0.710707008 -0.078261695
14666336 -0.716741979 -0.071492865
14690136 -0.7225461 -0.064702086
14713936 -0.727750301 -0.057404503
14737836 -0.732874989 -0.050226856
14761636 -0.737452745 -0.042500399
14785436 -0.742048203 -0.034977659
14809236 -0.746033668 -0.0277194
14833036 -0.75027883 -0.020109305
14856836 -0.753230214 -0.012236533
14880636 -0.756755888 -0.00407075
14904436 -0.759983062 0.003434363
14928236 -0.76242727 0.011112659
14952036 -0.764539778 0.019013812
14975836 -0.767497241 0.026667304
14999736 -0.769201159 0.034493833
