# Hz S RI R 50
3000000 0.537751436 -0.71971172
3023800 0.53061372 -0.723061382
3047600 0.522610366 -0.724103629
3071400 0.516539752 -0.728618383
3095200 0.508881211 -0.731552243
3119000 0.501496672 -0.734806835
3142800 0.49440962 -0.737994253
3166600 0.486903697 -0.74048537
3190400 0.479436486 -0.743554353
3214200 0.471877515 -0.746316552
3238000 0.463964432 -0.74890989
3261800 0.456716507 -0.75151813
3285700 0.448583811 -0.753624379
3309500 0.440717309 -0.756128847
3333300 0.432939499 -0.758209586
3357100 0.424833536 -0.760162234
3380900 0.416899979 -0.762094438
3404700 0.4086456 -0.763892889
3428500 0.400428533 -0.764997601
3452300 0.392251968 -0.76620382
3476100 0.383840411 -0.767441809
3499900 0.375934422 -0.768491446
3523700 0.36761716 -0.769210338
3547600 0.359551995 -0.769832253
3571400 0.351541668 -0.770486056
3595200 0.343301981 -0.77093625
3619000 0.335438609 -0.771584451
3642800 0.327216446 -0.77189511
3666600 0.319228112 -0.772165358
3690400 0.310932397 -0.772426605
3714200 0.302843451 -0.772377073
3738000 0.294536888 -0.772164523
3761800 0.286442458 -0.77192384
3785600 0.277967572 -0.771519839
3809500 0.269668489 -0.771354913
3833300 0.261440545 -0.770807743
3857100 0.25254932 -0.770274698
3880900 0.243872448 -0.769411504
3904700 0.235122263 -0.768185436
3928500 0.226147666 -0.76653558
3952300 0.217372268 -0.765010654
3976100 0.209026038 -0.763046383
3999900 0.200273275 -0.760873258
4023700 0.191371589 -0.758592545
4047500 0.183094248 -0.756064772
4071400 0.174227774 -0.753324627
4095200 0.16569513 -0.750756263
4119000 0.157231241 -0.747540831
4142800 0.1487917 -0.744229316
4166600 0.140096098 -0.740939378
4190400 0.131697446 -0.737418889
4214200 0.122982122 -0.733851552
4238000 0.113992042 -0.729871034
4261800 0.104707881 -0.725592017
4285600 0.095503248 -0.720527231
4309400 0.08634454 -0.715069353
4333300 0.077126033 -0.708556056
4357100 0.068128764 -0.701470196
4380900 0.059817746 -0.693884432
4404700 0.05168778 -0.685469925
4428500 0.044357962 -0.676889061
4452300 0.037926517 -0.667653203
4476100 0.032256208 -0.658161342
4499900 0.027228102 -0.648920714
4523700 0.022883905 -0.639907002
4547500 0.018830113 -0.630898296
4571300 0.015066796 -0.622050762
4595200 0.011564996 -0.613280117
4619000 0.008452231 -0.604567945
4642800 0.005500774 -0.595701754
4666600 0.002549004 -0.58697772
4690400 -0.000138105 -0.578061819
4714200 -0.002370747 -0.56887114
4738000 -0.004484731 -0.559501588
4761800 -0.006267822 -0.550113976
4785600 -0.007726388 -0.540308713
4809400 -0.008881921 -0.530289471
4833200 -0.009760259 -0.519793987
4857100 -0.009817278 -0.509146273
4880900 -0.009430621 -0.497921884
4904700 -0.008053362 -0.486911892
4928500 -0.005966998 -0.475312083
4952300 -0.003229331 -0.463677167
4976100 0.000530787 -0.452136069
4999900 0.005157297 -0.440204203
5023700 0.010767301 -0.427987068
5047500 0.017934724 -0.415702015
5071300 0.026887573 -0.404063373
5095100 0.037206433 -0.392715185
5119000 0.049237743 -0.382507026
5142800 0.062596336 -0.373180359
5166600 0.077618353 -0.365584075
5190400 0.093901395 -0.35936883
5214200 0.111053109 -0.35547772
5238000 0.129179418 -0.353680551
5261800 0.147459119 -0.354471534
5285600 0.165539681 -0.35819897
5309400 0.182850986 -0.364308655
5333200 0.198474436 -0.372600048
5357000 0.212326899 -0.382611304
5380900 0.224272742 -0.393615216
5404709 0.234566658 -0.404787242
5428509 0.243534013 -0.415982514
5452309 0.25147286 -0.427316665
5476109 0.258910238 -0.438948065
5499909 0.265921384 -0.450785696
5523709 0.272230714 -0.463350534
5547509 0.278142988 -0.476306229
5571309 0.283136606 -0.490260094
5595109 0.287181973 -0.50477159
5618909 0.290056139 -0.520127475
5642709 0.291742265 -0.536267936
5666509 0.291535556 -0.55255115
5690409 0.289993107 -0.569014787
5714209 0.286831617 -0.585458695
5738009 0.282013684 -0.60137242
5761809 0.27577269 -0.61659789
5785609 0.268257409 -0.630993187
5809409 0.259865313 -0.644649267
5833209 0.250496029 -0.657355904
5857009 0.240263924 -0.669060409
5880809 0.229815617 -0.679781556
5904609 0.218662679 -0.689566731
5928409 0.207305833 -0.698746502
5952309 0.195687472 -0.706759154
5976109 0.183885231 -0.714095413
5999909 0.171904817 -0.720858633
6023709 0.16011092 -0.727168917
6047509 0.14790368 -0.732471287
6071309 0.13577789 -0.737688183
6095109 0.123735882 -0.742114961
6118909 0.111291751 -0.746430218
6142709 0.099115476 -0.749852776
6166509 0.086748398 -0.753207623
6190309 0.074238821 -0.755846977
6214209 0.061555784 -0.757924258
6238009 0.049222182 -0.759678959
6261809 0.036969229 -0.760721206
6285609 0.024785296 -0.761688888
6309409 0.0130333 -0.761917829
6333209 0.001362428 -0.761990785
6357009 -0.010257476 -0.762018918
6380809 -0.021867292 -0.761428117
6404609 -0.033565055 -0.760358333
6428409 -0.045185972 -0.758849143
6452209 -0.056959785 -0.756916224
6476109 -0.068891309 -0.754567801
6499909 -0.080733425 -0.7515769
6523709 -0.092387557 -0.748200476
6547509 -0.104220561 -0.744125843
6571309 -0.115861795 -0.739709913
6595109 -0.127356231 -0.734941363
6618909 -0.138487249 -0.72982192
6642709 -0.149510964 -0.723964869
6666509 -0.160120189 -0.718093872
6690309 -0.170642316 -0.711959064
6714109 -0.180984213 -0.705228328
6738009 -0.191187217 -0.698583245
6761809 -0.201027616 -0.69162327
6785609 -0.210958525 -0.684255301
6809409 -0.220570936 -0.676838517
6833209 -0.229976296 -0.668574273
6857009 -0.239383041 -0.660010874
6880809 -0.248162463 -0.651192069
6904609 -0.256961524 -0.641943812
6928409 -0.264934748 -0.632237672
6952209 -0.272541224 -0.622216343
6976009 -0.279946237 -0.612034499
6999909 -0.286936104 -0.601647615
7023709 -0.293229877 -0.590887784
7047509 -0.299257785 -0.579908788
7071309 -0.304565906 -0.568942368
7095109 -0.309836596 -0.557572424
7118909 -0.314404904 -0.546281278
7142709 -0.318474203 -0.534858942
7166509 -0.32243663 -0.52337718
7190309 -0.325704067 -0.511487126
7214109 -0.328564375 -0.499674618
7237909 -0.331158429 -0.487715989
7261809 -0.333033025 -0.475563526
7285609 -0.33438754 -0.463366687
7309409 -0.335223227 -0.450943201
7333209 -0.335676997 -0.438850879
7357009 -0.335188359 -0.426757454
7380809 -0.334326922 -0.414446771
7404609 -0.33265075 -0.402220159
7428409 -0.330216348 -0.390500098
7452209 -0.327371418 -0.378936827
7476009 -0.323850601 -0.368044674
7499809 -0.319936066 -0.357428789
7523709 -0.31558758 -0.347189694
7547509 -0.31109631 -0.337646633
7571309 -0.306214839 -0.328374832
7595109 -0.301036089 -0.319538027
7618909 -0.295862972 -0.311211794
7642709 -0.290510207 -0.303251236
7666509 -0.285096079 -0.295606702
7690309 -0.279416978 -0.288355141
7714109 -0.27378273 -0.281384229
7737909 -0.268223911 -0.274664789
7761709 -0.262637645 -0.268532335
7785609 -0.257093578 -0.262266784
7809418 -0.253150641 -0.255926102
7833218 -0.246256902 -0.250231355
7857018 -0.241038694 -0.244368597
7880818 -0.235460177 -0.238693237
7904618 -0.229271322 -0.232663661
7928418 -0.223213717 -0.226725503
7952218 -0.216936975 -0.221027567
7976018 -0.210120975 -0.215313121
7999818 -0.203343808 -0.209850594
8023618 -0.196051687 -0.204324871
8047418 -0.188392221 -0.199393466
8071218 -0.180376932 -0.19461283
8095118 -0.172120437 -0.19015567
8118918 -0.163759157 -0.185938268
8142718 -0.154674813 -0.182135447
8166518 -0.145630493 -0.17888537
8190318 -0.136555016 -0.17612116
8214118 -0.12721531 -0.173396393
8237918 -0.117723315 -0.171219706
8261718 -0.107853591 -0.169775992
8285518 -0.097599536 -0.168579086
8309318 -0.08779399 -0.168270483
8333118 -0.077324815 -0.168099179
8357018 -0.066923648 -0.168878152
8380818 -0.056437104 -0.169992849
8404618 -0.046724576 -0.171992763
8428418 -0.037058945 -0.174454182
8452218 -0.02711429 -0.176901966
8476018 -0.016987195 -0.180484682
8499818 -0.007400942 -0.184387698
8523618 0.001502155 -0.188759058
8547418 0.010808248 -0.193758085
8571218 0.018973121 -0.199188962
8595018 0.0274075 -0.205376237
8618918 0.03521987 -0.211657106
8642718 0.042546033 -0.218285501
8666518 0.049862954 -0.225138545
8690318 0.056800857 -0.232140958
8714118 0.063307397 -0.23963961
8737918 0.06974373 -0.247377514
8761718 0.075480572 -0.255964457
8785518 0.080707684 -0.264473438
8809318 0.085426442 -0.27354741
8833118 0.089783459 -0.282571136
8856918 0.093485005 -0.292046338
8880818 0.096903227 -0.301364123
8904618 0.100176744 -0.310869157
8928418 0.102460533 -0.320896387
8952218 0.103996329 -0.330721735
8976018 0.105453379 -0.340422928
8999818 0.106029018 -0.350674182
9023618 0.106778427 -0.360325992
9047418 0.106155499 -0.370203912
9071218 0.105177231 -0.379754453
9095018 0.10394933 -0.389560967
9118818 0.102635294 -0.398941993
9142718 0.100259058 -0.408307105
9166518 0.097691893 -0.417445421
9190318 0.094374954 -0.426456153
9214118 0.091000564 -0.435079872
9237918 0.087225548 -0.443268269
9261718 0.082910917 -0.451255023
9285518 0.078864015 -0.458928078
9309318 0.07447841 -0.466490685
9333118 0.069339655 -0.472935318
9356918 0.064319513 -0.480191975
9380718 0.05957292 -0.486791223
9404618 0.053827494 -0.492936998
9428418 0.048565831 -0.498633503
9452218 0.043005298 -0.504465699
9476018 0.037309661 -0.510135471
9499818 0.031940024 -0.514836966
9523618 0.025900222 -0.51945275
9547418 0.020376263 -0.5244053
9571218 0.014607123 -0.529004096
9595018 0.009027374 -0.533210754
9618818 0.003399359 -0.537894725
9642618 -0.002271689 -0.541580677
9666518 -0.00790808 -0.54581499
9690318 -0.01427088 -0.549405455
9714118 -0.019602254 -0.553751111
9737918 -0.025654617 -0.557009279
9761718 -0.031830076 -0.560793042
9785518 -0.037833027 -0.563991785
9809318 -0.043938346 -0.566923379
9833118 -0.050107523 -0.570226252
9856918 -0.056673854 -0.57354027
9880718 -0.062654294 -0.576313495
9904518 -0.069218553 -0.579254269
9928418 -0.075966387 -0.581814587
9952218 -0.082539089 -0.58413428
9976018 -0.089319974 -0.58661586
9999818 -0.096365667 -0.588287353
10023618 -0.103294856 -0.590400457
10047418 -0.110266134 -0.591804981
10071218 -0.117001995 -0.593366861
10095018 -0.123924322 -0.594470143
10118818 -0.1307334 -0.595726907
10142618 -0.13769555 -0.596362054
10166418 -0.144439518 -0.597333669
10190318 -0.150927901 -0.598032295
10214127 -0.157917335 -0.598207175
10237927 -0.164581045 -0.598401486
10261727 -0.171089529 -0.598777353
10285527 -0.178260281 -0.59874016
10309327 -0.184980869 -0.598581135
10333127 -0.191425129 -0.598450958
10356927 -0.198033064 -0.598062932
10380727 -0.204875349 -0.597310006
10404527 -0.211060151 -0.596438884
10428327 -0.217795461 -0.595709145
10452127 -0.223995551 -0.59500581
10475927 -0.230672195 -0.593808829
10499827 -0.236698731 -0.593049287
10523627 -0.243073284 -0.591620743
10547427 -0.248953014 -0.590580344
10571227 -0.254693239 -0.589003503
10595027 -0.260891228 -0.587746262
10618827 -0.267088711 -0.585864961
10642627 -0.27311635 -0.584365189
10666427 -0.278678357 -0.582565546
10690227 -0.284706473 -0.58074671
10714027 -0.290553808 -0.578777074
10737827 -0.296230971 -0.577063679
10761727 -0.301667541 -0.574722945
10785527 -0.307160586 -0.572662234
10809327 -0.312622845 -0.570886075
10833127 -0.317992091 -0.568406581
10856927 -0.323893755 -0.566178619
10880727 -0.32911244 -0.564117431
10904527 -0.33429268 -0.561346113
10928327 -0.339576482 -0.558954596
10952127 -0.345061689 -0.556291639
10975927 -0.350300252 -0.553853988
10999727 -0.355392932 -0.550971806
11023627 -0.360867708 -0.548292458
11047427 -0.365445792 -0.545271098
11071227 -0.370630025 -0.542570948
11095027 -0.375433653 -0.539490699
11118827 -0.380369246 -0.536396861
11142627 -0.385224521 -0.533145844
11166427 -0.389535009 -0.530470728
11190227 -0.394046038 -0.526943922
11214027 -0.398566931 -0.523904323
11237827 -0.403204768 -0.520797371
11261627 -0.40777859 -0.517360389
11285527 -0.411771744 -0.514012038
11309327 -0.41638267 -0.510336339
11333127 -0.421016931 -0.507615149
11356927 -0.425013333 -0.5043177
11380727 -0.428843498 -0.500631034
11404527 -0.433587282 -0.497166574
11428327 -0.437321782 -0.493612736
11452127 -0.441048115 -0.490209281
11475927 -0.445019185 -0.486216157
11499727 -0.448966473 -0.482880383
11523527 -0.452557682 -0.47913289
11547427 -0.456743389 -0.475356251
11571227 -0.460186332 -0.471742421
11595027 -0.464194655 -0.467905163
11618827 -0.467523008 -0.464064866
11642627 -0.471054643 -0.46024093
11666427 -0.474684685 -0.456376075
11690227 -0.477931648 -0.452645152
11714027 -0.481120824 -0.448469012
11737827 -0.484828144 -0.44474712
11761627 -0.487391144 -0.441078662
11785427 -0.491029024 -0.437502264
11809327 -0.494320183 -0.43351525
11833127 -0.497212499 -0.429422706
11856927 -0.500798642 -0.425885856
11880727 -0.503240287 -0.422363042
11904527 -0.506777286 -0.418600231
11928327 -0.509342133 -0.413926661
11952127 -0.51189053 -0.410111278
11975927 -0.515208363 -0.406161516
11999727 -0.517868041 -0.40247178
12023527 -0.520778954 -0.398146688
12047327 -0.52424103 -0.394266009
12071227 -0.526920199 -0.390083968
12095027 -0.528651416 -0.386012345
12118827 -0.531494021 -0.382086604
12142627 -0.53424704 -0.377604365
12166427 -0.536516368 -0.373305648
12190227 -0.538911163 -0.369195163
12214027 -0.541267096 -0.36526522
12237827 -0.543560445 -0.360828846
12261627 -0.546038985 -0.357187837
12285427 -0.548538565 -0.352599412
12309227 -0.550667762 -0.348223865
12333127 -0.552500426 -0.344337195
12356927 -0.554899454 -0.339924484
12380727 -0.557286083 -0.335912138
12404527 -0.559393882 -0.331538021
12428327 -0.561411857 -0.327446907
12452127 -0.563879609 -0.323125451
12475927 -0.56562519 -0.318666994
12499727 -0.567872822 -0.314250797
12523527 -0.569876313 -0.309605091
12547327 -0.571515321 -0.30508387
12571127 -0.573549032 -0.300596743
12595027 -0.575805902 -0.295873016
12618836 -0.577812373 -0.292175531
12642636 -0.579477548 -0.287630677
12666436 -0.581130504 -0.282281637
12690236 -0.582859635 -0.277613788
12714036 -0.58417803 -0.272609561
12737836 -0.585225462 -0.267841905
12761636 -0.586841881 -0.262411713
12785436 -0.587925255 -0.258039057
12809236 -0.588874459 -0.252842158
12833036 -0.589828431 -0.247993215
12856836 -0.59039396 -0.243019059
12880636 -0.591320574 -0.238158002
12904536 -0.591816008 -0.233521178
12928336 -0.592372834 -0.229246184
12952136 -0.592768013 -0.224681064
12975936 -0.592983484 -0.219360053
12999736 -0.593011915 -0.214477539
13023536 -0.592633247 -0.210071951
13047336 -0.593044459 -0.205060914
13071136 -0.592499732 -0.200461253
13094936 -0.592616379 -0.195964977
13118736 -0.591986835 -0.191230058
13142536 -0.591548621 -0.186937421
13166436 -0.59183973 -0.182280719
13190236 -0.591213464 -0.178155809
13214036 -0.590486943 -0.173749655
13237836 -0.58995068 -0.169384971
13261636 -0.5896371 -0.165176346
13285436 -0.588636219 -0.160638198
13309236 -0.587584853 -0.15661858
13333036 -0.587308943 -0.152769848
13356836 -0.585695266 -0.14858219
13380636 -0.584873378 -0.144119665
13404436 -0.583832263 -0.140634551
13428336 -0.582543194 -0.13651812
13452136 -0.581429362 -0.132747724
13475936 -0.580052614 -0.128796577
13499736 -0.578573405 -0.124856069
13523536 -0.576940953 -0.120923198
13547336 -0.575044572 -0.117678612
13571136 -0.573361456 -0.114045388
13594936 -0.57126373 -0.110322035
13618736 -0.569338858 -0.107133522
13642536 -0.567603409 -0.103998854
13666336 -0.564938008 -0.101127237
13690236 -0.562604367 -0.098112419
13714036 -0.560088634 -0.09536001
13737836 -0.557635545 -0.092914536
13761636 -0.555176198 -0.090064436
13785436 -0.552295982 -0.087728969
13809236 -0.549430727 -0.085638865
13833036 -0.546456575 -0.083803638
13856836 -0.543545305 -0.082351274
13880636 -0.54022926 -0.081333085
13904436 -0.537330985 -0.080422759
13928236 -0.533987641 -0.079862765
13952136 -0.530835092 -0.079877071
13975936 -0.528099417 -0.080252625
13999736 -0.525234878 -0.081006951
14023536 -0.522496283 -0.082155995
14047336 -0.520272374 -0.083415776
14071136 -0.518262863 -0.085085615
14094936 -0.516798794 -0.087684594
14118736 -0.515418291 -0.089979112
14142536 -0.514086425 -0.092386074
14166336 -0.513787865 -0.095063813
14190136 -0.51364088 -0.097841404
14214036 -0.514036774 -0.100800424
14237836 -0.515224277 -0.103109471
14261636 -0.516708076 -0.106460101
14285436 -0.518307089 -0.108986131
14309236 -0.520867109 -0.111500561
14333036 -0.523383021 -0.113790243
14356836 -0.526341617 -0.116022445
14380636 -0.529838442 -0.117567114
14404436 -0.533663094 -0.119302533
14428236 -0.537600159 -0.120463348
14452036 -0.541544914 -0.121140584
14475936 -0.54631859 -0.121664769
14499736 -0.551283001 -0.122080996
14523536 -0.555869638 -0.121606387
14547336 -0.560442209 -0.120785914
14571136 -0.565322518 -0.120205193
14594936 -0.570831775 -0.119127996
14618736 -0.575580894 -0.117863088
14642536 -0.580538272 -0.115768201
14666336 -0.585272014 -0.114115715
14690136 -0.589998126 -0.111476585
14713936 -0.59481728 -0.108974248
14737836 -0.599367439 -0.106100134
14761636 -0.604396879 -0.103232122
14785436 -0.608678579 -0.099753528
14809236 -0.613054096 -0.095926426
14833036 -0.617829084 -0.09298142
14856836 -0.621413052 -0.088651992
14880636 -0.625633358 -0.084680452
14904436 -0.629544198 -0.080529645
14928236 -0.633630394 -0.076095379
14952036 -0.636962771 -0.071562603
14975836 -0.640814602 -0.067105837
14999736 -0.643852293 -0.062279634
