# Hz S RI R 50
50000 0.999850392 -0.087073199
64800 0.987222492 -0.113763384
79600 0.983640015 -0.140194445
94400 0.976084709 -0.15985684
109200 0.976512968 -0.181771308
124000 0.97366482 -0.207427576
138800 0.969216525 -0.233121365
153700 0.962809264 -0.258791893
168500 0.955103576 -0.283503532
183300 0.946572482 -0.307830899
198100 0.935324847 -0.331246018
212900 0.924100518 -0.349432021
227700 0.919972956 -0.368302315
242600 0.91340357 -0.392995715
257400 0.903697848 -0.416887402
272200 0.892761886 -0.440020471
287000 0.880499303 -0.462011337
301800 0.867845475 -0.483340501
316600 0.853578686 -0.503737151
331500 0.837409436 -0.52023667
346300 0.831300675 -0.534545958
361100 0.820905983 -0.557380199
375900 0.807602465 -0.578738629
390700 0.792725622 -0.59865421
405500 0.777017474 -0.617345452
420400 0.760859847 -0.634772658
435200 0.744710624 -0.6515401
450000 0.727524757 -0.666291832
464800 0.714401841 -0.677952289
479600 0.702021002 -0.695353746
494400 0.686343133 -0.712287783
509200 0.669788539 -0.728038012
524100 0.652219116 -0.743209481
538900 0.634292244 -0.756746649
553700 0.617055177 -0.769097685
568500 0.599654614 -0.781192839
583300 0.582927227 -0.791088283
598100 0.568627715 -0.80331552
613000 0.551557362 -0.816608786
627800 0.533318102 -0.828280746
642600 0.515006303 -0.838831841
657400 0.496883183 -0.848254442
672200 0.479587107 -0.856719553
687000 0.46255365 -0.865627348
701900 0.445266395 -0.873671889
716700 0.429211527 -0.881997168
731500 0.412137985 -0.891544878
746300 0.393642961 -0.900109171
761100 0.374974727 -0.907254338
775900 0.356179088 -0.91283822
790800 0.33883959 -0.917995154
805600 0.322075039 -0.923515379
820400 0.304835945 -0.928704321
835200 0.288558095 -0.933237016
850000 0.272479593 -0.938919126
864800 0.255488038 -0.94428122
879600 0.237735778 -0.948960483
894500 0.21982941 -0.952711641
909300 0.202769845 -0.955619692
924100 0.186177134 -0.95878309
938900 0.169312477 -0.961299955
953700 0.152851253 -0.963246822
968500 0.136977761 -0.964877307
983400 0.120854154 -0.967191934
998200 0.10471788 -0.969269394
1013000 0.088854305 -0.970599472
1027800 0.072931163 -0.971789181
1042600 0.057226207 -0.972801685
1057400 0.041177824 -0.973492681
1072300 0.0252819 -0.973751127
1087100 0.010060736 -0.973392665
1101900 -0.004946149 -0.973068714
1116700 -0.019750097 -0.972991287
1131500 -0.034749403 -0.972311377
1146300 -0.049741748 -0.97158885
1161200 -0.064365655 -0.970713913
1176000 -0.079027645 -0.969446837
1190800 -0.093407087 -0.967894911
1205600 -0.107536844 -0.966071248
1220400 -0.121420234 -0.963941931
1235200 -0.135256841 -0.962253332
1250000 -0.148994401 -0.960017859
1264900 -0.162605792 -0.957666397
1279700 -0.176089242 -0.955211043
1294500 -0.189325049 -0.952518641
1309300 -0.202534943 -0.949632525
1324100 -0.215450808 -0.946514904
1338900 -0.227858483 -0.943244218
1353800 -0.240475043 -0.939820766
1368600 -0.252982944 -0.936656832
1383400 -0.265212565 -0.933176755
1398200 -0.277440339 -0.929440021
1413000 -0.289529561 -0.925558924
1427800 -0.301417917 -0.921660721
1442700 -0.312892168 -0.917371034
1457500 -0.32448548 -0.91331458
1472300 -0.335867613 -0.909066438
1487100 -0.346844613 -0.904820561
1501900 -0.358058899 -0.900509953
1516700 -0.368989437 -0.895919322
1531600 -0.379820346 -0.891122519
1546416 -0.390636593 -0.886414229
1561216 -0.401076197 -0.881389915
1576016 -0.411260962 -0.876131772
1590816 -0.421168118 -0.871242284
1605616 -0.431162297 -0.866381764
1620416 -0.440793246 -0.861415266
1635216 -0.450728118 -0.856147468
1650116 -0.460313558 -0.850917696
1664916 -0.469931781 -0.845537841
1679716 -0.47905454 -0.84006083
1694516 -0.488230347 -0.834630787
1709316 -0.49710077 -0.82890439
1724116 -0.506021499 -0.823713064
1739016 -0.514858901 -0.818095982
1753816 -0.523412346 -0.8124668
1768616 -0.531881213 -0.806969702
1783416 -0.540385305 -0.801085829
1798216 -0.548537135 -0.795298814
1813016 -0.556536316 -0.789253652
1827916 -0.564664542 -0.783408164
1842716 -0.572672426 -0.77752465
1857516 -0.580209434 -0.77164036
1872316 -0.58792603 -0.765634059
1887116 -0.595242202 -0.759639561
1901916 -0.602666616 -0.753684341
1916816 -0.609890222 -0.747432768
1931616 -0.616878926 -0.741381227
1946416 -0.623850464 -0.735259294
1961216 -0.630811333 -0.729375541
1976016 -0.637663006 -0.723053932
1990816 -0.644180357 -0.717249691
2005616 -0.650689959 -0.710837244
2020516 -0.657292485 -0.704787194
2035316 -0.663530468 -0.698535263
2050116 -0.669780671 -0.692504823
2064916 -0.675740242 -0.686345875
2079716 -0.681821346 -0.68004471
2094516 -0.687744498 -0.673984587
2109416 -0.693893134 -0.667745947
2124216 -0.699513018 -0.661618649
2139016 -0.705137789 -0.655540764
2153816 -0.710473179 -0.649419307
2168616 -0.71615827 -0.643158972
2183416 -0.721509754 -0.636930644
2198316 -0.726730108 -0.630684912
2213116 -0.732061982 -0.62438023
2227916 -0.737092375 -0.618438243
2242716 -0.742115497 -0.612133681
2257516 -0.746997892 -0.605660676
2272316 -0.751904368 -0.599612236
2287216 -0.756782948 -0.593245923
2302016 -0.761334717 -0.587163031
2316816 -0.766109824 -0.580779433
2331616 -0.770682156 -0.574665129
2346416 -0.775201141 -0.568270027
2361216 -0.779488861 -0.562207639
2376016 -0.783966362 -0.555927574
2390916 -0.788225352 -0.549728751
2405716 -0.792175948 -0.543638944
2420516 -0.796131372 -0.537329554
2435316 -0.800348579 -0.531266689
2450116 -0.804098725 -0.524951279
2464916 -0.807896852 -0.518612205
2479816 -0.811740458 -0.512481272
2494616 -0.815403461 -0.506241619
2509416 -0.819132804 -0.500180602
2524216 -0.822577178 -0.494200766
2539016 -0.82602775 -0.488149046
2553816 -0.829360961 -0.481882631
2568716 -0.83297497 -0.475664645
2583516 -0.836045444 -0.469661533
2598316 -0.839406728 -0.463499784
2613116 -0.842467725 -0.457482427
2627916 -0.84562242 -0.451498806
2642716 -0.848814249 -0.445462554
2657616 -0.851967513 -0.439442217
2672416 -0.854770898 -0.433214575
2687216 -0.857563257 -0.427320778
2702016 -0.860475122 -0.421427279
2716816 -0.863092064 -0.415596693
2731616 -0.865987658 -0.409407138
2746416 -0.868288278 -0.403452962
2761316 -0.870919048 -0.397475838
2776116 -0.873345851 -0.391444981
2790916 -0.875933945 -0.385435372
2805716 -0.878324925 -0.379678666
2820516 -0.880592882 -0.373864412
2835316 -0.882629513 -0.368155568
2850216 -0.885025382 -0.362160712
2865016 -0.887043237 -0.356396764
2879816 -0.889143764 -0.350448429
2894616 -0.891343712 -0.344752013
2909416 -0.893538653 -0.339111864
2924216 -0.895305812 -0.33354023
2939116 -0.897184669 -0.327824026
2953916 -0.899046838 -0.322204709
2968716 -0.900814652 -0.316646844
2983516 -0.902596116 -0.310809046
2998316 -0.904570698 -0.305310279
3013116 -0.906343519 -0.299851238
3028016 -0.907811582 -0.294146686
3042832 -0.90974754 -0.28868398
3057632 -0.911278128 -0.283240705
3072432 -0.912982285 -0.277809411
3087232 -0.914483845 -0.272254705
3102032 -0.915962994 -0.266832113
3116832 -0.917462289 -0.261526197
3131632 -0.918922126 -0.256015658
3146532 -0.920419275 -0.250374823
3161332 -0.921862125 -0.244968697
3176132 -0.923243999 -0.239483147
3190932 -0.924778461 -0.234307989
3205732 -0.926061391 -0.228553295
3220532 -0.927228629 -0.223281443
3235432 -0.928487598 -0.218020126
3250232 -0.929663836 -0.212442621
3265032 -0.930816829 -0.207037419
3279832 -0.932024598 -0.201765373
3294632 -0.932963073 -0.196505367
3309432 -0.934071004 -0.190972536
3324332 -0.935084342 -0.185566738
3339132 -0.936088204 -0.180051654
3353932 -0.936968088 -0.174849212
3368732 -0.937948644 -0.169595375
3383532 -0.938997805 -0.164387926
3398332 -0.939480245 -0.159120902
3413232 -0.94027853 -0.153779923
3428032 -0.940998136 -0.148507416
3442832 -0.941624402 -0.143430024
3457632 -0.942230939 -0.138118758
3472432 -0.942882955 -0.132733821
3487232 -0.943609595 -0.127711609
3502032 -0.944219589 -0.122524917
3516932 -0.944993972 -0.117240771
3531732 -0.945345938 -0.112185463
3546532 -0.945857286 -0.107283331
3561332 -0.946131467 -0.10208404
3576132 -0.946568667 -0.096926718
3590932 -0.947080016 -0.091734893
3605832 -0.947465062 -0.086815677
3620632 -0.948052108 -0.081621192
3635432 -0.948244988 -0.076779708
3650232 -0.948696374 -0.071839302
3665032 -0.948830962 -0.066507302
3679832 -0.948992908 -0.06164705
3694732 -0.949089944 -0.056306242
3709532 -0.949567675 -0.051403746
3724332 -0.949690222 -0.046524509
3739132 -0.949774086 -0.04150338
3753932 -0.950051605 -0.036710407
3768732 -0.949843645 -0.031596839
3783632 -0.950012445 -0.026580968
3798432 -0.950018823 -0.021636558
3813232 -0.950011789 -0.016846397
3828032 -0.950038313 -0.012001629
3842832 -0.949901163 -0.007106887
3857632 -0.949833273 -0.002239859
3872432 -0.949761211 0.002796377
3887332 -0.949320197 0.007565509
3902132 -0.94932878 0.012581958
3916932 -0.949330449 0.017434976
3931732 -0.949045777 0.022001229
3946532 -0.948768496 0.027062319
3961332 -0.948377609 0.031764198
3976232 -0.948176443 0.036741796
3991032 -0.94774276 0.041597817
4005832 -0.947648823 0.046333115
4020632 -0.947164833 0.051186069
4035432 -0.946641802 0.055934518
4050232 -0.94634658 0.060608237
4065132 -0.945794165 0.065403722
4079932 -0.945244371 0.070311568
4094732 -0.944790422 0.074993431
4109532 -0.944210886 0.079880245
4124332 -0.943794548 0.084498897
4139132 -0.943044781 0.089299589
4154032 -0.942739427 0.094117827
4168832 -0.941995501 0.098759405
4183632 -0.941351115 0.103411711
4198432 -0.940432965 0.108206473
4213232 -0.939689397 0.113178186
4228032 -0.938971996 0.11768604
4242832 -0.938252151 0.122451193
4257732 -0.937493681 0.127081513
4272532 -0.936713099 0.131692275
4287332 -0.935764789 0.136549323
4302132 -0.934753298 0.141333624
4316932 -0.933931767 0.146168902
4331732 -0.932969152 0.150788441
4346632 -0.931980788 0.155231297
4361432 -0.930841624 0.160157114
4376232 -0.929682791 0.164735749
4391032 -0.92855066 0.16954118
4405832 -0.927356421 0.174297884
4420632 -0.926647305 0.179074674
4435532 -0.925170719 0.1834203
4450332 -0.923859596 0.188214644
4465132 -0.922312796 0.193079352
4479932 -0.921412408 0.197716489
4494732 -0.920023143 0.202425017
4509532 -0.918579697 0.206976637
4524432 -0.917228043 0.211531385
4539248 -0.91572529 0.216454386
4554048 -0.914346814 0.220786571
4568848 -0.912683844 0.225590214
4583648 -0.910911679 0.230211645
4598448 -0.909226298 0.235110446
4613248 -0.907638192 0.239869087
4628048 -0.905977964 0.244520485
4642948 -0.904411375 0.249345049
4657748 -0.90270394 0.253974258
4672548 -0.900566339 0.258583426
4687348 -0.898595988 0.263500154
4702148 -0.896687626 0.268403232
4716948 -0.894703805 0.273224025
4731848 -0.892655968 0.277824074
4746648 -0.890509843 0.282560229
4761448 -0.888143599 0.287238359
4776248 -0.885847508 0.292182266
4791048 -0.88348329 0.296930938
4805848 -0.881246328 0.301844567
4820748 -0.878800094 0.306628376
4835548 -0.876373231 0.311283439
4850348 -0.873530387 0.316174328
4865148 -0.871012866 0.321059554
4879948 -0.868011534 0.325995326
4894748 -0.865060567 0.331169545
4909648 -0.862062036 0.336232364
4924448 -0.858954131 0.341272383
4939248 -0.855756998 0.346205085
4954048 -0.852107763 0.351256757
4968848 -0.848434448 0.356391161
4983648 -0.84468311 0.361537724
4998448 -0.840696632 0.366465955
5013348 -0.836542189 0.371711581
5028148 -0.832261145 0.376760959
5042948 -0.827788472 0.381661444
5057748 -0.823281645 0.386452555
5072548 -0.818378508 0.391568839
5087348 -0.813090205 0.396519482
5102248 -0.807649731 0.401351451
5117048 -0.802038908 0.406281709
5131848 -0.796336174 0.410987913
5146648 -0.790195286 0.415980666
5161448 -0.783523857 0.420635849
5176248 -0.777211666 0.425255149
5191148 -0.769815385 0.429429799
5205948 -0.762256205 0.433605402
5220748 -0.754259765 0.437706053
5235548 -0.746082365 0.44149056
5250348 -0.737440407 0.4452295
5265148 -0.728587985 0.448382645
5280048 -0.719161748 0.451459854
5294848 -0.708818495 0.454063922
5309648 -0.698600351 0.456237763
5324448 -0.687536716 0.458109855
5339248 -0.675923168 0.459574967
5354048 -0.663459181 0.460309058
5368848 -0.650708794 0.460245966
5383748 -0.636923313 0.459575623
5398548 -0.622417092 0.457773387
5413348 -0.607521116 0.454234272
5428148 -0.591335475 0.450038164
5442948 -0.574556052 0.443626254
5457748 -0.557128131 0.435340017
5472648 -0.539131462 0.423835068
5487448 -0.521385371 0.40905258
5502248 -0.504004359 0.39113909
5517048 -0.488507002 0.368817687
5531848 -0.475853055 0.34262529
5546648 -0.467185229 0.312547266
5561548 -0.463959574 0.279548823
5576348 -0.466760963 0.244875177
5591148 -0.476783603 0.210454121
5605948 -0.493460744 0.178340092
5620748 -0.516671776 0.149732187
5635548 -0.544947981 0.126734852
5650448 -0.576280415 0.110074132
5665248 -0.60864222 0.100044585
5680048 -0.64053744 0.096209198
5694848 -0.670535326 0.097789175
5709648 -0.698019564 0.103706769
5724448 -0.722687065 0.112615346
5739248 -0.744251668 0.123867429
5754148 -0.762904703 0.136384531
5768948 -0.77850902 0.14999172
5783748 -0.791844904 0.163976088
5798548 -0.803144335 0.178091168
5813348 -0.812244534 0.191915631
5828148 -0.819824755 0.205567792
5843048 -0.826220631 0.218675822
5857848 -0.830870628 0.231412708
5872648 -0.835031688 0.243833333
5887448 -0.837877869 0.255716323
5902248 -0.840328514 0.267101734
5917048 -0.842256665 0.277891159
5931948 -0.843237459 0.288226574
5946748 -0.843875408 0.297986567
5961548 -0.844159603 0.307787507
5976348 -0.844167053 0.316963076
5991148 -0.84397602 0.32550916
6005948 -0.84336996 0.333948224
6020848 -0.842627584 0.342040419
6035664 -0.841622531 0.34991312
6050464 -0.840456485 0.357750415
6065264 -0.839188635 0.364897191
6080064 -0.838070392 0.371685564
6094864 -0.83625251 0.378690779
6109664 -0.834448873 0.385074079
6124464 -0.832738339 0.391594886
6139364 -0.830952167 0.398053616
6154164 -0.829533576 0.404088288
6168964 -0.827703237 0.409843236
6183764 -0.825556576 0.415382057
6198564 -0.823702931 0.421135455
6213364 -0.821894168 0.426516473
6228264 -0.819936215 0.431894838
6243064 -0.81812644 0.436718106
6257864 -0.816075563 0.441504269
6272664 -0.814233064 0.446609139
6287464 -0.812310099 0.4511424
6302264 -0.810554623 0.455718904
6317164 -0.808816134 0.460030138
6331964 -0.806909143 0.464200973
6346764 -0.805077254 0.468506515
6361564 -0.803381979 0.47285813
6376364 -0.801918327 0.476821124
6391164 -0.800057232 0.480772525
6406064 -0.798412084 0.484683543
6420864 -0.796401321 0.4885751
6435664 -0.794509589 0.492581963
6450464 -0.792439758 0.496839582
6465264 -0.790400743 0.500670135
6480064 -0.788235366 0.504681825
6494864 -0.786026179 0.508591711
6509764 -0.784151971 0.512508094
6524564 -0.781470417 0.516159713
6539364 -0.779036045 0.520063698
6554164 -0.77654308 0.524114131
6568964 -0.773840188 0.527989625
6583764 -0.77148801 0.531682848
6598664 -0.768676102 0.535235822
6613464 -0.766069412 0.538874208
6628264 -0.763374507 0.54225862
6643064 -0.760577261 0.54610908
6657864 -0.757889032 0.549774348
6672664 -0.755186438 0.553106248
6687564 -0.752769231 0.556349158
6702364 -0.749638497 0.559700429
6717164 -0.747060418 0.56306529
6731964 -0.744417011 0.566537559
6746764 -0.741759836 0.569610118
6761564 -0.739239633 0.572751343
6776464 -0.736417114 0.575922846
6791264 -0.73364216 0.579056084
6806064 -0.730881929 0.582232475
6820864 -0.728153347 0.585295081
6835664 -0.725425839 0.588840544
6850464 -0.722645521 0.591787397
6865264 -0.72034651 0.594944953
6880164 -0.71759057 0.597749948
6894964 -0.714743435 0.60054326
6909764 -0.712131381 0.603574216
6924564 -0.709249615 0.606657803
6939364 -0.706848204 0.609555542
6954164 -0.703828334 0.61239171
6969064 -0.70106858 0.615724802
6983864 -0.698441445 0.618442714
6998664 -0.69595766 0.621222853
7013464 -0.693104863 0.623894691
7028264 -0.690134644 0.626696586
7043064 -0.687482774 0.629734218
7057964 -0.684914052 0.632371246
7072764 -0.681913137 0.635000348
7087564 -0.679022908 0.637816667
7102364 -0.676424324 0.640671074
7117164 -0.673553228 0.643509924
7131964 -0.670882105 0.645979285
7146864 -0.668081998 0.648632109
7161664 -0.664984524 0.651310265
7176464 -0.662094235 0.654105901
7191264 -0.659434497 0.656732439
7206064 -0.656628429 0.659292697
7220864 -0.653759956 0.661895215
7235664 -0.65110594 0.664486587
7250564 -0.647915005 0.666934669
7265364 -0.644854843 0.669589817
7280164 -0.642102181 0.672294259
7294964 -0.639165818 0.674796521
7309764 -0.636197865 0.677485823
7324564 -0.633374452 0.67986983
7339464 -0.630422711 0.682256639
7354264 -0.627111315 0.684652924
7369064 -0.624015867 0.687391459
7383864 -0.621127367 0.689925491
7398664 -0.618122458 0.69236648
7413464 -0.61507982 0.694512486
7428364 -0.611916005 0.697191417
7443164 -0.608864605 0.699455559
7457964 -0.60558182 0.702002882
7472764 -0.602455914 0.704257309
7487564 -0.599348247 0.706755042
7502364 -0.596325039 0.709236383
7517264 -0.593042194 0.711210429
7532080 -0.589674115 0.71337378
7546880 -0.586289227 0.716112494
7561680 -0.583109021 0.718151569
7576480 -0.579770982 0.720631837
7591280 -0.576517403 0.72297126
7606080 -0.573280274 0.725144505
7620880 -0.569833636 0.727215707
7635780 -0.566607356 0.729269266
7650580 -0.563168942 0.731638908
7665380 -0.559602081 0.733720242
7680180 -0.556011974 0.735843658
7694980 -0.552981674 0.738232553
7709780 -0.54929316 0.740329444
7724680 -0.545652151 0.742715775
7739480 -0.542352318 0.744642853
7754280 -0.53883934 0.746673226
7769080 -0.535173892 0.748831987
7783880 -0.53160429 0.750868022
7798680 -0.527858018 0.752978265
7813580 -0.524088323 0.755304276
7828380 -0.5203408 0.757312357
7843180 -0.51680094 0.759480297
7857980 -0.512843906 0.761161327
7872780 -0.509296119 0.76334536
7887580 -0.505296647 0.765087604
7902480 -0.501179397 0.767105638
7917280 -0.497428923 0.769115507
7932080 -0.49380353 0.771182477
7946880 -0.489672929 0.772803902
7961680 -0.485669732 0.77465254
7976480 -0.481475174 0.776631474
7991280 -0.477430075 0.778633832
8006180 -0.47339797 0.780345737
8020980 -0.468979567 0.781854808
8035780 -0.4648225 0.783991575
8050580 -0.460627883 0.785558938
8065380 -0.456308543 0.78754425
8080180 -0.451930195 0.788894593
8095080 -0.447699606 0.790529847
8109880 -0.443011254 0.792453408
8124680 -0.438766896 0.793687641
8139480 -0.434119731 0.79535371
8154280 -0.429635912 0.796802401
8169080 -0.424844682 0.798588812
8183980 -0.420492857 0.799970209
8198780 -0.415852248 0.801060199
8213580 -0.411010891 0.802313327
8228380 -0.406086713 0.803845167
8243180 -0.401328921 0.805237889
8257980 -0.396397888 0.806514084
8272880 -0.391740351 0.807914912
8287680 -0.386508733 0.808870375
8302480 -0.381604552 0.809836864
8317280 -0.376658141 0.810985207
8332080 -0.37152937 0.812205493
8346880 -0.366460323 0.812965691
8361680 -0.361209541 0.814158916
8376580 -0.355958461 0.81504631
8391380 -0.350560128 0.815626978
8406180 -0.344983637 0.816719114
8420980 -0.339562714 0.817515134
8435780 -0.333955168 0.818296909
8450580 -0.328444838 0.818947374
8465480 -0.32287991 0.819653809
8480280 -0.316973924 0.820039451
8495080 -0.311249613 0.820780277
8509880 -0.305285334 0.820940673
8524680 -0.29906094 0.821277022
8539480 -0.292997658 0.821797788
8554380 -0.286741763 0.821884512
8569180 -0.280583053 0.822043418
8583980 -0.274237275 0.821840941
8598780 -0.267838418 0.821480393
8613580 -0.26127541 0.821091294
8628380 -0.254452168 0.820869207
8643280 -0.247671797 0.820441484
8658080 -0.241030737 0.819497525
8672880 -0.23432748 0.818889796
8687680 -0.227409929 0.817890763
8702480 -0.220602333 0.817000627
8717280 -0.213617607 0.815720856
8732080 -0.206463828 0.814229547
8746980 -0.199550792 0.812742829
8761780 -0.192300379 0.810937225
8776580 -0.185005381 0.809248208
8791380 -0.177629753 0.807287156
8806180 -0.170305475 0.805179238
8820980 -0.162936419 0.802791237
8835880 -0.155473589 0.80033642
8850680 -0.147745415 0.797510504
8865480 -0.14024128 0.794855535
8880280 -0.132458195 0.791710138
8895080 -0.12480276 0.788562357
8909880 -0.116866588 0.784851789
8924780 -0.109005056 0.780886471
8939580 -0.100974604 0.777002632
8954380 -0.093210734 0.772881865
8969180 -0.085144117 0.768137872
8983980 -0.077214322 0.76358062
8998780 -0.069130972 0.758122324
