# Hz S RI R 50
50000 1.000900387 -0.017740892
64800 0.999588549 -0.023647673
79600 0.998874723 -0.028951106
94400 0.998208463 -0.034942112
109200 0.99763453 -0.039963547
124000 0.997353434 -0.04542787
138800 0.996679484 -0.050769548
153700 0.996529519 -0.05608946
168500 0.996473789 -0.061377428
183300 0.995569229 -0.066558741
198100 0.995384991 -0.071766391
212900 0.994652926 -0.076775111
227700 0.993961036 -0.081573098
242600 0.993621945 -0.086885116
257400 0.993104457 -0.091796331
272200 0.992604434 -0.097149342
287000 0.991720318 -0.102262713
301800 0.991117835 -0.107507519
316600 0.990010201 -0.112482003
331500 0.98892486 -0.117737144
346300 0.988296568 -0.122295819
361100 0.987446308 -0.127407476
375900 0.986674726 -0.132114768
390700 0.985737621 -0.137503311
405500 0.984632372 -0.142923757
420400 0.983035385 -0.147858276
435200 0.981245398 -0.151734203
450000 0.980332314 -0.155765369
464800 0.980522394 -0.160043075
479600 0.980289757 -0.165411055
494400 0.978976488 -0.170424804
509200 0.978365778 -0.175244718
524100 0.977047681 -0.180402129
538900 0.975886225 -0.185572892
553700 0.974903166 -0.190552294
568500 0.973805546 -0.195266231
583300 0.97274965 -0.200435206
598100 0.971405148 -0.205876111
613000 0.969790875 -0.211020231
627800 0.968052148 -0.215915828
642600 0.966556251 -0.220896169
657400 0.96393907 -0.226057499
672200 0.961526513 -0.230125382
687000 0.959835529 -0.233940243
701900 0.958979189 -0.237355977
716700 0.95867002 -0.24178797
731500 0.957905232 -0.246697351
746300 0.95625627 -0.252595454
761100 0.954792976 -0.257644563
775900 0.952198147 -0.262862026
790800 0.950277507 -0.267236322
805600 0.948422133 -0.271939218
820400 0.946419 -0.276078432
835200 0.944788575 -0.280412524
850000 0.942751765 -0.285245537
864800 0.940581917 -0.289837002
879600 0.938595354 -0.293974936
894500 0.936465263 -0.298453867
909300 0.934477686 -0.302615344
924100 0.932540416 -0.306774944
938900 0.930220007 -0.311358779
953700 0.929052531 -0.315213978
968500 0.927099645 -0.320002168
983400 0.924822807 -0.324843674
998200 0.922136664 -0.329181104
1013000 0.919302761 -0.333605974
1027800 0.916619539 -0.337686061
1042600 0.913653612 -0.341267913
1057400 0.910468995 -0.344272911
1072300 0.908611357 -0.346282333
1087100 0.9071998 -0.348803997
1101900 0.90681082 -0.352017104
1116700 0.906002521 -0.355776101
1131500 0.905807077 -0.360924899
1146300 0.904101848 -0.365592718
1161200 0.902393579 -0.370520055
1176000 0.899991154 -0.375845015
1190800 0.897548794 -0.380163401
1205600 0.894646584 -0.384318113
1220400 0.891689956 -0.387988179
1235200 0.889362692 -0.391410738
1250000 0.886762499 -0.394203871
1264900 0.885419964 -0.396982043
1279700 0.884130656 -0.400548696
1294500 0.883253335 -0.404240965
1309300 0.8821038 -0.408548712
1324100 0.880990266 -0.413386911
1338900 0.878964543 -0.417972356
1353800 0.87677592 -0.422678947
1368600 0.874364733 -0.426790684
1383400 0.87181282 -0.431304842
1398200 0.869910836 -0.434752523
1413000 0.86743617 -0.43893817
1427800 0.865600466 -0.442748993
1442700 0.863931715 -0.446378976
1457500 0.8622545 -0.450850069
1472300 0.861088871 -0.455143779
1487100 0.858807265 -0.459688216
1501900 0.856825888 -0.464765727
1516700 0.854711592 -0.469221711
1531600 0.851978361 -0.474386423
1546416 0.849544048 -0.478651881
1561216 0.846380412 -0.483069658
1576016 0.843754172 -0.487332791
1590816 0.840994179 -0.491938412
1605616 0.838229417 -0.496111363
1620416 0.834968507 -0.500171899
1635216 0.832616746 -0.504142105
1650116 0.83005172 -0.508441209
1664916 0.827607572 -0.512450039
1679716 0.825168609 -0.516819119
1694516 0.82236886 -0.521092295
1709316 0.819338917 -0.525488138
1724116 0.816554248 -0.529773473
1739016 0.813190877 -0.534325659
1753816 0.810587465 -0.538486421
1768616 0.80720824 -0.542464017
1783416 0.804212152 -0.547093927
1798216 0.801091313 -0.55112493
1813016 0.797647774 -0.55500102
1827916 0.794284224 -0.5592013
1842716 0.791184961 -0.563670575
1857516 0.787789225 -0.567751705
1872316 0.78481692 -0.571445465
1887116 0.781311273 -0.575632214
1901916 0.77773106 -0.57923609
1916816 0.774678707 -0.583576977
1931616 0.771001219 -0.587377667
1946416 0.767809212 -0.591432094
1961216 0.764065086 -0.595490396
1976016 0.760425806 -0.599769294
1990816 0.756775856 -0.603438556
2005616 0.753035485 -0.607389092
2020516 0.749252259 -0.611182153
2035316 0.745459437 -0.61469686
2050116 0.741804063 -0.618329644
2064916 0.737797677 -0.622603476
2079716 0.734126925 -0.626123905
2094516 0.730585217 -0.629762887
2109416 0.726640701 -0.63370198
2124216 0.722573876 -0.637441277
2139016 0.71865493 -0.640854716
2153816 0.714388668 -0.644423186
2168616 0.710509061 -0.648192167
2183416 0.706336438 -0.651559293
2198316 0.702016711 -0.654976189
2213116 0.697641313 -0.65867424
2227916 0.693306028 -0.662224769
2242716 0.689069747 -0.665427923
2257516 0.684504628 -0.668703138
2272316 0.68031001 -0.672061443
2287216 0.675415217 -0.675478458
2302016 0.671301782 -0.678062498
2316816 0.666692495 -0.681285023
2331616 0.662014544 -0.684342265
2346416 0.657410264 -0.687516808
2361216 0.652867376 -0.690419495
2376016 0.648341119 -0.693089544
2390916 0.643703043 -0.69593662
2405716 0.638871312 -0.698820114
2420516 0.634519219 -0.70160228
2435316 0.629700958 -0.703990817
2450116 0.625012934 -0.706779122
2464916 0.620609045 -0.709342718
2479816 0.615763902 -0.711369335
2494616 0.611620783 -0.713814675
2509416 0.606756269 -0.716593742
2524216 0.601797819 -0.718803822
2539016 0.597052872 -0.721302926
2553816 0.592328071 -0.723639488
2568716 0.587486088 -0.72537285
2583516 0.582711458 -0.727534949
2598316 0.578307807 -0.72973901
2613116 0.573652923 -0.731502652
2627916 0.569009661 -0.733293235
2642716 0.564586639 -0.735506713
2657616 0.560289978 -0.737591385
2672416 0.555818378 -0.73912847
2687216 0.551056742 -0.741272866
2702016 0.546793162 -0.742811083
2716816 0.542056679 -0.744579553
2731616 0.538030028 -0.746300756
2746416 0.533475339 -0.748257756
2761316 0.528837502 -0.74998635
2776116 0.524558246 -0.752072811
2790916 0.519702255 -0.753992795
2805716 0.515688657 -0.755812048
2820516 0.511550009 -0.757442057
2835316 0.50671184 -0.759672522
2850216 0.501827299 -0.761377155
2865016 0.497778803 -0.762994229
2879816 0.493259072 -0.764739274
2894616 0.488381445 -0.766450822
2909416 0.483356654 -0.768189132
2924216 0.479406267 -0.769433021
2939116 0.474465906 -0.771038293
2953916 0.469919919 -0.772434771
2968716 0.465601682 -0.774008214
2983516 0.461604148 -0.775577843
2998316 0.457081466 -0.777144789
3013116 0.452587187 -0.778808772
3028016 0.448101401 -0.780385792
3042832 0.444230943 -0.781758725
3057632 0.439130425 -0.783581018
3072432 0.434851944 -0.785363078
3087232 0.430161654 -0.786747217
3102032 0.425681799 -0.788876712
3116832 0.421251505 -0.790719568
3131632 0.416930079 -0.792964816
3146532 0.411728918 -0.795057952
3161332 0.406690239 -0.79641205
3176132 0.401785761 -0.798792302
3190932 0.396517217 -0.800440788
3205732 0.391171395 -0.802251815
3220532 0.386104881 -0.803751587
3235432 0.380985319 -0.80547887
3250232 0.375098735 -0.807142853
3265032 0.369559764 -0.808441698
3279832 0.363785564 -0.809964299
3294632 0.358391344 -0.811331689
3309432 0.352793663 -0.812214493
3324332 0.347082763 -0.81350845
3339132 0.341515272 -0.814342021
3353932 0.335796773 -0.815460562
3368732 0.330072551 -0.815884649
3383532 0.324521422 -0.816766798
3398332 0.319095343 -0.81738162
3413232 0.31332457 -0.818298578
3428032 0.308060556 -0.818822264
3442832 0.302295356 -0.819659173
3457632 0.29686436 -0.820171594
3472432 0.291156679 -0.820810973
3487232 0.285419195 -0.821845889
3502032 0.279625475 -0.822413086
3516932 0.273734956 -0.822958469
3531732 0.268030971 -0.823564052
3546532 0.262009024 -0.824103534
3561332 0.256090372 -0.824715137
3576132 0.249977096 -0.825501918
3590932 0.244147971 -0.82577157
3605832 0.237578436 -0.826174616
3620632 0.231137022 -0.82639563
3635432 0.224939852 -0.826817989
3650232 0.218535274 -0.826840102
3665032 0.211573839 -0.827226698
3679832 0.205308914 -0.827243983
3694732 0.198367819 -0.827098131
3709532 0.191465243 -0.827023267
3724332 0.184244379 -0.826520621
3739132 0.177109181 -0.826044917
3753932 0.169932305 -0.825581729
3768732 0.162785708 -0.824621975
3783632 0.155506536 -0.823849558
3798432 0.147817894 -0.822668671
3813232 0.140351802 -0.821220874
3828032 0.133026301 -0.819633901
3842832 0.125393375 -0.817914664
3857632 0.117979206 -0.816110134
3872432 0.110614985 -0.814094364
3887332 0.103088386 -0.811572849
3902132 0.095401942 -0.809115231
3916932 0.087935656 -0.806815207
3931732 0.08039347 -0.803921163
3946532 0.073209963 -0.800951361
3961332 0.065455354 -0.797769188
3976232 0.05784022 -0.794482111
3991032 0.050310421 -0.790960669
4005832 0.042922884 -0.78715521
4020632 0.035084135 -0.783341288
4035432 0.027683302 -0.778964936
4050232 0.019898293 -0.774875819
4065132 0.012379661 -0.770362973
4079932 0.005053757 -0.765434622
4094732 -0.002373548 -0.759970784
4109532 -0.010134238 -0.754351258
4124332 -0.017224965 -0.74880129
4139132 -0.024657765 -0.742525577
4154032 -0.032210111 -0.736174046
4168832 -0.039293255 -0.728878676
4183632 -0.04618895 -0.721790134
4198432 -0.05320758 -0.714336991
4213232 -0.059719853 -0.706836283
4228032 -0.065532796 -0.698381662
4242832 -0.072166606 -0.690209925
4257732 -0.078341849 -0.681434214
4272532 -0.084190823 -0.672274589
4287332 -0.089735411 -0.662527561
4302132 -0.095285937 -0.652837932
4316932 -0.100057862 -0.642392694
4331732 -0.104347422 -0.631779551
4346632 -0.108480632 -0.620639324
4361432 -0.112281262 -0.609557151
4376232 -0.115405276 -0.59726727
4391032 -0.117777489 -0.585209548
4405832 -0.119957156 -0.572810411
4420632 -0.121151991 -0.559969007
4435532 -0.121604934 -0.546560227
4450332 -0.1215972 -0.533418715
4465132 -0.120716251 -0.520075142
4479932 -0.119011193 -0.506536245
4494732 -0.11648947 -0.493237495
4509532 -0.113038837 -0.479336798
4524432 -0.109078019 -0.46622923
4539248 -0.103350013 -0.452887535
4554048 -0.097997002 -0.44001314
4568848 -0.091256707 -0.427393466
4583648 -0.083460986 -0.414993464
4598448 -0.075031504 -0.403091102
4613248 -0.065731987 -0.391636431
4628048 -0.056161347 -0.380732864
4642948 -0.045160923 -0.369889289
4657748 -0.034181363 -0.360070884
4672548 -0.021465821 -0.350629448
4687348 -0.009072602 -0.341884136
4702148 0.005419785 -0.333904415
4716948 0.019777826 -0.327014476
4731848 0.035305477 -0.320985972
4746648 0.050928995 -0.316454976
4761448 0.067222982 -0.312698602
4776248 0.083848536 -0.310841172
4791048 0.100652128 -0.30990839
4805848 0.117760591 -0.310370385
4820748 0.134689807 -0.312177121
4835548 0.151194706 -0.31511265
4850348 0.167586773 -0.319416075
4865148 0.183589488 -0.325083464
4879948 0.199096888 -0.331558376
4894748 0.213901549 -0.339191555
4909648 0.228584378 -0.348564714
4924448 0.241625949 -0.358711332
4939248 0.254531532 -0.369412362
4954048 0.26627916 -0.380690693
4968848 0.276868939 -0.393448263
4983648 0.287074029 -0.406802147
4998448 0.295293807 -0.42016682
5013348 0.303090721 -0.433847904
5028148 0.309882521 -0.448606222
5042948 0.31523329 -0.462735444
5057748 0.319782942 -0.477585941
5072548 0.323590189 -0.492527335
5087348 0.326076894 -0.507038831
5102248 0.328438282 -0.521664679
5117048 0.329525172 -0.536106348
5131848 0.329737573 -0.550349295
5146648 0.329119741 -0.564637541
5161448 0.327910661 -0.578680336
5176248 0.32634598 -0.592697978
5191148 0.323453426 -0.60581845
5205948 0.320307701 -0.619485974
5220748 0.316540569 -0.632605671
5235548 0.312381774 -0.645190536
5250348 0.30708903 -0.657638072
5265148 0.301965802 -0.66996634
5280048 0.295880824 -0.68162024
5294848 0.289509207 -0.69264853
5309648 0.282420605 -0.7035411
5324448 0.275269299 -0.71393615
5339248 0.267570167 -0.723601758
5354048 0.259800702 -0.733352243
5368848 0.251426547 -0.742587387
5383748 0.242817074 -0.751541078
5398548 0.234180271 -0.759441316
5413348 0.225119575 -0.767542958
5428148 0.215971261 -0.774777233
5442948 0.206606388 -0.782096982
5457748 0.197495162 -0.788686394
5472648 0.187741875 -0.7945441
5487448 0.178236439 -0.800653636
5502248 0.16799733 -0.80597943
5517048 0.15829052 -0.811291158
5531848 0.148260176 -0.816519439
5546648 0.138699471 -0.820692479
5561548 0.128454148 -0.824870645
5576348 0.118594624 -0.828136861
5591148 0.108538553 -0.832156062
5605948 0.098468571 -0.835221648
5620748 0.088574044 -0.838194489
5635548 0.07882972 -0.840704441
5650448 0.068226397 -0.842888176
5665248 0.058778747 -0.844973444
5680048 0.048822931 -0.846692264
5694848 0.038822911 -0.848221361
5709648 0.028549589 -0.849537849
5724448 0.0190487 -0.850454688
5739248 0.009300293 -0.851153671
5754148 -0.000453945 -0.852097988
5768948 -0.010088245 -0.85215801
5783748 -0.019308319 -0.852169275
5798548 -0.029243521 -0.852020204
5813348 -0.038791488 -0.851819038
5828148 -0.048218142 -0.851329088
5843048 -0.057717893 -0.850814998
5857848 -0.067211844 -0.849868297
5872648 -0.076041705 -0.849030971
5887448 -0.085606448 -0.847705364
5902248 -0.094537533 -0.846091926
5917048 -0.103705927 -0.844315826
5931948 -0.112865567 -0.843044936
5946748 -0.121224246 -0.840792238
5961548 -0.130389034 -0.838750123
5976348 -0.138998314 -0.836709737
5991148 -0.148071691 -0.834232509
6005948 -0.156696379 -0.831789731
6020848 -0.165043741 -0.829194724
6035664 -0.174168169 -0.826304554
6050464 -0.182581707 -0.82304871
6065264 -0.190955534 -0.820348799
6080064 -0.199275657 -0.81675291
6094864 -0.207211315 -0.813584923
6109664 -0.21533361 -0.810211479
6124464 -0.223444476 -0.80694288
6139364 -0.231149554 -0.803042352
6154164 -0.239019483 -0.799368321
6168964 -0.247059494 -0.794917464
6183764 -0.254369229 -0.791743576
6198564 -0.261718839 -0.787376999
6213364 -0.269554555 -0.783194541
6228264 -0.276726186 -0.778554975
6243064 -0.283902227 -0.774585843
6257864 -0.291060924 -0.770210742
6272664 -0.297832429 -0.765568375
6287464 -0.304490387 -0.76122123
6302264 -0.311719 -0.756507098
6317164 -0.318218141 -0.751976013
6331964 -0.32492423 -0.746518611
6346764 -0.33122611 -0.74211955
6361564 -0.337750792 -0.736483156
6376364 -0.344380468 -0.730993628
6391164 -0.350860029 -0.726012229
6406064 -0.357320845 -0.720414221
6420864 -0.363391578 -0.714404881
6435664 -0.369485467 -0.708698034
6450464 -0.375518351 -0.702198147
6465264 -0.381837248 -0.696093797
6480064 -0.387795686 -0.689342021
6494864 -0.393717348 -0.682790577
6509764 -0.399419307 -0.676044523
6524564 -0.404998004 -0.669436395
6539364 -0.410851418 -0.661924839
6554164 -0.416112005 -0.655118525
6568964 -0.42125222 -0.647154092
6583764 -0.426277846 -0.63984996
6598664 -0.431234389 -0.632001161
6613464 -0.436142027 -0.624271035
6628264 -0.440657883 -0.616440832
6643064 -0.445195764 -0.608529329
6657864 -0.449358344 -0.60088545
6672664 -0.453836411 -0.592544257
6687564 -0.457610547 -0.584582805
6702364 -0.461466461 -0.576456308
6717164 -0.465064585 -0.567979156
6731964 -0.468574255 -0.559683203
6746764 -0.471986114 -0.551208794
6761564 -0.474989682 -0.542364895
6776464 -0.478180706 -0.534186422
6791264 -0.481136351 -0.525774359
6806064 -0.483418017 -0.5169003
6820864 -0.486082971 -0.508528351
6835664 -0.488351523 -0.49942255
6850464 -0.490449219 -0.490577906
6865264 -0.492312312 -0.481837868
6880164 -0.494147986 -0.472512125
6894964 -0.495374351 -0.463951468
6909764 -0.497298538 -0.454739868
6924564 -0.497917532 -0.446049213
6939364 -0.49878937 -0.437024891
6954164 -0.499421 -0.428031653
6969064 -0.499990522 -0.418795228
6983864 -0.500630319 -0.409706056
6998664 -0.500302195 -0.401093095
7013464 -0.500362455 -0.392039358
7028264 -0.500179886 -0.382893711
7043064 -0.499399155 -0.373913556
7057964 -0.498794823 -0.364439249
7072764 -0.497780263 -0.355772793
7087564 -0.496775686 -0.347424864
7102364 -0.495486527 -0.338061362
7117164 -0.493875175 -0.329069823
7131964 -0.492322891 -0.319979369
7146864 -0.490262269 -0.311468213
7161664 -0.487655639 -0.302708387
7176464 -0.485489934 -0.294251799
7191264 -0.482915192 -0.285288989
7206064 -0.480048477 -0.276926696
7220864 -0.476488798 -0.268742322
7235664 -0.473599731 -0.260090261
7250564 -0.469748467 -0.251849681
7265364 -0.466271907 -0.24388884
7280164 -0.462268233 -0.235976308
7294964 -0.458518832 -0.227658838
7309764 -0.453987926 -0.220281347
7324564 -0.449690461 -0.212736293
7339464 -0.44514805 -0.205275431
7354264 -0.440158873 -0.198113486
7369064 -0.435218244 -0.190429702
7383864 -0.430162876 -0.183433189
7398664 -0.425334781 -0.176534578
7413464 -0.419768005 -0.169891327
7428364 -0.414118885 -0.163199499
7443164 -0.408354371 -0.156757861
7457964 -0.402226775 -0.150385841
7472764 -0.396388918 -0.144270062
7487564 -0.390019595 -0.138314947
7502364 -0.383904159 -0.132733553
7517264 -0.377272278 -0.126811385
7532080 -0.370478987 -0.12138424
7546880 -0.363915413 -0.115931697
7561680 -0.356823116 -0.111055962
7576480 -0.350094825 -0.106583543
7591280 -0.342904299 -0.10148821
7606080 -0.335944414 -0.097358934
7620880 -0.328820228 -0.093079097
7635780 -0.321649044 -0.088833846
7650580 -0.313949078 -0.085464134
7665380 -0.306918442 -0.081667974
7680180 -0.298867464 -0.078516624
7694980 -0.291113376 -0.075150251
7709780 -0.283913135 -0.072355121
7724680 -0.27598387 -0.069156043
7739480 -0.268287777 -0.066669285
7754280 -0.260625153 -0.064575351
7769080 -0.252648979 -0.062419194
7783880 -0.244591251 -0.060545139
7798680 -0.236563399 -0.058642562
7813580 -0.228727042 -0.056955602
7828380 -0.220626235 -0.055479675
7843180 -0.212845772 -0.054763663
7857980 -0.204314291 -0.054201364
7872780 -0.195888102 -0.053302925
7887580 -0.187837645 -0.052822731
7902480 -0.17982982 -0.05321547
7917280 -0.17169395 -0.053158633
7932080 -0.163320615 -0.053376443
7946880 -0.155400559 -0.054230686
7961680 -0.147508472 -0.05517951
7976480 -0.139269798 -0.056259751
7991280 -0.131211191 -0.057674281
8006180 -0.123408973 -0.059587765
8020980 -0.115678198 -0.061620019
8035780 -0.107687897 -0.06391628
8050580 -0.100034438 -0.066527634
8065380 -0.092576935 -0.069406487
8080180 -0.084824986 -0.07225763
8095080 -0.077642492 -0.075603008
8109880 -0.070408023 -0.079106941
8124680 -0.063432246 -0.083127699
8139480 -0.056276421 -0.086787179
8154280 -0.050204623 -0.090944826
8169080 -0.043694421 -0.095441572
8183980 -0.037544358 -0.099295265
8198780 -0.031398382 -0.104223378
8213580 -0.025606235 -0.109202966
8228380 -0.019985539 -0.114047683
8243180 -0.014546035 -0.119321979
8257980 -0.009436025 -0.124649763
8272880 -0.004166072 -0.129783824
8287680 0.000571694 -0.135407641
8302480 0.005556086 -0.140706717
8317280 0.009613597 -0.146464839
8332080 0.014308652 -0.15237452
8346880 0.018433077 -0.158263027
8361680 0.022317472 -0.164232358
8376580 0.026111155 -0.17009136
8391380 0.029677933 -0.176511898
8406180 0.033010531 -0.182801932
8420980 0.03581687 -0.189085587
8435780 0.03874414 -0.194934576
8450580 0.04140865 -0.20156072
8465480 0.043925672 -0.208109512
8480280 0.045771613 -0.214651927
8495080 0.047924015 -0.221199721
8509880 0.049783203 -0.227438062
8524680 0.051562618 -0.233979687
8539480 0.052593041 -0.240276709
8554380 0.053872484 -0.246860414
8569180 0.054793655 -0.25322166
8583980 0.055509828 -0.260000646
8598780 0.056142002 -0.266078472
8613580 0.056392069 -0.272701621
8628380 0.056635022 -0.278670489
8643280 0.056714754 -0.285072267
8658080 0.056415271 -0.291110068
8672880 0.056260515 -0.297673702
8687680 0.055861581 -0.303477823
8702480 0.054955188 -0.30989322
8717280 0.054471462 -0.315664798
8732080 0.053131308 -0.321283787
8746980 0.052379745 -0.327524244
8761780 0.051103923 -0.332787811
8776580 0.049462083 -0.338793069
8791380 0.048174366 -0.344170123
8806180 0.046720206 -0.349542111
8820980 0.045294769 -0.35501483
8835880 0.04331506 -0.360336333
8850680 0.041616462 -0.365344554
8865480 0.03927762 -0.370290935
8880280 0.037356894 -0.375377982
8895080 0.03499218 -0.380647331
8909880 0.032915767 -0.385137081
8924780 0.030357979 -0.390048235
8939580 0.027797959 -0.39477387
8954380 0.0254168 -0.399104952
8969180 0.023017959 -0.40355283
8983980 0.020313877 -0.408008068
8998780 0.017548728 -0.4125261
