# Hz S RI R 50
50000 -0.981286346 0.010157362
61800 -0.980384051 0.01365552
73600 -0.980520248 0.016671489
85500 -0.980066239 0.019654802
97300 -0.979782104 0.022697025
109200 -0.980062723 0.025429796
121000 -0.979687511 0.028291933
132900 -0.979552567 0.031199168
144700 -0.979498147 0.034073736
156500 -0.979201197 0.036960292
168400 -0.979057371 0.039691831
180200 -0.978792309 0.042397502
192100 -0.97852832 0.045326057
203900 -0.978156268 0.047903977
215800 -0.978312909 0.050707608
227600 -0.977948606 0.053165756
239400 -0.977711677 0.055887233
251300 -0.977560579 0.058582916
263100 -0.977205395 0.061393208
275000 -0.977059304 0.063980162
286800 -0.976564466 0.066512271
298700 -0.976314663 0.069245092
310500 -0.975996494 0.071990221
322300 -0.975776135 0.074255265
334200 -0.975512444 0.076994083
346000 -0.975058197 0.079732827
357900 -0.974764585 0.08220949
369700 -0.974534571 0.085008621
381600 -0.973940014 0.087639644
393400 -0.973904371 0.090145215
405200 -0.973215878 0.092608757
417100 -0.973015189 0.095426805
428900 -0.972654759 0.097713805
440800 -0.972361743 0.100530765
452600 -0.971970021 0.103225044
464500 -0.971619963 0.10580036
476300 -0.971198916 0.108279645
488100 -0.971156239 0.110801205
500000 -0.970499515 0.113452635
511800 -0.970093429 0.116115242
523700 -0.969755411 0.118667803
535500 -0.969262897 0.121433392
547400 -0.968677401 0.123996533
559200 -0.968497991 0.126591831
571000 -0.96792984 0.129075765
582900 -0.967532098 0.131943359
594700 -0.967019319 0.134271934
606600 -0.966404616 0.13691774
618400 -0.965948581 0.139703899
630300 -0.965735375 0.142145499
642100 -0.964946985 0.144942417
653900 -0.96449387 0.147457748
665800 -0.964125871 0.149941429
677600 -0.963504731 0.152512863
689500 -0.962816059 0.155282855
701300 -0.962541818 0.157745644
713200 -0.961992084 0.160494089
725000 -0.96151638 0.163051426
736800 -0.960573792 0.165570452
748700 -0.960046648 0.168385565
760500 -0.959490954 0.170954212
772400 -0.958670914 0.17338629
784200 -0.958003997 0.175950393
796100 -0.957623243 0.178443372
807900 -0.956912994 0.180898874
819700 -0.956324577 0.183514937
831600 -0.955778539 0.18587245
843400 -0.955208182 0.18837206
855300 -0.954978466 0.190999597
867100 -0.954267263 0.193828418
879000 -0.953565239 0.196417614
890800 -0.953020453 0.198855668
902600 -0.952324032 0.201620206
914500 -0.951812684 0.204334601
926300 -0.951044559 0.206602185
938200 -0.950425267 0.209396868
950000 -0.949841022 0.212179586
961900 -0.949023962 0.214787468
973700 -0.948251962 0.21733196
985500 -0.947890758 0.220052644
997400 -0.946773231 0.222809508
1009200 -0.946025967 0.225346714
1021100 -0.945347249 0.22791022
1032900 -0.944481909 0.230569139
1044800 -0.943834245 0.233416557
1056600 -0.942944884 0.235867783
1068400 -0.942208647 0.238670065
1080300 -0.941501915 0.241264984
1092100 -0.94049263 0.243928104
1104000 -0.939695 0.246440321
1115800 -0.939036011 0.249343499
1127700 -0.938043773 0.251764267
1139500 -0.937153697 0.254769384
1151300 -0.936370372 0.257138133
1163200 -0.935505151 0.260062992
1175000 -0.934571027 0.262595295
1186900 -0.933555126 0.265213698
1198700 -0.932739138 0.26793164
1210600 -0.931913793 0.270693629
1222400 -0.93070048 0.273190677
1234300 -0.929602384 0.275919258
1246143 -0.928745269 0.27853468
1257943 -0.92772144 0.280857712
1269743 -0.926801681 0.283512294
1281643 -0.925956368 0.286203056
1293443 -0.924824953 0.288752943
1305343 -0.92387396 0.291309684
1317143 -0.923061668 0.293829888
1329043 -0.921928465 0.296381324
1340843 -0.921330511 0.299018114
1352643 -0.920199573 0.301887691
1364543 -0.919396162 0.304583698
1376343 -0.918177783 0.307387292
1388243 -0.916957139 0.310070663
1400043 -0.916127026 0.312668472
1411943 -0.915088236 0.315399795
1423743 -0.914125025 0.318210691
1435543 -0.913000047 0.321086734
1447443 -0.911812245 0.323884874
1459243 -0.910731256 0.326307326
1471143 -0.90958023 0.329072386
1482943 -0.908527314 0.331739932
1494843 -0.907334744 0.334585607
1506643 -0.906288743 0.337394356
1518443 -0.904938578 0.3403261
1530343 -0.903793692 0.343091279
1542143 -0.902644336 0.345663517
1554043 -0.901270091 0.348598718
1565843 -0.900212705 0.351174116
1577743 -0.898776352 0.354127079
1589543 -0.897795557 0.356963813
1601343 -0.896223127 0.359854608
1613243 -0.894939601 0.3626163
1625043 -0.893421649 0.36526221
1636943 -0.892091155 0.36826381
1648743 -0.890872538 0.37079817
1660643 -0.889324188 0.373558163
1672443 -0.888151764 0.376234531
1684243 -0.886582016 0.37903285
1696143 -0.885263025 0.382007688
1707943 -0.883623242 0.384636491
1719843 -0.882271945 0.387486189
1731643 -0.88062942 0.390014886
1743543 -0.878986477 0.392865538
1755343 -0.877661585 0.395463645
1767143 -0.876176834 0.398146241
1779043 -0.874812066 0.400725364
1790843 -0.873342752 0.403553128
1802743 -0.872056245 0.406488507
1814543 -0.870674312 0.409260064
1826443 -0.869204938 0.41223517
1838243 -0.867659568 0.4150002
1850043 -0.866012454 0.417898327
1861943 -0.86439675 0.420864969
1873743 -0.862933099 0.423758655
1885643 -0.861265778 0.426535993
1897443 -0.859722971 0.42950347
1909343 -0.858115494 0.432177573
1921143 -0.856234073 0.435291349
1932943 -0.854714632 0.438062667
1944843 -0.852785587 0.44100663
1956643 -0.851430356 0.443934798
1968543 -0.849576354 0.446911096
1980343 -0.847843766 0.449956774
1992243 -0.846082627 0.452882498
2004043 -0.844335138 0.455919951
2015843 -0.842356145 0.458754867
2027743 -0.840376377 0.461950153
2039543 -0.838464915 0.464550584
2051443 -0.836422443 0.467704623
2063243 -0.834569096 0.470338016
2075143 -0.832708418 0.47359246
2086943 -0.830802261 0.476409167
2098743 -0.828884899 0.479375332
2110643 -0.827060163 0.482257455
2122443 -0.824889183 0.485245227
2134343 -0.8228271 0.48848468
2146143 -0.820661425 0.491242349
2158043 -0.818722963 0.494396001
2169843 -0.816400527 0.497106671
2181643 -0.814273715 0.500013232
2193543 -0.811963498 0.502916395
2205343 -0.809717893 0.5060274
2217243 -0.807642221 0.508952915
2229043 -0.805387318 0.511874794
2240943 -0.803245007 0.514760673
2252743 -0.800743579 0.517789959
2264543 -0.798700153 0.52071464
2276443 -0.796267807 0.523714542
2288243 -0.79379189 0.526967048
2300143 -0.791444957 0.529875099
2311943 -0.789136826 0.533066928
2323843 -0.786516785 0.536048412
2335643 -0.784298717 0.539158701
2347443 -0.781538605 0.542099535
2359343 -0.779025971 0.545213043
2371143 -0.776328563 0.548212826
2383043 -0.773875653 0.551361739
2394843 -0.771308839 0.554249703
2406743 -0.768464565 0.557647466
2418543 -0.765945732 0.560322999
2430443 -0.763174116 0.563651025
2442286 -0.760430932 0.566523909
2454086 -0.75790739 0.569544434
2465886 -0.755021631 0.572733879
2477786 -0.75222373 0.575766384
2489586 -0.749285936 0.578933238
2501486 -0.74646759 0.582129836
2513286 -0.743528127 0.585124015
2525186 -0.74053955 0.588429331
2536986 -0.737435519 0.59118545
2548786 -0.734578967 0.594518423
2560686 -0.731060326 0.597486913
2572486 -0.728217899 0.600547432
2584386 -0.725027322 0.603605031
2596186 -0.721953988 0.606477797
2608086 -0.718843996 0.609652101
2619886 -0.715371429 0.612981796
2631686 -0.7125144 0.616038143
2643586 -0.708852171 0.619252622
2655386 -0.705511569 0.622505009
2667286 -0.701972007 0.625690937
2679086 -0.698280155 0.628755331
2690986 -0.694796323 0.631762981
2702786 -0.691178917 0.635025382
2714586 -0.6874637 0.637689173
2726486 -0.683769285 0.640913069
2738286 -0.679957509 0.643968462
2750186 -0.676324248 0.646879792
2761986 -0.672606587 0.649946928
2773886 -0.668504238 0.652984976
2785686 -0.665091693 0.655797064
2797486 -0.661022722 0.658801913
2809386 -0.657281875 0.661860287
2821186 -0.653115391 0.664891481
2833086 -0.649320542 0.667880296
2844886 -0.645215928 0.670970618
2856786 -0.64100331 0.674043238
2868586 -0.63699609 0.677018344
2880386 -0.632861018 0.680105984
2892286 -0.628461062 0.683042764
2904086 -0.624373733 0.686196684
2915986 -0.619888842 0.689163208
2927786 -0.615528225 0.692255258
2939686 -0.610863685 0.695401489
2951486 -0.606211304 0.698380589
2963286 -0.601489901 0.70134592
2975186 -0.596725523 0.704479396
2986986 -0.591871023 0.707298398
2998886 -0.587034702 0.710297286
3010686 -0.582062423 0.712852537
3022586 -0.577149689 0.716020762
3034386 -0.572100698 0.718502581
3046186 -0.567277669 0.721517026
3058086 -0.562148034 0.724359691
3069886 -0.556839227 0.72710514
3081786 -0.551632523 0.729938566
3093586 -0.54611057 0.73268795
3105486 -0.540756404 0.735373258
3117286 -0.535407543 0.738083899
3129086 -0.52980107 0.74085325
3140986 -0.524042725 0.743334829
3152786 -0.518519282 0.746350228
3164686 -0.512564361 0.748628854
3176486 -0.507229387 0.751399815
3188386 -0.500988006 0.753821492
3200186 -0.495384424 0.756353437
3211986 -0.48906365 0.758940994
3223886 -0.482787966 0.761328041
3235686 -0.476775109 0.763559341
3247586 -0.470399498 0.766109287
3259386 -0.464548617 0.768126845
3271286 -0.457814753 0.770866215
3283086 -0.451557964 0.77270931
3294886 -0.445207625 0.775230288
3306786 -0.438077449 0.777651846
3318586 -0.431484103 0.779772222
3330486 -0.424423247 0.78209114
3342286 -0.417371034 0.783704817
3354186 -0.410768151 0.78598535
3365986 -0.402828216 0.787774205
3377786 -0.39642027 0.789176762
3389686 -0.389120399 0.791428804
3401486 -0.382012069 0.793063759
3413386 -0.374662667 0.795333147
3425186 -0.366524368 0.796928584
3437086 -0.359371662 0.798274517
3448886 -0.351250797 0.800487935
3460686 -0.342927396 0.801131308
3472586 -0.33503288 0.802864074
3484386 -0.326548457 0.803810298
3496286 -0.318935245 0.804736196
3508086 -0.310820758 0.806239366
3519986 -0.30212754 0.806520998
3531786 -0.294557034 0.80787009
3543586 -0.285395532 0.809013247
3555486 -0.276933491 0.809355854
3567286 -0.267665624 0.810521245
3579186 -0.258269369 0.80986303
3590986 -0.250047624 0.81067264
3602886 -0.240145921 0.810715496
3614686 -0.231799066 0.809860706
3626586 -0.223050311 0.810481488
3638429 -0.213833644 0.809963166
3650229 -0.205033555 0.810510098
3662029 -0.194163367 0.810447216
3673929 -0.185451641 0.809174895
3685729 -0.175684899 0.809891164
3697629 -0.164695292 0.80768156
3709429 -0.155395686 0.807231187
3721329 -0.144394233 0.805279195
3733129 -0.136229649 0.803087055
3744929 -0.126264244 0.802641749
3756829 -0.115536682 0.799858093
3768629 -0.106652483 0.798974931
3780529 -0.094679012 0.797785937
3792329 -0.084890536 0.794575214
3804229 -0.073071911 0.793785452
3816029 -0.062043722 0.788964807
3827829 -0.052485331 0.787548363
3839729 -0.039926629 0.784006595
3851529 -0.03102027 0.779329359
3863429 -0.020293522 0.776654481
3875229 -0.00925025 0.771582245
3887129 0.000711982 0.769430637
3898929 0.013991411 0.765170514
3910729 0.022765174 0.759705007
3922629 0.035606432 0.757042288
3934429 0.047340802 0.749606728
3946329 0.057490333 0.744826912
3958129 0.069535113 0.738057613
3970029 0.077999293 0.731571733
3981829 0.090127743 0.726828992
3993629 0.101715721 0.718043923
4005529 0.110779181 0.713494956
4017329 0.124377734 0.707071304
4029229 0.134059235 0.698892593
4041029 0.146711722 0.691991269
4052929 0.15704374 0.680503427
4064729 0.166093647 0.674818575
4076529 0.178463235 0.665070354
4088429 0.186062857 0.654054343
4100229 0.195731386 0.647010624
4112129 0.205836728 0.63680458
4123929 0.215426579 0.630404055
4135829 0.228897809 0.619087696
4147629 0.234230443 0.60714662
4159429 0.246798083 0.599471747
4171329 0.257899016 0.583878815
4183129 0.26545915 0.573016464
4195029 0.274350494 0.559806883
4206829 0.278857469 0.548216402
4218729 0.289837032 0.539068758
4230529 0.299551248 0.524274826
4242329 0.303105086 0.514935016
4254229 0.316658198 0.503574073
4266029 0.322274237 0.487391024
4277929 0.33230251 0.4753111
4289729 0.338461607 0.455304086
4301629 0.341673344 0.445669859
4313429 0.351015985 0.429360419
4325229 0.351357221 0.411660611
4337129 0.355862587 0.401595473
4348929 0.36255896 0.385460108
4360829 0.365553945 0.37434405
4372629 0.376936405 0.357637763
4384529 0.374041348 0.338232189
4396329 0.383369475 0.327644526
4408129 0.386985033 0.303768932
4420029 0.385972172 0.291171431
4431829 0.390857398 0.27211824
4443729 0.385031819 0.25728771
4455529 0.390710353 0.245983153
4467429 0.392231315 0.223230108
4479229 0.387419164 0.214707329
4491029 0.396964102 0.197530224
4502929 0.389688491 0.177485644
4514729 0.394238203 0.165426015
4526629 0.389953643 0.138754159
4538429 0.384430974 0.131294906
4550329 0.3887811 0.109150521
4562129 0.375274419 0.091626681
4573929 0.376544624 0.083060026
4585829 0.371809631 0.059511266
4597629 0.36406359 0.052465133
4609529 0.369214415 0.03116093
4621329 0.351203471 0.014928273
4633229 0.35718733 0.006221828
4645029 0.347025245 -0.021194718
4656829 0.337419152 -0.024705573
4668729 0.336855918 -0.045910235
4680529 0.318627029 -0.056952506
4692429 0.320647448 -0.066422
4704229 0.307432681 -0.090414367
4716129 0.29614374 -0.089890927
4727929 0.298335999 -0.111269108
4739729 0.275728702 -0.122524924
4751629 0.278133988 -0.131125465
4763429 0.258762717 -0.153533518
4775329 0.252239584 -0.150261446
4787129 0.247315019 -0.174782678
4799029 0.223932191 -0.179870322
4810829 0.226154625 -0.186966359
4822729 0.208745121 -0.207585424
4834572 0.199652791 -0.205516889
4846372 0.194163113 -0.226501613
4858172 0.169527873 -0.226859226
4870072 0.173954844 -0.236480563
4881872 0.148082137 -0.254192888
4893772 0.141359284 -0.245945379
4905572 0.132666036 -0.266034096
4917472 0.110128618 -0.262951791
4929272 0.110557205 -0.271737754
4941072 0.087026856 -0.284399509
4952972 0.081372298 -0.275786668
4964772 0.072358295 -0.297267585
4976672 0.046997498 -0.291099995
4988472 0.051840651 -0.298110663
5000372 0.023820016 -0.30992949
5012172 0.021466001 -0.299995154
5023972 0.008389189 -0.318148314
5035872 -0.01180617 -0.30737099
5047672 -0.008438566 -0.316309034
5059572 -0.035454113 -0.32289949
5071372 -0.037064027 -0.311084121
5083272 -0.047303549 -0.328877627
5095072 -0.068811871 -0.315512269
5106872 -0.063674002 -0.324479341
5118772 -0.092534102 -0.327631026
5130572 -0.088619552 -0.316333085
5142472 -0.104299336 -0.334863126
5154272 -0.122380822 -0.317606031
5166172 -0.119227811 -0.327301114
5177972 -0.147131204 -0.327791661
5189772 -0.142866685 -0.315407454
5201672 -0.158128127 -0.331707924
5213472 -0.174550488 -0.312000483
5225372 -0.166525959 -0.322397232
5237172 -0.195288985 -0.321576207
5249072 -0.18548958 -0.310879707
5260872 -0.204971522 -0.327324181
5272672 -0.216525167 -0.306035965
5284572 -0.21350193 -0.320233196
5296372 -0.242059499 -0.313312649
5308272 -0.232856109 -0.30231148
5320072 -0.251074045 -0.314322769
5331972 -0.260269641 -0.290202587
5343772 -0.255373626 -0.304877191
5355572 -0.282265543 -0.295973002
5367472 -0.267832219 -0.287699103
5379272 -0.289616018 -0.302011221
5391172 -0.296055763 -0.278579473
5402972 -0.295351058 -0.29339385
5414872 -0.320645004 -0.281100928
5426672 -0.307506293 -0.274552494
5438472 -0.329508274 -0.283374309
5450372 -0.331785023 -0.258529096
5462172 -0.32914856 -0.273858666
5474072 -0.352102696 -0.260617017
5485872 -0.337569117 -0.256020992
5497772 -0.358581155 -0.263093262
5509572 -0.358129352 -0.240520924
5521372 -0.358968377 -0.257319808
5533272 -0.381425261 -0.239882782
5545072 -0.365473479 -0.234744206
5556972 -0.385806143 -0.242054343
5568772 -0.385800957 -0.219130709
5580672 -0.385910183 -0.233371779
5592472 -0.405271023 -0.216989383
5604272 -0.386911273 -0.214107513
5616172 -0.410293281 -0.222494781
5627972 -0.408954709 -0.197015672
5639872 -0.406392276 -0.211933001
5651672 -0.425605863 -0.196366935
5663572 -0.408666104 -0.194205209
5675372 -0.431840211 -0.198641195
5687172 -0.425686806 -0.172388613
5699072 -0.422759473 -0.193453267
5710872 -0.444404602 -0.175124496
5722772 -0.425045996 -0.172162801
5734572 -0.447669774 -0.176149681
5746472 -0.437875449 -0.15218459
5758272 -0.441682249 -0.17345865
5770072 -0.460366576 -0.148044347
5781972 -0.435659438 -0.148791462
5793772 -0.46005854 -0.153556287
5805672 -0.448614299 -0.131455063
5817472 -0.454371035 -0.150185987
5829372 -0.467008799 -0.124242328
5841172 -0.444518715 -0.133467555
5852972 -0.47412756 -0.133425936
5864872 -0.459038972 -0.109135292
5876672 -0.46424359 -0.129020407
5888572 -0.473723411 -0.103370577
5900372 -0.455810904 -0.11482498
5912272 -0.48236382 -0.108017198
5924072 -0.460604459 -0.088325306
5935872 -0.469480216 -0.111253701
5947772 -0.479290992 -0.083970397
5959572 -0.461427778 -0.094391442
5971472 -0.484671682 -0.086709633
5983272 -0.463186055 -0.072459869
5995172 -0.477804034 -0.091111257
6006972 -0.481566339 -0.061851315
6018872 -0.462509334 -0.07588534
6030715 -0.485992282 -0.067321971
6042515 -0.465534627 -0.056722652
6054315 -0.480638056 -0.069693319
6066215 -0.477154374 -0.043742425
6078015 -0.465232402 -0.062920019
6089915 -0.487269848 -0.048844166
6101715 -0.464010804 -0.039577547
6113615 -0.478247195 -0.052778154
6125415 -0.473725199 -0.031139494
6137215 -0.466996848 -0.048059504
6149115 -0.48284173 -0.03086218
6160915 -0.460024178 -0.028853634
6172815 -0.47811976 -0.039436373
6184615 -0.472337812 -0.017360068
6196515 -0.464471518 -0.031638134
6208315 -0.475897908 -0.018286311
6220115 -0.458109915 -0.019243536
6232015 -0.474828451 -0.02440517
6243815 -0.464480876 -0.005828454
6255715 -0.459515631 -0.023402115
6267515 -0.471804171 -0.011343064
6279415 -0.457208007 -0.010112314
6291215 -0.469454586 -0.013971323
6303015 -0.460090935 -0.000429358
6314915 -0.458743304 -0.015715135
6326715 -0.468852579 -0.001166761
6338615 -0.450580686 -0.001697988
6350415 -0.461992323 -0.008404726
6362315 -0.455727338 0.002732462
6374115 -0.45485115 -0.008724035
6385915 -0.460933953 0.003700934
6397815 -0.446075856 -0.000673525
6409615 -0.460710883 -0.005647939
6421515 -0.454105824 0.008760771
6433315 -0.451044738 -0.002724707
6445215 -0.456611365 0.006771781
6457015 -0.445617049 0.002410117
6468815 -0.457798153 0.001454473
6480715 -0.448184609 0.011884979
6492515 -0.448189884 -0.001414219
6504415 -0.455364793 0.008290375
6516215 -0.445720583 0.005691087
6528115 -0.454590767 0.005979024
6539915 -0.446349859 0.012047497
6551715 -0.449815422 0.00285874
6563615 -0.452868938 0.01376273
6575415 -0.443580716 0.010340536
6587315 -0.450879633 0.009121443
6599115 -0.446235895 0.014294366
6611015 -0.448471963 0.009820738
6622815 -0.448730826 0.016544345
6634615 -0.443741142 0.013111114
6646515 -0.449909716 0.01362296
6658315 -0.446181714 0.019493957
6670215 -0.444646209 0.015949428
6682015 -0.446696162 0.018783243
6693915 -0.443028897 0.019019277
6705715 -0.445164918 0.01832892
6717515 -0.443061619 0.022406985
6729415 -0.440703034 0.018449921
6741215 -0.445519536 0.01993048
6753115 -0.440401881 0.023522054
6764915 -0.441164255 0.019266974
6776815 -0.442115575 0.024814404
6788615 -0.437541395 0.02166857
6800415 -0.443225771 0.022693648
6812315 -0.435906022 0.026928525
6824115 -0.437396138 0.018983636
6836015 -0.440646708 0.027365388
6847815 -0.432976156 0.023054225
6859715 -0.441046535 0.022798031
6871515 -0.433274388 0.027267917
6883315 -0.437037676 0.018767222
6895215 -0.438902884 0.03007603
6907015 -0.429704755 0.022505875
6918915 -0.440883249 0.022940985
6930715 -0.430493026 0.028287282
6942615 -0.435418844 0.018646148
6954415 -0.43563506 0.030141092
6966215 -0.427811205 0.019465604
6978115 -0.441026777 0.023224351
6989915 -0.427672863 0.02752082
7001815 -0.435274302 0.016627877
7013615 -0.434705913 0.029726477
7025515 -0.42874369 0.017972338
7037315 -0.440299302 0.024814184
7049115 -0.425782233 0.025622762
7061015 -0.436900913 0.015557248
7072815 -0.433479398 0.02984089
7084715 -0.428999662 0.015963422
7096515 -0.440182715 0.024064766
7108415 -0.426708251 0.022107908
7120215 -0.4394975 0.015622456
7132015 -0.433118343 0.028758173
7143915 -0.431338071 0.014050043
7155715 -0.441576808 0.0240486
7167615 -0.428058952 0.021063189
7179415 -0.44053629 0.016220267
7191315 -0.43285197 0.026707129
7203115 -0.434352606 0.013115366
7215015 -0.441783398 0.024374898
7226858 -0.430004358 0.019002119
7238658 -0.442715555 0.015786396
7250458 -0.435582369 0.025484228
7262358 -0.437188148 0.013784812
