# Hz S RI R 50
50000 0.995700001 -0.045991301
61800 0.995831847 -0.05815478
73600 0.994237422 -0.07032039
85500 0.992367506 -0.082890935
97300 0.988639891 -0.097033448
109200 0.978980243 -0.10833539
121000 0.974957406 -0.112220503
132900 0.973751723 -0.119460158
144700 0.975344538 -0.128396958
156500 0.975298643 -0.142577573
168400 0.971517264 -0.158984795
180200 0.96202892 -0.175327792
192100 0.949498832 -0.193080902
203900 0.92564243 -0.20385006
215800 0.89530003 -0.200732961
227600 0.883213877 -0.145591795
239400 0.910994708 -0.141611561
251300 0.932003915 -0.148361995
263100 0.944627285 -0.163947239
275000 0.946783065 -0.185424521
286800 0.940536856 -0.205251306
298700 0.933268308 -0.217051938
310500 0.921777307 -0.220919013
322300 0.919868052 -0.223124682
334200 0.923220038 -0.226244971
346000 0.924364089 -0.231278866
357900 0.922778487 -0.246129512
369700 0.921123027 -0.263524532
381600 0.906349778 -0.275521725
393400 0.896568298 -0.278149247
405200 0.880987823 -0.28171575
417100 0.865155518 -0.269443958
428900 0.861720144 -0.253750354
440800 0.884609162 -0.246410146
452600 0.890120625 -0.244308203
464500 0.907865047 -0.255342751
476300 0.918072402 -0.272462308
488100 0.92073971 -0.286910742
500000 0.922163009 -0.299726933
511800 0.921095609 -0.313008785
523700 0.918788433 -0.32522875
535500 0.916791141 -0.337595105
547400 0.912469863 -0.34795767
559200 0.909707367 -0.357720643
571000 0.906448245 -0.368455916
582900 0.902859091 -0.378502845
594700 0.898957967 -0.388492584
606600 0.894747316 -0.398667782
618400 0.889983832 -0.408617585
630300 0.884825766 -0.417969524
642100 0.879389464 -0.427239626
653900 0.873041331 -0.435825735
665800 0.866574943 -0.445353716
677600 0.859674036 -0.45427981
689500 0.852254211 -0.46327582
701300 0.844350814 -0.471304327
713200 0.836953878 -0.479291349
725000 0.828259587 -0.487234473
736800 0.818075954 -0.493495821
748700 0.803121805 -0.499706745
760500 0.79040116 -0.501107454
772400 0.777434647 -0.500077426
784200 0.761744618 -0.491985321
796100 0.7540102 -0.482036918
807900 0.757650196 -0.466550409
819700 0.761793255 -0.462812185
831600 0.773810386 -0.461116045
843400 0.78266257 -0.463798463
855300 0.795673727 -0.472310721
867100 0.797614991 -0.484457969
879000 0.802467226 -0.492510318
890800 0.802634656 -0.50601077
902600 0.802835464 -0.516268908
914500 0.800527215 -0.527182936
926300 0.797765851 -0.53707087
938200 0.793832063 -0.547650575
950000 0.78980118 -0.55726397
961900 0.785364091 -0.566843867
973700 0.779662847 -0.576521158
985500 0.77408415 -0.583942472
997400 0.769060015 -0.59221363
1009200 0.762728154 -0.599199891
1021100 0.757395386 -0.606577277
1032900 0.751865446 -0.614248991
1044800 0.74607402 -0.621129155
1056600 0.740815818 -0.628166019
1068400 0.734368622 -0.635259687
1080300 0.728832542 -0.641936719
1092100 0.72228831 -0.64919579
1104000 0.715684771 -0.65533185
1115800 0.709013104 -0.662186086
1127700 0.701568722 -0.66796714
1139500 0.694717288 -0.674450933
1151300 0.68687582 -0.680150985
1163200 0.679066836 -0.685052692
1175000 0.671123385 -0.690367877
1186900 0.662108957 -0.694991469
1198700 0.653568089 -0.698106169
1210600 0.644907712 -0.700873076
1222400 0.636622965 -0.70172882
1234300 0.62996602 -0.703160881
1246143 0.622519671 -0.702986061
1257943 0.619191229 -0.702528536
1269743 0.613189637 -0.702268064
1281643 0.613196134 -0.703124582
1293443 0.608190178 -0.705441117
1305343 0.606883466 -0.706485569
1317143 0.604723393 -0.710556089
1329043 0.603434205 -0.712008774
1340843 0.603158116 -0.718419611
1352643 0.599836766 -0.723702788
1364543 0.597884416 -0.72967112
1376343 0.593364894 -0.736396253
1388243 0.590000689 -0.741451799
1400043 0.585793554 -0.74783653
1411943 0.580212175 -0.753406524
1423743 0.575530409 -0.759428679
1435543 0.569847524 -0.765223264
1447443 0.56430149 -0.770079314
1459243 0.559110403 -0.77579683
1471143 0.552904069 -0.781013786
1482943 0.547142326 -0.786011457
1494843 0.540894448 -0.791157126
1506643 0.534881293 -0.796298742
1518443 0.528013348 -0.80097717
1530343 0.521718204 -0.805218636
1542143 0.515156805 -0.809857189
1554043 0.507969439 -0.8139683
1565843 0.501202821 -0.818279445
1577743 0.49385029 -0.821866929
1589543 0.487033545 -0.825695693
1601343 0.479835093 -0.829170823
1613243 0.472697228 -0.832460999
1625043 0.465453952 -0.835727095
1636943 0.457844287 -0.838423728
1648743 0.450576335 -0.840786397
1660643 0.44300428 -0.842948496
1672443 0.435930997 -0.844505131
1684243 0.428717732 -0.846353769
1696143 0.421821504 -0.846808016
1707943 0.41602993 -0.847602903
1719843 0.409644812 -0.847653567
1731643 0.40526688 -0.848152756
1743543 0.399819225 -0.849038362
1755343 0.396334528 -0.849782109
1767143 0.392411112 -0.852065563
1779043 0.388584047 -0.853706002
1790843 0.384735614 -0.856397211
1802743 0.380400061 -0.859779119
1814543 0.376161694 -0.862943649
1826443 0.371186524 -0.866743385
1838243 0.365954011 -0.87020868
1850043 0.36048761 -0.873393058
1861943 0.354919612 -0.876683533
1873743 0.348689556 -0.880213022
1885643 0.342400997 -0.883031189
1897443 0.336418777 -0.886132657
1909343 0.330296546 -0.888677835
1921143 0.324107766 -0.891457974
1932943 0.31760925 -0.893737614
1944843 0.31130281 -0.896187067
1956643 0.304925143 -0.898282885
1968543 0.298587083 -0.900374948
1980343 0.292581051 -0.902722418
1992243 0.285965234 -0.9048146
2004043 0.27960661 -0.906529426
2015843 0.27300477 -0.908753693
2027743 0.26651296 -0.910174071
2039543 0.260385781 -0.912081539
2051443 0.253918677 -0.914204597
2063243 0.247114688 -0.915162086
2075143 0.2407732 -0.916829705
2086943 0.234266668 -0.918147742
2098743 0.22788994 -0.919188797
2110643 0.221230104 -0.920711159
2122443 0.215106397 -0.920903265
2134343 0.208780214 -0.922273099
2146143 0.202231734 -0.922590434
2158043 0.196678221 -0.923399269
2169843 0.190127015 -0.924239635
2181643 0.184980526 -0.924153864
2193543 0.178831994 -0.925681412
2205343 0.172707423 -0.92586112
2217243 0.167557969 -0.926944434
2229043 0.160834565 -0.927778899
2240943 0.15557678 -0.927867174
2252743 0.149489343 -0.92930144
2264543 0.143304422 -0.929107904
2276443 0.137996822 -0.930233359
2288243 0.131592959 -0.930667996
2300143 0.126282125 -0.930524468
2311943 0.120082326 -0.931853353
2323843 0.11449518 -0.931703329
2335643 0.10899011 -0.932780861
2347443 0.10263887 -0.93318665
2359343 0.097311861 -0.932886302
2371143 0.091127365 -0.933859467
2383043 0.085151627 -0.933745443
2394843 0.079644568 -0.934405684
2406743 0.073359541 -0.9346776
2418543 0.068184956 -0.934315323
2430443 0.06199089 -0.935099244
2442286 0.055874813 -0.934363305
2454086 0.050873231 -0.934969842
2465886 0.044449742 -0.934892535
2477786 0.039207872 -0.934230685
2489586 0.033101648 -0.934827685
2501486 0.027368711 -0.93375194
2513286 0.022260634 -0.934103906
2525186 0.01615188 -0.933584094
2536986 0.011152355 -0.93304193
2548786 0.005533813 -0.933337688
2560686 -5.351e-05 -0.932511329
2572486 -0.005152596 -0.932911396
2584386 -0.011191979 -0.93263626
2596186 -0.016421882 -0.932154357
2608086 -0.022416459 -0.93224883
2619886 -0.027883872 -0.93142414
2631686 -0.033274963 -0.93133372
2643586 -0.039471056 -0.930826425
2655386 -0.044900149 -0.929924488
2667286 -0.050643716 -0.929421305
2679086 -0.056286096 -0.92840445
2690986 -0.061493322 -0.927492916
2702786 -0.0674875 -0.92667967
2714586 -0.072519466 -0.92528975
2726486 -0.078306466 -0.924567282
2738286 -0.083621978 -0.923132181
2750186 -0.088471069 -0.922137677
2761986 -0.09400241 -0.920907437
2773886 -0.098572313 -0.919283866
2785686 -0.103505291 -0.918696165
2797486 -0.108720533 -0.917205929
2809386 -0.112855948 -0.916276156
2821186 -0.118140764 -0.915270745
2833086 -0.122671291 -0.91446942
2844886 -0.128044784 -0.913610875
2856786 -0.13298352 -0.912382543
2868586 -0.137400239 -0.911280214
2880386 -0.142438501 -0.910723567
2892286 -0.147307008 -0.909428119
2904086 -0.152030512 -0.908613622
2915986 -0.157276928 -0.907395422
2927786 -0.161885008 -0.906298696
2939686 -0.167300254 -0.905503571
2951486 -0.172115489 -0.903918445
2963286 -0.177154287 -0.903097867
2975186 -0.182527855 -0.901679754
2986986 -0.18711014 -0.900054752
2998886 -0.192154124 -0.89880222
3010686 -0.197001263 -0.897032618
3022586 -0.201872214 -0.895528733
3034386 -0.20660676 -0.8938542
3046186 -0.210865944 -0.892428398
3058086 -0.215987414 -0.89115709
3069886 -0.220811754 -0.889374136
3081786 -0.225348353 -0.887808024
3093586 -0.229991406 -0.886316001
3105486 -0.23452717 -0.884343326
3117286 -0.238942116 -0.882844865
3129086 -0.243768215 -0.880860388
3140986 -0.247777283 -0.879026234
3152786 -0.252411067 -0.877771914
3164686 -0.256808102 -0.875905096
3176486 -0.261037796 -0.874728977
3188386 -0.265888839 -0.872644901
3200186 -0.269491702 -0.871106743
3211986 -0.274582177 -0.869547128
3223886 -0.27855575 -0.867036938
3235686 -0.283049911 -0.865769267
3247586 -0.287730485 -0.863561809
3259386 -0.291254103 -0.862152397
3271286 -0.296215742 -0.860579729
3283086 -0.299856334 -0.858302533
3294886 -0.304166764 -0.857177376
3306786 -0.309384465 -0.854960322
3318586 -0.313113331 -0.853268802
3330486 -0.317988425 -0.851294517
3342286 -0.321597129 -0.848711431
3354186 -0.326081335 -0.847491919
3365986 -0.330723345 -0.844543933
3377786 -0.333596616 -0.842712283
3389686 -0.338137775 -0.841189682
3401486 -0.341633588 -0.838984251
3413386 -0.346453845 -0.837851285
3425186 -0.351017236 -0.834986984
3437086 -0.354104995 -0.833295345
3448886 -0.359226286 -0.831519663
3460686 -0.363261073 -0.828711867
3472586 -0.36737886 -0.826607882
3484386 -0.371338039 -0.823810577
3496286 -0.374285131 -0.821963489
3508086 -0.378874748 -0.820401549
3519986 -0.382281064 -0.817372739
3531786 -0.386017233 -0.816038191
3543586 -0.390619516 -0.813807547
3555486 -0.394071489 -0.811433672
3567286 -0.398942232 -0.808931291
3579186 -0.402712851 -0.805705785
3590986 -0.406175941 -0.804173827
3602886 -0.410764038 -0.801156163
3614686 -0.413109332 -0.798518538
3626586 -0.416945099 -0.79670757
3638429 -0.420192003 -0.793950378
3650229 -0.423680216 -0.792691648
3662029 -0.428682714 -0.789561212
3673929 -0.43123576 -0.787268817
3685729 -0.435830324 -0.785816907
3697629 -0.439690232 -0.781818449
3709429 -0.443028897 -0.780115842
3721329 -0.447244644 -0.776769042
3733129 -0.449052423 -0.77415961
3744929 -0.452856242 -0.772484898
3756829 -0.456191122 -0.768714725
3768629 -0.459025412 -0.767769336
3780529 -0.463899374 -0.765131652
3792329 -0.466708689 -0.762395858
3804229 -0.471422791 -0.760340094
3816029 -0.474596083 -0.756442964
3827829 -0.477589577 -0.7550233
3839729 -0.482098609 -0.751635015
3851529 -0.483914375 -0.748638927
3863429 -0.487474024 -0.74655354
3875229 -0.490447014 -0.743010222
3887129 -0.493521094 -0.7419582
3898929 -0.498366773 -0.738506436
3910729 -0.500003874 -0.735784292
3922629 -0.504635512 -0.733823001
3934429 -0.507900238 -0.729575276
3946329 -0.510636091 -0.727354168
3958129 -0.514421403 -0.724001288
3970029 -0.515818119 -0.721057236
3981829 -0.519946992 -0.718760371
3993629 -0.522941291 -0.714826226
4005529 -0.525194942 -0.713674724
4017329 -0.529866874 -0.710629284
4029229 -0.53201723 -0.707535088
4041029 -0.536125302 -0.704782724
4052929 -0.538587987 -0.700170636
4064729 -0.540996909 -0.698854744
4076529 -0.544933617 -0.694778859
4088429 -0.54619354 -0.691296696
4100229 -0.548833012 -0.689425289
4112129 -0.55141735 -0.686011791
4123929 -0.554091453 -0.684865772
4135829 -0.558567821 -0.681151509
4147629 -0.559449613 -0.677805066
4159429 -0.563347876 -0.676240324
4171329 -0.567149817 -0.671201467
4183129 -0.569213747 -0.668604075
4195029 -0.572112858 -0.664624452
4206829 -0.572802305 -0.661717951
4218729 -0.576241075 -0.660273134
4230529 -0.579245626 -0.656131029
4242329 -0.580069124 -0.654569864
4254229 -0.585103452 -0.652214288
4266029 -0.586657583 -0.648638784
4277929 -0.590459406 -0.646128952
4289729 -0.593173563 -0.640717566
4301629 -0.594322681 -0.639090359
4313429 -0.598254561 -0.635358452
4325229 -0.59893608 -0.630679547
4337129 -0.600610971 -0.629146933
4348929 -0.603529632 -0.625694155
4360829 -0.604822218 -0.623952567
4372629 -0.609820246 -0.621285736
4384529 -0.610560178 -0.616288781
4396329 -0.613965392 -0.615582168
4408129 -0.617508471 -0.610139608
4420029 -0.618347704 -0.607591271
4431829 -0.622377455 -0.603793621
4443729 -0.621884942 -0.599762737
4455529 -0.624673664 -0.598719894
4467429 -0.627683579 -0.593727827
4479229 -0.627225995 -0.591841697
4491029 -0.632093548 -0.590248048
4502929 -0.632852852 -0.585204184
4514729 -0.635879933 -0.583932399
4526629 -0.639320254 -0.577731966
4538429 -0.638993799 -0.575942933
4550329 -0.644000351 -0.572745621
4562129 -0.643630206 -0.566938757
4573929 -0.645552694 -0.566371858
4585829 -0.648585975 -0.560915648
4597629 -0.648231446 -0.559153974
4609529 -0.653819203 -0.556476414
4621329 -0.652670264 -0.550666213
4633229 -0.656243741 -0.551146745
4645029 -0.659493923 -0.544286608
4656829 -0.65844053 -0.54266715
4668729 -0.663036286 -0.539350211
4680529 -0.661701798 -0.534269988
4692429 -0.664641618 -0.533808469
4704229 -0.667729318 -0.526836156
4716129 -0.665934681 -0.525579631
4727929 -0.671512722 -0.523344933
4739729 -0.670268416 -0.516766846
4751629 -0.673158407 -0.517219364
4763429 -0.675847291 -0.5094859
4775329 -0.67455101 -0.509191811
4787129 -0.680284678 -0.505197167
4799029 -0.678154885 -0.499114036
4810829 -0.680743813 -0.499841928
4822729 -0.683956503 -0.492815166
4834572 -0.68245387 -0.492055416
4846372 -0.687950849 -0.488727867
4858172 -0.685373485 -0.482431888
4870072 -0.68897134 -0.483531624
4881872 -0.691862404 -0.474486231
4893772 -0.688638448 -0.474166661
4905572 -0.694494068 -0.470364123
4917472 -0.69171071 -0.464211314
4929272 -0.694368898 -0.464639514
4941072 -0.69678384 -0.456750243
4952972 -0.693957209 -0.456958025
4964772 -0.700596809 -0.452955931
4976672 -0.697359263 -0.445902019
4988472 -0.700396358 -0.447837889
5000372 -0.702731668 -0.438125848
5012172 -0.700057506 -0.438801854
5023972 -0.705796539 -0.433946669
5035872 -0.701262116 -0.428312093
5047672 -0.705206155 -0.429722964
5059572 -0.706617414 -0.420419961
5071372 -0.703298091 -0.420947521
5083272 -0.709572613 -0.417216688
5095072 -0.7046929 -0.410956829
5106872 -0.708976089 -0.412702351
5118772 -0.709673821 -0.402068883
5130572 -0.706142425 -0.404668271
5142472 -0.713405013 -0.399269312
5154272 -0.707587778 -0.393151819
5166172 -0.712010204 -0.394579112
5177972 -0.71304214 -0.38454765
5189772 -0.709143579 -0.386352449
5201672 -0.716226637 -0.381280899
5213472 -0.709241926 -0.374681442
5225372 -0.71378833 -0.378217101
5237172 -0.714909791 -0.36694172
5249072 -0.710557222 -0.370693504
5260872 -0.718446254 -0.364615172
5272672 -0.710979342 -0.359186828
5284572 -0.717605292 -0.361365556
5296372 -0.717001914 -0.349218398
5308272 -0.712842524 -0.3529554
5320072 -0.71993339 -0.346040517
5331972 -0.710943102 -0.340455085
5343772 -0.717209637 -0.343050301
5355572 -0.716050624 -0.331285148
5367472 -0.71222645 -0.337167978
5379272 -0.720598757 -0.329094231
5391172 -0.711414098 -0.32441166
5402972 -0.718567788 -0.326438903
5414872 -0.716911196 -0.314060509
5426672 -0.713780283 -0.319319069
5438472 -0.720499098 -0.310350149
5450372 -0.710126817 -0.306252807
5462172 -0.71725881 -0.309206008
5474072 -0.71514064 -0.296541452
5485872 -0.711067199 -0.302771389
5497772 -0.717939376 -0.294213563
5509572 -0.708070516 -0.291036576
5521372 -0.71636188 -0.293098151
5533272 -0.713102281 -0.279522687
5545072 -0.708683729 -0.28609693
5556972 -0.716132462 -0.277427494
5568772 -0.705640137 -0.273307561
5580672 -0.713111579 -0.275374352
5592472 -0.709055662 -0.262632101
5604272 -0.705114781 -0.271077126
5616172 -0.71383506 -0.261375606
5627972 -0.701669573 -0.256968408
5639872 -0.709627807 -0.260272413
5651672 -0.705441355 -0.247300595
5663572 -0.702363967 -0.255401432
5675372 -0.709697246 -0.243931978
5687172 -0.69519484 -0.241770207
5699072 -0.705720782 -0.24643062
5710872 -0.701002895 -0.231539577
5722772 -0.696785211 -0.240380272
5734572 -0.704004466 -0.229070439
5746472 -0.689537644 -0.228804305
5758272 -0.7025038 -0.230948731
5770072 -0.694249033 -0.21428132
5781972 -0.689469039 -0.226769208
5793772 -0.69781959 -0.214367613
5805672 -0.683306813 -0.214937046
5817472 -0.695431947 -0.21579957
5829372 -0.684851169 -0.201575547
5841172 -0.684788525 -0.216014802
5852972 -0.692782223 -0.199776306
5864872 -0.676184952 -0.201396733
5876672 -0.689029216 -0.202563449
5888572 -0.677286803 -0.189313918
5900372 -0.679845452 -0.202552273
5912272 -0.683497548 -0.184576973
5924072 -0.666459798 -0.191461846
5935872 -0.682132005 -0.190872341
5947772 -0.668922126 -0.177739575
5959572 -0.67146784 -0.190238803
5971472 -0.673265397 -0.173258095
5983272 -0.659395515 -0.182471454
5995172 -0.675207495 -0.176999032
6006972 -0.658362507 -0.165868058
6018872 -0.663196384 -0.180068135
6030715 -0.664000153 -0.162790775
6042515 -0.651980102 -0.172117531
6054315 -0.664858996 -0.165013283
6066215 -0.647479891 -0.158544853
6078015 -0.655684947 -0.17138639
6089915 -0.654516994 -0.152933865
6101715 -0.64167118 -0.163400381
6113615 -0.654210805 -0.157706066
6125415 -0.639044582 -0.153309345
6137215 -0.647770345 -0.162145033
6149115 -0.64257729 -0.145708814
6160915 -0.633195996 -0.158981487
6172815 -0.645954847 -0.150759309
6184615 -0.630442023 -0.145876035
6196515 -0.636844456 -0.154822722
6208315 -0.631607711 -0.142311751
6220115 -0.626444876 -0.154224857
6232015 -0.635515451 -0.144162833
6243815 -0.61931926 -0.143859133
6255715 -0.628593266 -0.152814939
6267515 -0.624877393 -0.140761256
6279415 -0.619635224 -0.149929776
6291215 -0.625728487 -0.142030656
6303015 -0.613139092 -0.144410625
6314915 -0.623432874 -0.149621129
6326715 -0.616715729 -0.137159153
6338615 -0.610364437 -0.149212181
6350415 -0.617902934 -0.143505632
6362315 -0.60798186 -0.144427567
6374115 -0.615974724 -0.147827938
6385915 -0.608295559 -0.138991609
6397815 -0.606569349 -0.151309221
6409615 -0.614661097 -0.142508193
6421515 -0.602961897 -0.141809076
6433315 -0.60957241 -0.14650166
6445215 -0.604022979 -0.139367729
6457015 -0.603865265 -0.148572444
6468815 -0.608483493 -0.139350101
6480715 -0.597329258 -0.142236605
6492515 -0.606075882 -0.146357178
6504415 -0.601855635 -0.138279363
6516215 -0.601008951 -0.145012661
6528115 -0.603433191 -0.137748613
6539915 -0.595824897 -0.140917778
6551715 -0.60370326 -0.141764178
6563615 -0.597298562 -0.134548202
6575415 -0.596050202 -0.141254216
6587315 -0.598628938 -0.136340871
6599115 -0.593472838 -0.137268707
6611015 -0.597364544 -0.137096554
6622815 -0.592610418 -0.133030354
6634615 -0.592853963 -0.137753561
6646515 -0.594991624 -0.132863029
6658315 -0.589375555 -0.132339417
6670215 -0.591077387 -0.134168133
6682015 -0.589484751 -0.131190434
6693915 -0.587940514 -0.1332971
6705715 -0.589004695 -0.131200015
6717515 -0.584618687 -0.130624622
6729415 -0.586448967 -0.133825331
6741215 -0.587036073 -0.129076272
6753115 -0.582407295 -0.130810469
6764915 -0.585155844 -0.131520703
6776815 -0.581421315 -0.128423631
6788615 -0.581945419 -0.132268011
6800415 -0.582773685 -0.127102777
6812315 -0.576559662 -0.130574017
6824115 -0.582813918 -0.131943672
6836015 -0.577490627 -0.126527652
6847815 -0.578071832 -0.132925763
6859715 -0.580299675 -0.126875489
6871515 -0.574238479 -0.13110882
6883315 -0.582060933 -0.130674734
6895215 -0.57406032 -0.125182002
6907015 -0.576187312 -0.133748903
6918915 -0.578923463 -0.125454068
6930715 -0.571659266 -0.130982682
6942615 -0.580341041 -0.129964485
6954415 -0.570994079 -0.126006022
6966215 -0.576033294 -0.134812012
6978115 -0.577662587 -0.123945944
6989915 -0.570067286 -0.131875291
7001815 -0.580098092 -0.129330575
7013615 -0.57015115 -0.125646978
7025515 -0.576463758 -0.133639425
7037315 -0.575589895 -0.122412383
7049115 -0.569480717 -0.132306963
7061015 -0.580265045 -0.127606913
7072815 -0.568739831 -0.124994091
7084715 -0.576670765 -0.132820487
7096515 -0.57501769 -0.121915571
7108415 -0.57108283 -0.132116928
7120215 -0.58026731 -0.125452518
7132015 -0.568643569 -0.124914348
7143915 -0.577980041 -0.131342828
7155715 -0.574976861 -0.12005373
