# Hz S RI R 50
50000 -0.983253955 0.020242765
61800 -0.981344759 0.025277299
73600 -0.981031 0.030815109
85500 -0.980897843 0.036062512
97300 -0.980487525 0.040974535
109200 -0.979967415 0.046131327
121000 -0.979584693 0.051224373
132900 -0.979182064 0.056240819
144700 -0.979342043 0.061311632
156500 -0.978309988 0.066214449
168400 -0.977714896 0.071004338
180200 -0.976880967 0.075947284
192100 -0.976716637 0.080633565
203900 -0.976040363 0.08553788
215800 -0.975404262 0.090477399
227600 -0.974708676 0.095175139
239400 -0.974238932 0.099917411
251300 -0.973306357 0.10476157
263100 -0.97295773 0.109397046
275000 -0.971994757 0.114333145
286800 -0.971306681 0.118762843
298700 -0.970419585 0.123533494
310500 -0.969629466 0.128240436
322300 -0.968866229 0.133079171
334200 -0.967815279 0.137408986
346000 -0.967115283 0.142185613
357900 -0.966211318 0.146914556
369700 -0.965561747 0.151495561
381600 -0.964516758 0.156078159
393400 -0.963421165 0.160698652
405200 -0.962786674 0.16541858
417100 -0.96168065 0.16988939
428900 -0.960537016 0.174367591
440800 -0.959823966 0.179007872
452600 -0.958602905 0.183689653
464500 -0.957527458 0.188080772
476300 -0.956526279 0.192553877
488100 -0.955231368 0.197245851
500000 -0.954427063 0.201650053
511800 -0.953300356 0.206191629
523700 -0.952102482 0.210716709
535500 -0.95095086 0.215261086
547400 -0.949846386 0.219693183
559200 -0.948603153 0.224247306
571000 -0.947323977 0.228772833
582900 -0.946181058 0.233348727
594700 -0.944826781 0.237626299
606600 -0.943636476 0.242210641
618400 -0.942286312 0.246608629
630300 -0.941087365 0.251033544
642100 -0.939465701 0.255602389
653900 -0.938185155 0.260031312
665800 -0.936684787 0.264457285
677600 -0.935395896 0.268709719
689500 -0.933819651 0.273262768
701300 -0.932498633 0.277562499
713200 -0.931201815 0.281891852
725000 -0.929550707 0.286123842
736800 -0.928046882 0.290560454
748700 -0.926415622 0.295061618
760500 -0.924753904 0.29921478
772400 -0.923112154 0.303616791
784200 -0.921523511 0.307876616
796100 -0.919968605 0.312270641
807900 -0.918391287 0.316185146
819700 -0.916772365 0.320559859
831600 -0.915136456 0.324741721
843400 -0.913691699 0.32887125
855300 -0.912017285 0.333438605
867100 -0.910210251 0.337431609
879000 -0.908646047 0.341831803
890800 -0.906919717 0.346017926
902600 -0.905310392 0.350334495
914500 -0.903318643 0.354788005
926300 -0.901689708 0.35855931
938200 -0.899948477 0.36288318
950000 -0.897993505 0.367136597
961900 -0.896333336 0.37148416
973700 -0.894209206 0.375512987
985500 -0.89236015 0.379873156
997400 -0.890577435 0.383996307
1009200 -0.888616979 0.388038307
1021100 -0.886497974 0.39233911
1032900 -0.88452363 0.39639154
1044800 -0.882667422 0.400443315
1056600 -0.880443513 0.404611319
1068400 -0.878573656 0.408742159
1080300 -0.876585781 0.412838995
1092100 -0.874403119 0.416906267
1104000 -0.872319936 0.421119838
1115800 -0.870126545 0.425102591
1127700 -0.868100821 0.428966313
1139500 -0.86574912 0.433266907
1151300 -0.863642334 0.43718481
1163200 -0.861496567 0.441390544
1175000 -0.859301388 0.445232421
1186900 -0.856801927 0.449127346
1198700 -0.854677915 0.453294873
1210600 -0.852416753 0.457227587
1222400 -0.850010812 0.461102664
1234300 -0.847539603 0.46517685
1246143 -0.845368862 0.468979686
1257943 -0.843047142 0.472775548
1269743 -0.840827047 0.4766092
1281643 -0.838200151 0.480319529
1293443 -0.836107313 0.483988225
1305343 -0.8339383 0.488058388
1317143 -0.831299006 0.491894692
1329043 -0.828745424 0.495655626
1340843 -0.826509058 0.499478399
1352643 -0.824205994 0.503322243
1364543 -0.821911275 0.507336914
1376343 -0.819289207 0.511147439
1388243 -0.816591322 0.514946639
1400043 -0.814175546 0.518639504
1411943 -0.811713337 0.522379755
1423743 -0.809151053 0.526253581
1435543 -0.806344032 0.53005582
1447443 -0.803927302 0.533726513
1459243 -0.801387846 0.537438631
1471143 -0.798767626 0.541332423
1482943 -0.796005308 0.545137822
1494843 -0.79309988 0.548592448
1506643 -0.790662825 0.552342593
1518443 -0.788061559 0.556169092
1530343 -0.785072028 0.559880912
1542143 -0.782417654 0.563566148
1554043 -0.77958393 0.567012727
1565843 -0.77669239 0.570683717
1577743 -0.774069547 0.574587285
1589543 -0.770997762 0.577946245
1601343 -0.768132269 0.581569492
1613243 -0.765437662 0.585038244
1625043 -0.762477815 0.588861525
1636943 -0.759545445 0.592483401
1648743 -0.75651437 0.595661759
1660643 -0.753625631 0.599424719
1672443 -0.750680029 0.602958142
1684243 -0.747518599 0.606553614
1696143 -0.744486033 0.609830915
1707943 -0.741378009 0.612915694
1719843 -0.738427221 0.616504788
1731643 -0.73563838 0.61987549
1743543 -0.732292294 0.623316049
1755343 -0.729349851 0.626591682
1767143 -0.7264297 0.629678666
1779043 -0.72336179 0.633243381
1790843 -0.720366418 0.636725604
1802743 -0.717076241 0.640035688
1814543 -0.714089751 0.643272995
1826443 -0.711058974 0.646565735
1838243 -0.707787752 0.65005362
1850043 -0.704635798 0.653411388
1861943 -0.701332569 0.656582772
1873743 -0.698259711 0.659902632
1885643 -0.695070981 0.663321495
1897443 -0.691566884 0.666570782
1909343 -0.688329935 0.669885933
1921143 -0.6851601 0.672878384
1932943 -0.68182981 0.676081836
1944843 -0.678611218 0.679444313
1956643 -0.674965262 0.682701468
1968543 -0.671684205 0.685927987
1980343 -0.668384313 0.688791811
1992243 -0.664824366 0.69211173
2004043 -0.661402702 0.695207536
2015843 -0.657989263 0.698455154
2027743 -0.65431118 0.701694667
2039543 -0.650902032 0.704409658
2051443 -0.647395133 0.707764446
2063243 -0.643941164 0.710841
2075143 -0.640282571 0.713836729
2086943 -0.636636137 0.716859102
2098743 -0.633323907 0.719603836
2110643 -0.629641175 0.722810089
2122443 -0.626134693 0.725919902
2134343 -0.622541368 0.728732943
2146143 -0.618923306 0.731565713
2158043 -0.615303218 0.734413206
2169843 -0.611494779 0.737283706
2181643 -0.607768237 0.740187048
2193543 -0.6039173 0.743037045
2205343 -0.60025227 0.74590981
2217243 -0.596549749 0.748741447
2229043 -0.592780053 0.751563966
2240943 -0.588725328 0.754393756
2252743 -0.5849182 0.756947696
2264543 -0.581118404 0.759652674
2276443 -0.577462255 0.762513935
2288243 -0.573301374 0.765417933
2300143 -0.569325625 0.768096864
2311943 -0.565392792 0.770623624
2323843 -0.561625957 0.773270547
2335643 -0.557818531 0.775853455
2347443 -0.553712069 0.778621435
2359343 -0.549750149 0.781224071
2371143 -0.545641362 0.783804416
2383043 -0.541825711 0.786350607
2394843 -0.537724912 0.789081156
2406743 -0.533547759 0.791789054
2418543 -0.529500186 0.794014871
2430443 -0.525295078 0.796701371
2442286 -0.521305859 0.799159586
2454086 -0.51713562 0.801697969
2465886 -0.513106942 0.804054617
2477786 -0.508879899 0.806441068
2489586 -0.504735112 0.809042632
2501486 -0.50023359 0.811230003
2513286 -0.496135473 0.813813507
2525186 -0.491727769 0.815950036
2536986 -0.48776701 0.81844145
2548786 -0.483330249 0.820818662
2560686 -0.478890478 0.823050141
2572486 -0.474650591 0.825450122
2584386 -0.470407247 0.827731668
2596186 -0.465929627 0.829828083
2608086 -0.461493939 0.832048416
2619886 -0.45704934 0.834070801
2631686 -0.452797561 0.836562156
2643586 -0.448147803 0.838789343
2655386 -0.443651854 0.840802013
2667286 -0.439308077 0.842975199
2679086 -0.434655189 0.845170974
2690986 -0.429825901 0.847171664
2702786 -0.42531678 0.849269747
2714586 -0.420931905 0.850951492
2726486 -0.41631186 0.853215575
2738286 -0.411519706 0.85518068
2750186 -0.406754463 0.856949448
2761986 -0.402083218 0.858924508
2773886 -0.397574782 0.860516667
2785686 -0.392857044 0.8626585
2797486 -0.388068526 0.864617168
2809386 -0.383301496 0.866167843
2821186 -0.378656804 0.867860317
2833086 -0.373958408 0.869580388
2844886 -0.36910212 0.87151426
2856786 -0.364199787 0.873233437
2868586 -0.359452247 0.8749336
2880386 -0.35464397 0.87662959
2892286 -0.349699795 0.87807548
2904086 -0.344698011 0.880062997
2915986 -0.33980441 0.88150233
2927786 -0.334898412 0.883090615
2939686 -0.329726189 0.884698808
2951486 -0.324894458 0.886118173
2963286 -0.319841325 0.887789428
2975186 -0.314660757 0.88942188
2986986 -0.309423893 0.890610039
2998886 -0.304308176 0.892062783
3010686 -0.299304604 0.893391489
3022586 -0.293943285 0.894888222
3034386 -0.288574546 0.896197915
3046186 -0.283477157 0.897117614
3058086 -0.278300672 0.898579776
3069886 -0.273060709 0.899817585
3081786 -0.267639994 0.90090847
3093586 -0.262255519 0.902093112
3105486 -0.257008463 0.902996301
3117286 -0.251804023 0.904073119
3129086 -0.246070638 0.905115246
3140986 -0.240662693 0.906227231
3152786 -0.235352933 0.907063961
3164686 -0.229840457 0.907988369
3176486 -0.224460646 0.90889436
3188386 -0.218703538 0.909909069
3200186 -0.21327044 0.910570263
3211986 -0.207698509 0.911479592
3223886 -0.202207043 0.912105143
3235686 -0.196375772 0.913013279
3247586 -0.190700337 0.913537263
3259386 -0.185057342 0.914123415
3271286 -0.179157063 0.914805829
3283086 -0.173635989 0.915329337
3294886 -0.167928025 0.915892422
3306786 -0.161893531 0.916366934
3318586 -0.156141325 0.916979372
3330486 -0.150026753 0.917355477
3342286 -0.144460588 0.917353749
3354186 -0.138237625 0.918067812
3365986 -0.131997987 0.917884349
3377786 -0.126263827 0.918038427
3389686 -0.120079852 0.918292284
3401486 -0.114494428 0.918165564
3413386 -0.108223333 0.9185763
3425186 -0.101995028 0.918335795
3437086 -0.096062801 0.918343901
3448886 -0.089749991 0.918658196
3460686 -0.083687052 0.918343722
3472586 -0.077153585 0.918167293
3484386 -0.070571497 0.917489528
3496286 -0.064574025 0.91707164
3508086 -0.058124154 0.916965782
3519986 -0.052017495 0.91604644
3531786 -0.045435145 0.915796935
3543586 -0.039086684 0.915147602
3555486 -0.032626584 0.914558708
3567286 -0.025742307 0.914160549
3579186 -0.019329501 0.913052737
3590986 -0.012761389 0.912335574
3602886 -0.005584192 0.911062061
3614686 0.000614544 0.909923791
3626586 0.007746953 0.908903479
3638429 0.013639253 0.906829833
3650229 0.02018406 0.906547784
3662029 0.027298469 0.904807984
3673929 0.033667661 0.903820097
3685729 0.040701515 0.902681827
3697629 0.047717563 0.900624275
3709429 0.054889831 0.899482905
3721329 0.062275044 0.897157073
3733129 0.068798527 0.89499408
3744929 0.075969345 0.893407821
3756829 0.082683466 0.890486299
3768629 0.089050211 0.889081418
3780529 0.096500314 0.88651514
3792329 0.103085927 0.884611248
3804229 0.111197702 0.882637143
3816029 0.117791794 0.87937957
3827829 0.125230818 0.877792716
3839729 0.13319087 0.874243319
3851529 0.139400079 0.871403574
3863429 0.147326558 0.868258833
3875229 0.15357685 0.864254891
3887129 0.16093558 0.862069725
3898929 0.168752014 0.857705175
3910729 0.175084471 0.854840517
3922629 0.183768108 0.851818084
3934429 0.190658375 0.847284376
3946329 0.198388561 0.843919277
3958129 0.206122249 0.838782966
3970029 0.212683185 0.834827542
3981829 0.220962584 0.830402195
3993629 0.227308899 0.824427485
4005529 0.234257131 0.820941746
4017329 0.242001608 0.815739989
4029229 0.248653531 0.811915278
4041029 0.257694989 0.806654214
4052929 0.263619571 0.800091803
4064729 0.271290153 0.796215713
4076529 0.279836952 0.788720428
4088429 0.28555873 0.782481968
4100229 0.293350547 0.776235759
4112129 0.298397541 0.769164085
4123929 0.305831581 0.764012992
4135829 0.313244819 0.756013989
4147629 0.318218737 0.750884234
4159429 0.327397048 0.745200693
4171329 0.333891123 0.736659884
4183129 0.341549038 0.7296651
4195029 0.348775625 0.720124781
4206829 0.353384792 0.713018
4218729 0.361140787 0.705051302
4230529 0.365805029 0.694856286
4242329 0.370602607 0.688612401
4254229 0.378098666 0.679858386
4266029 0.382739931 0.672602176
4277929 0.391205459 0.664546966
4289729 0.395334482 0.652450382
4301629 0.402208209 0.644997417
4313429 0.409912437 0.632676184
4325229 0.412362307 0.621776819
4337129 0.418117165 0.611290693
4348929 0.419405668 0.599235117
4360829 0.424655079 0.592309653
4372629 0.431512236 0.579841434
4384529 0.431948661 0.570833623
4396329 0.43970555 0.562633633
4408129 0.443303197 0.548238098
4420029 0.448126584 0.537813603
4431829 0.452970892 0.521797478
4443729 0.451709389 0.510948121
4455529 0.456856638 0.499215722
4467429 0.455930054 0.482539415
4479229 0.455743432 0.474222302
4491029 0.459591835 0.460586577
4502929 0.457976102 0.450670212
4514729 0.465131819 0.438552111
4526629 0.460888147 0.419547975
4538429 0.464330673 0.411907851
4550329 0.467463314 0.391139924
4562129 0.461985111 0.378909409
4573929 0.464259058 0.365220457
4585829 0.456538558 0.348991125
4597629 0.45660448 0.340880095
4609529 0.456797063 0.320602744
4621329 0.44615823 0.312103688
4633229 0.452060312 0.299771189
4645029 0.442666351 0.280610859
4656829 0.441520541 0.272277027
4668729 0.435226023 0.250183761
4680529 0.426559418 0.243982434
4692429 0.42639485 0.225897014
4704229 0.409789472 0.209165573
4716129 0.405948102 0.203516647
4727929 0.400868713 0.183315217
4739729 0.388156533 0.176999628
4751629 0.38807097 0.1621003
4763429 0.367280572 0.148141354
4775329 0.368179589 0.144000545
4787129 0.35626626 0.119226284
4799029 0.340619653 0.11833819
4810829 0.337011486 0.103078454
4822729 0.316128045 0.093890927
4834572 0.312173306 0.087583012
4846372 0.295655012 0.068322673
4858172 0.280527919 0.072962999
4870072 0.278721123 0.056153021
4881872 0.250646919 0.048877198
4893772 0.248478382 0.045751091
4905572 0.226921558 0.028401063
4917472 0.216033503 0.035531237
4929272 0.205560207 0.017869958
4941072 0.17907238 0.01976766
4952972 0.177541598 0.018672673
4964772 0.156246736 0.005183005
4976672 0.14355944 0.013508368
4988472 0.135222509 0.001465293
5000372 0.107968576 0.006442884
5012172 0.109917856 0.004022577
5023972 0.08177936 -0.006997507
5035872 0.073308005 0.008121887
5047672 0.061868224 -0.005613766
5059572 0.037803947 0.006842973
5071372 0.035943385 0.003810843
5083272 0.00996251 0.00103744
5095072 0.004748867 0.017250375
5106872 -0.005361397 0.00557301
5118772 -0.029002128 0.01962213
5130572 -0.026212234 0.018953481
5142472 -0.0541284 0.016422238
5154272 -0.053369224 0.0317793
5166172 -0.068781524 0.020294053
5177972 -0.088043585 0.040453255
5189772 -0.085482969 0.038208674
5201672 -0.111663118 0.041027951
5213472 -0.10994146 0.057090051
5225372 -0.122294552 0.049893751
5237172 -0.137324765 0.073474988
5249072 -0.131126403 0.068656049
5260872 -0.15904127 0.073921911
5272672 -0.151984855 0.090626165
5284572 -0.166855707 0.079616345
5296372 -0.179905191 0.104426026
5308272 -0.177780643 0.099766403
5320072 -0.203163862 0.110154353
5331972 -0.195018649 0.126904964
5343772 -0.209122106 0.120808355
5355572 -0.216890141 0.14644207
5367472 -0.210948571 0.141745463
5379272 -0.233521208 0.152886375
5391172 -0.221106991 0.164527103
5402972 -0.237373664 0.158827856
5414872 -0.241793721 0.18376021
5426672 -0.239559635 0.178279384
5438472 -0.259095847 0.194161728
5450372 -0.246822044 0.20614238
5462172 -0.259663283 0.20376037
5474072 -0.260545849 0.229704603
5485872 -0.255411386 0.223545163
5497772 -0.271993517 0.238020464
5509572 -0.257781267 0.247360751
5521372 -0.272424072 0.243095844
5533272 -0.271598517 0.267293483
5545072 -0.267887115 0.260946363
5556972 -0.284283459 0.275679111
5568772 -0.269843935 0.285757988
5580672 -0.281704336 0.283993184
5592472 -0.277630299 0.307713776
5604272 -0.270813792 0.299574613
5616172 -0.28615576 0.314758718
5627972 -0.269211083 0.321254163
5639872 -0.282430529 0.31872636
5651672 -0.276993691 0.34191519
5663572 -0.27298516 0.331456035
5675372 -0.287512183 0.350502848
5687172 -0.268609017 0.357475072
5699072 -0.280369818 0.353824168
5710872 -0.273085087 0.376120418
5722772 -0.269508302 0.365563929
5734572 -0.280957698 0.384647846
5746472 -0.259690195 0.386049747
5758272 -0.277444034 0.381713807
5770072 -0.267903804 0.405958086
5781972 -0.263739556 0.395088493
5793772 -0.272387892 0.413912475
5805672 -0.25380674 0.412281304
5817472 -0.270945727 0.413620561
5829372 -0.254529774 0.435290873
5841172 -0.251582026 0.417846351
5852972 -0.262076258 0.437997132
5864872 -0.243613883 0.435641348
5876672 -0.259002983 0.438831478
5888572 -0.241077229 0.454987436
5900372 -0.246340036 0.439727157
5912272 -0.251271903 0.465236425
5924072 -0.230542153 0.459473311
5935872 -0.24600324 0.461307168
5947772 -0.228860884 0.474905759
5959572 -0.234910264 0.463268011
5971472 -0.233513861 0.485400259
5983272 -0.218093529 0.473075479
5995172 -0.235962003 0.480488806
6006972 -0.216832965 0.493084996
6018872 -0.221724331 0.48271358
6030715 -0.218630909 0.501213312
6042515 -0.207850828 0.490131586
6054315 -0.219655752 0.501243174
6066215 -0.198503986 0.507366359
6078015 -0.207093805 0.496566981
6089915 -0.203222751 0.514513492
6101715 -0.19433327 0.505093932
6113615 -0.201483547 0.515093863
6125415 -0.185390114 0.515970826
6137215 -0.195822745 0.511645495
6149115 -0.18763034 0.527994394
6160915 -0.179409429 0.517033696
6172815 -0.186238035 0.525152087
6184615 -0.173630446 0.52646315
6196515 -0.179330363 0.525149703
6208315 -0.17056486 0.534436285
6220115 -0.167428746 0.524257123
6232015 -0.172947973 0.53432095
6243815 -0.16061452 0.536093533
6255715 -0.16361314 0.532084822
6267515 -0.158979386 0.538438796
6279415 -0.156870707 0.533688783
6291215 -0.157429024 0.541305899
6303015 -0.14716874 0.539477407
6314915 -0.152939945 0.53581655
6326715 -0.149952098 0.54433453
6338615 -0.14417915 0.540783524
6350415 -0.144919022 0.543633759
6362315 -0.139576062 0.542910337
6374115 -0.143636941 0.542554855
6385915 -0.137968525 0.54920268
6397815 -0.133287891 0.542422413
6409615 -0.137711644 0.544443905
6421515 -0.132755339 0.547735452
6433315 -0.133089438 0.546206116
6445215 -0.129201292 0.549588739
6457015 -0.127591982 0.544637441
6468815 -0.130878135 0.549640953
6480715 -0.122864052 0.55190277
6492515 -0.123119175 0.548076033
6504415 -0.122881256 0.550871253
6516215 -0.120517611 0.550072968
6528115 -0.120157994 0.552642583
6539915 -0.115205988 0.55267322
6551715 -0.117340929 0.550191283
6563615 -0.117152348 0.555494427
6575415 -0.112059541 0.555572867
6587315 -0.112139835 0.554505228
6599115 -0.110194869 0.556641757
6611015 -0.109088525 0.556286275
6622815 -0.107853062 0.559264898
6634615 -0.103055305 0.557883262
6646515 -0.105664283 0.556135714
6658315 -0.10339567 0.561639904
6670215 -0.098836183 0.558784246
6682015 -0.100868538 0.560560107
6693915 -0.095708779 0.561366021
6705715 -0.097839087 0.559375703
6717515 -0.093569524 0.566078603
6729415 -0.089353844 0.559001505
6741215 -0.094554983 0.563142895
6753115 -0.086044028 0.564653992
6764915 -0.089334234 0.560390174
6776815 -0.085361436 0.566979706
6788615 -0.083029784 0.55915302
6800415 -0.088484197 0.566184103
6812315 -0.077089302 0.565248489
6824115 -0.084200367 0.560348033
6836015 -0.078638449 0.568856894
6847815 -0.076827242 0.559980273
6859715 -0.080632485 0.568130791
6871515 -0.069806933 0.563777625
6883315 -0.080399148 0.560898959
6895215 -0.071609996 0.5703727
6907015 -0.0716241 0.558876037
6918915 -0.075808033 0.568858563
6930715 -0.065749302 0.562869668
6942615 -0.076694108 0.564173221
6954415 -0.064831681 0.570862889
6966215 -0.068131498 0.558495044
6978115 -0.071581371 0.571040093
6989915 -0.061244018 0.563781499
7001815 -0.07235603 0.565693378
7013615 -0.060268778 0.569801151
7025515 -0.067817129 0.560126721
7037315 -0.066464163 0.573999762
7049115 -0.05792398 0.563609719
7061015 -0.069565117 0.568168878
7072815 -0.05711745 0.571166157
7084715 -0.065008282 0.563707709
7096515 -0.060406766 0.575738131
7108415 -0.056539081 0.563704967
7120215 -0.066099435 0.572282552
7132015 -0.053222037 0.572327792
7143915 -0.062456909 0.566244304
7155715 -0.05726289 0.577052414
7167615 -0.055692821 0.566850185
7179415 -0.061849467 0.576505243
7191315 -0.050182387 0.57335335
7203115 -0.060449041 0.57051593
7215015 -0.053220983 0.580001413
7226858 -0.053176354 0.570295631
7238658 -0.057327888 0.578978896
7250458 -0.048531822 0.574966907
7262358 -0.057476375 0.575187385
7274158 -0.049722433 0.581993222
7286058 -0.05131305 0.574102401
7297858 -0.053583662 0.582625806
7309758 -0.046983689 0.578742802
7321558 -0.053120363 0.580276072
7333358 -0.046411503 0.58418262
