# Hz S RI R 50
50000 1.002820491 -0.048665232
58800 0.997459292 -0.057226814
67700 0.997598767 -0.066544495
76600 0.996212184 -0.075758419
85400 0.995946347 -0.084382176
94300 0.994379401 -0.093446917
103200 0.99344033 -0.102173745
112000 0.992631793 -0.111291244
120900 0.991489768 -0.119963519
129800 0.991270363 -0.128323704
138700 0.989208638 -0.137185156
147500 0.988077223 -0.145788878
156400 0.986548542 -0.154581964
165300 0.985626935 -0.163366347
174100 0.983375966 -0.171571016
183000 0.981806814 -0.180428385
191900 0.980096101 -0.189045011
200700 0.978269755 -0.197373956
209600 0.976661682 -0.206293448
218500 0.974603652 -0.214415311
227400 0.972480297 -0.222979068
236200 0.970391392 -0.231412887
245100 0.968068063 -0.240159392
254000 0.965885043 -0.248769998
262800 0.963717758 -0.257065981
271700 0.960901618 -0.265386164
280600 0.958757579 -0.273891538
289400 0.95590645 -0.282291084
298300 0.953234612 -0.290684163
307200 0.950517177 -0.298814773
316100 0.947717845 -0.307311922
324900 0.944833636 -0.315225183
333800 0.941896617 -0.323744267
342700 0.938953578 -0.332048207
351500 0.935542345 -0.340203911
360400 0.932264506 -0.348413109
369300 0.929087877 -0.356543093
378100 0.925692677 -0.364840894
387000 0.922194242 -0.37304154
395900 0.918498039 -0.381207406
404800 0.914839267 -0.389027804
413600 0.911213338 -0.397402167
422500 0.907484769 -0.405332893
431400 0.903686285 -0.413440436
440200 0.899660944 -0.421252369
449100 0.8956936 -0.429290801
458000 0.891405463 -0.437409728
466800 0.887321591 -0.445246189
475700 0.882976889 -0.453171223
484600 0.878423869 -0.461116909
493500 0.874096035 -0.468803822
502300 0.869621515 -0.476597219
511200 0.86494553 -0.484403461
520100 0.860037028 -0.492037296
528900 0.855139195 -0.49974066
537800 0.850561857 -0.507601797
546700 0.845409631 -0.515114963
555500 0.84030044 -0.522561371
564400 0.835292994 -0.530302286
573300 0.829926431 -0.537855625
582200 0.824609577 -0.545334935
591000 0.819172084 -0.552905201
599900 0.813654482 -0.560328125
608800 0.808243751 -0.567385852
617600 0.802605569 -0.574901044
626500 0.796689271 -0.582216262
635400 0.790931403 -0.589234232
644200 0.784926593 -0.596528351
653100 0.778863728 -0.603709757
662000 0.772714793 -0.610859632
670900 0.766636729 -0.618061006
679700 0.760280072 -0.624957919
688600 0.753882646 -0.631908118
697500 0.74753189 -0.638735294
706300 0.740986347 -0.645499348
715200 0.734193921 -0.652325689
724100 0.727800905 -0.659126639
732900 0.720795571 -0.665835797
741800 0.71388626 -0.67238909
750700 0.706766247 -0.679151177
759600 0.699532806 -0.68577367
768400 0.692574322 -0.69211018
777300 0.685097992 -0.698734462
786200 0.67768687 -0.704960703
795000 0.670196235 -0.71138972
803900 0.662588477 -0.717508852
812800 0.655010044 -0.723950147
821600 0.64723885 -0.729880034
830500 0.639445841 -0.735941529
839400 0.631376445 -0.742157936
848300 0.622943818 -0.747923374
857100 0.615056276 -0.753886699
866000 0.60664457 -0.759435176
874900 0.598230421 -0.765460431
883700 0.589681327 -0.770887911
892600 0.581063866 -0.776640236
901500 0.572400689 -0.781933426
910300 0.563715338 -0.787072718
919200 0.554805874 -0.792427122
928100 0.545966029 -0.797725558
937000 0.536629557 -0.802823364
945870 0.527660906 -0.807484865
954670 0.518532812 -0.812506735
963570 0.509186565 -0.817333102
972470 0.49963656 -0.822186231
981270 0.49001944 -0.826836645
990170 0.480430036 -0.831644892
999070 0.470319002 -0.835822165
1007870 0.460236608 -0.840318083
1016770 0.450367689 -0.844576656
1025670 0.440188258 -0.849055171
1034570 0.429637223 -0.85273385
1043370 0.419457674 -0.856279432
1052270 0.40890488 -0.860189318
1061170 0.398450225 -0.864063024
1069970 0.38762778 -0.867501854
1078870 0.37688893 -0.871145367
1087770 0.365694284 -0.874513924
1096570 0.354707539 -0.877473771
1105470 0.343633711 -0.880632996
1114370 0.33192715 -0.883569836
1123270 0.320186406 -0.886322617
1132070 0.308499574 -0.888539016
1140970 0.296793997 -0.891022741
1149870 0.285202503 -0.893016099
1158670 0.2733379 -0.895123958
1167570 0.261213779 -0.896959304
1176470 0.24912852 -0.898472607
1185270 0.237411409 -0.90016067
1194170 0.22475776 -0.901618897
1203070 0.211982592 -0.902545154
1211970 0.199434205 -0.903671443
1220770 0.186862111 -0.903706073
1229670 0.174300253 -0.904650688
1238570 0.160993605 -0.904936552
1247370 0.148346155 -0.904838323
1256270 0.135233446 -0.904762446
1265170 0.122280649 -0.904554903
1273970 0.108726628 -0.904231905
1282870 0.095330685 -0.903851151
1291770 0.081055358 -0.90311098
1300670 0.067159391 -0.901161432
1309470 0.05296963 -0.899304926
1318370 0.039411731 -0.896881759
1327270 0.025117889 -0.894581735
1336070 0.011159442 -0.89185816
1344970 -0.00290908 -0.888647854
1353870 -0.017305633 -0.885142207
1362670 -0.031613729 -0.881775438
1371570 -0.045661535 -0.877348005
1380470 -0.059986785 -0.872777402
1389370 -0.073620207 -0.868062317
1398170 -0.088021583 -0.864152789
1407070 -0.103206932 -0.858580291
1415970 -0.118261553 -0.852676987
1424770 -0.132788941 -0.845994889
1433670 -0.146958589 -0.838663697
1442570 -0.160974308 -0.831573665
1451370 -0.175242364 -0.824717938
1460270 -0.190836787 -0.817122578
1469170 -0.205707386 -0.808170676
1478070 -0.220507487 -0.797965884
1486870 -0.234636425 -0.787577509
1495770 -0.247274443 -0.776465594
1504670 -0.259213805 -0.765507996
1513470 -0.27103725 -0.757270932
1522370 -0.286827206 -0.748427569
1531270 -0.302629649 -0.735625982
1540070 -0.316883504 -0.721252739
1548970 -0.330034911 -0.706439197
1557870 -0.341637611 -0.68985325
1566770 -0.349060803 -0.675711989
1575570 -0.361108213 -0.664948344
1584470 -0.375272482 -0.649911046
1593370 -0.38786903 -0.631995379
1602170 -0.397941827 -0.613297164
1611070 -0.406632781 -0.595388829
1619970 -0.415870398 -0.576061308
1628770 -0.421088397 -0.555655777
1637670 -0.423501163 -0.539982855
1646570 -0.432426124 -0.527237713
1655470 -0.444008976 -0.507319867
1664270 -0.450667172 -0.484029829
1673170 -0.454095929 -0.460426628
1682070 -0.452815234 -0.436706006
1690870 -0.444898068 -0.422762989
1699770 -0.455017566 -0.416250497
1708670 -0.467738151 -0.389199942
1717470 -0.466427266 -0.361283391
1726370 -0.462194651 -0.336936533
1735270 -0.455305159 -0.313663721
1744170 -0.442135334 -0.296970725
1752970 -0.438519001 -0.290190368
1761870 -0.442775785 -0.275824517
1770770 -0.44443649 -0.252499222
1779570 -0.438753843 -0.227762877
1788470 -0.428202599 -0.205291077
1797370 -0.409793466 -0.185937449
1806170 -0.392484873 -0.188752993
1815070 -0.406936466 -0.185927137
1823970 -0.412436187 -0.154141083
1832870 -0.39835304 -0.124212473
1841740 -0.375255912 -0.103627882
1850540 -0.349601686 -0.096362665
1859440 -0.335744708 -0.106167681
1868340 -0.349013209 -0.104057744
1877140 -0.351081013 -0.075742587
1886040 -0.333879947 -0.051470588
1894940 -0.309545576 -0.037323925
1903740 -0.285257458 -0.039713304
1912640 -0.284765928 -0.052390169
1921540 -0.297599017 -0.038550429
1930440 -0.292395651 -0.010641111
1939240 -0.269430547 0.012754962
1948140 -0.238056167 0.015855534
1957040 -0.22313477 0.000982531
1965840 -0.233682572 -0.002942861
1974740 -0.238827973 0.01690427
1983640 -0.229015558 0.040431074
1992440 -0.206083074 0.059909828
2001340 -0.178442701 0.060372121
2010240 -0.170033469 0.05321009
2019140 -0.167793691 0.060182031
2027940 -0.157822608 0.075212709
2036840 -0.135121136 0.088229998
2045740 -0.108950555 0.0836488
2054540 -0.101401589 0.070361316
2063440 -0.105653814 0.07218106
2072340 -0.101693719 0.087435923
2081140 -0.085788078 0.101546995
2090040 -0.062367934 0.105848304
2098940 -0.049030661 0.099726691
2107840 -0.046129819 0.105404339
2116640 -0.032311331 0.121900334
2125540 -0.002155399 0.133320078
2134440 0.034034736 0.126347869
2143240 0.056202717 0.101850025
2152140 0.056432452 0.079940617
2161040 0.048097953 0.077085159
2169840 0.052516829 0.089409589
2178740 0.074724435 0.097554333
2187640 0.101368561 0.088183097
2196540 0.115223474 0.064307756
2205340 0.105342015 0.044745981
2214240 0.088847421 0.054379258
2223140 0.098697252 0.07864046
2231940 0.12778218 0.092648908
2240840 0.167159169 0.08793462
2249740 0.199479758 0.060409523
2258540 0.209644645 0.02425003
2267440 0.203123316 -0.003492638
2276340 0.19010812 -0.020934686
2285240 0.171050935 -0.01827014
2294040 0.180954083 -0.003032701
2302940 0.202650934 -0.010133008
2311840 0.215104281 -0.032765001
2320640 0.209431245 -0.058845099
2329540 0.186348527 -0.071294546
2338440 0.166192546 -0.052698668
2347240 0.182742506 -0.025142498
2356140 0.226093471 -0.024183483
2365040 0.258637458 -0.065396659
2373940 0.25347498 -0.116912603
2382740 0.218714624 -0.150810569
2391640 0.17676492 -0.150267153
2400540 0.154864951 -0.127753704
2409340 0.165835604 -0.100964188
2418240 0.192474454 -0.113884083
2427140 0.187496528 -0.143549785
2435940 0.162913635 -0.157151013
2444840 0.137634709 -0.152939036
2453740 0.121892198 -0.133026778
2462640 0.133986249 -0.113004766
2471440 0.150487601 -0.124061144
2480340 0.143345892 -0.143849834
2489240 0.122457213 -0.155178949
2498040 0.092405319 -0.150284424
2506940 0.074776306 -0.121729038
2515840 0.084603697 -0.10074041
2524640 0.091536752 -0.101927101
2533540 0.0839831 -0.105699375
2542440 0.065485723 -0.101081781
2551340 0.048942133 -0.077691398
2560140 0.053004052 -0.050882142
2569040 0.062463175 -0.039007011
2577940 0.063323073 -0.031814225
2586740 0.057880703 -0.019073201
2595640 0.056475393 0.005696024
2604540 0.0708374 0.030479913
2613340 0.090497508 0.042052987
2622240 0.104730896 0.042744014
2631140 0.10360448 0.041329398
2640040 0.09224648 0.060398433
2648840 0.102459229 0.095682054
2657740 0.13314633 0.11823149
2666640 0.162301272 0.121101342
2675440 0.17774935 0.115327499
2684340 0.177812993 0.119864456
2693240 0.186443001 0.143353894
2702040 0.213727653 0.163162916
2710940 0.245009422 0.170071259
2719840 0.273285746 0.168661668
2728740 0.294053137 0.163426175
2737610 0.310959219 0.163943126
2746410 0.330584973 0.165896683
2755310 0.351963311 0.165961176
2764210 0.375296711 0.165283441
2773010 0.399386763 0.161282911
2781910 0.423685193 0.155099168
2790810 0.44832006 0.144278302
2799610 0.466959655 0.128951713
2808510 0.478163421 0.116886869
2817410 0.491877734 0.113428458
2826310 0.513054013 0.109448149
2835110 0.537245988 0.099305361
2844010 0.559824526 0.082078486
2852910 0.57624495 0.062445439
2861710 0.587880373 0.045783452
2870610 0.60040462 0.031316217
2879510 0.61380136 0.016379332
2888310 0.627236485 0.001346956
2897210 0.641857028 -0.016505323
2906110 0.653481006 -0.037055231
2915010 0.662078559 -0.057445839
2923810 0.667528212 -0.076676115
2932710 0.671385645 -0.094489917
2941610 0.676256418 -0.107832178
2950410 0.685149669 -0.122384987
2959310 0.694242715 -0.140771567
2968210 0.700462758 -0.16161853
2977010 0.702938556 -0.181957811
2985910 0.703080892 -0.200056508
2994810 0.703714251 -0.215842992
3003710 0.705957829 -0.231124401
3012510 0.708782613 -0.247272044
3021410 0.710225105 -0.264848738
3030310 0.709934711 -0.282354265
3039110 0.709098577 -0.29899618
3048010 0.707311213 -0.314988821
3056910 0.704848289 -0.329984515
3065710 0.702993094 -0.344011604
3074610 0.701321423 -0.358388185
3083510 0.699539601 -0.372990578
3092410 0.696930766 -0.387945175
3101210 0.693512439 -0.402100086
3110110 0.689667344 -0.415691405
3119010 0.685900628 -0.42827025
3127810 0.682556688 -0.440959125
3136710 0.678916156 -0.454014807
3145610 0.675102114 -0.46692121
3154410 0.670595824 -0.479221194
3163310 0.665871381 -0.491347461
3172210 0.661076128 -0.503080248
3181110 0.656551182 -0.514732182
3189910 0.651939928 -0.526228964
3198810 0.646734774 -0.538008928
3207710 0.641177952 -0.549670755
3216510 0.635279357 -0.560528159
3225410 0.629423737 -0.57119733
3234310 0.623090207 -0.581582665
3243110 0.617067217 -0.591838836
3252010 0.610506713 -0.601788163
3260910 0.603734195 -0.611605048
3269810 0.597094416 -0.620766878
3278610 0.59086734 -0.629256904
3287510 0.58425188 -0.638270258
3296410 0.577823996 -0.647151529
3305210 0.570919275 -0.65588355
3314110 0.563770711 -0.664224267
3323010 0.556730926 -0.672390997
3331810 0.54967004 -0.679858386
3340710 0.54282099 -0.687260627
3349610 0.53560239 -0.694774508
3358510 0.528553962 -0.702057421
3367310 0.52126491 -0.709213614
3376210 0.514002442 -0.715728044
3385110 0.506686747 -0.722016215
3393910 0.499867558 -0.728126823
3402810 0.493127971 -0.734441936
3411710 0.486282974 -0.740652322
3420510 0.479391247 -0.746839046
3429410 0.472041398 -0.752725064
3438310 0.465277701 -0.758707046
3447210 0.458027541 -0.76396203
3456010 0.451235175 -0.769281327
3464910 0.444040894 -0.77489084
3473810 0.436993539 -0.780457377
3482610 0.429611831 -0.785430729
3491510 0.422504156 -0.790291249
3500410 0.415382593 -0.795258522
3509210 0.408296346 -0.799488544
3518110 0.401171237 -0.80423814
3527010 0.394157439 -0.808436751
3535910 0.387335687 -0.812728345
3544710 0.380277633 -0.816895246
3553610 0.373693883 -0.82124716
3562510 0.366808623 -0.825106382
3571310 0.359808355 -0.828914165
3580210 0.352862358 -0.832745969
3589110 0.346059858 -0.836849689
3597910 0.339354008 -0.840529799
3606810 0.332235008 -0.844248652
3615710 0.325253725 -0.847570836
3624610 0.318638473 -0.851096749
3633480 0.311639398 -0.854191482
3642280 0.304924666 -0.85762757
3651180 0.298016548 -0.860934197
3660080 0.291399925 -0.863814175
3668880 0.284546047 -0.867118179
3677780 0.277698218 -0.869941949
3686680 0.27089408 -0.872870504
3695480 0.264279186 -0.875472962
3704380 0.257564306 -0.877972722
3713280 0.250861346 -0.880473554
3722180 0.244148179 -0.883156776
3730980 0.237665027 -0.88573873
3739880 0.230910137 -0.888295173
3748780 0.224432602 -0.89058125
3757580 0.21800214 -0.89280194
3766480 0.210897147 -0.895194709
3775380 0.204617321 -0.897148728
3784180 0.198036178 -0.899371325
3793080 0.191240713 -0.901712238
3801980 0.184707388 -0.903554916
3810880 0.178103759 -0.905268073
3819680 0.171549394 -0.907155692
3828580 0.164805889 -0.90873599
3837480 0.158151805 -0.910205721
3846280 0.151765942 -0.911681354
3855180 0.145345807 -0.913375854
3864080 0.139127835 -0.914432227
3872880 0.132616311 -0.915824592
3881780 0.126166641 -0.917183279
3890680 0.120085768 -0.918550491
3899580 0.113861516 -0.919740438
3908380 0.107580028 -0.920864582
3917280 0.101278334 -0.922418594
3926180 0.09454476 -0.92292875
3934980 0.088691733 -0.924278378
3943880 0.08233153 -0.925221502
3952780 0.076012343 -0.926122963
3961580 0.069952376 -0.926982641
3970480 0.063738428 -0.927757024
3979380 0.057524338 -0.92844218
3988280 0.051745481 -0.929147005
3997080 0.045072734 -0.929746627
4005980 0.039200976 -0.930337369
4014880 0.033046878 -0.930715918
4023680 0.02684733 -0.93123126
4032580 0.021104449 -0.931694209
4041480 0.01495702 -0.932213068
4050280 0.008876208 -0.932334601
4059180 0.003020159 -0.93266052
4068080 -0.002841194 -0.932855784
4076980 -0.008644632 -0.933261811
4085780 -0.014417218 -0.933258116
4094680 -0.020689181 -0.933380842
4103580 -0.026436865 -0.933717429
4112380 -0.032187543 -0.933356404
4121280 -0.038113109 -0.933227896
4130180 -0.043698798 -0.933018565
4138980 -0.049579225 -0.932854652
4147880 -0.055167634 -0.932645797
4156780 -0.060675486 -0.932495296
4165680 -0.066310934 -0.932202935
4174480 -0.071871377 -0.931826651
4183380 -0.077601045 -0.931410968
4192280 -0.083271287 -0.931127667
4201080 -0.088795557 -0.9306975
4209980 -0.0938927 -0.930118918
4218880 -0.099653482 -0.92967391
4227680 -0.105011314 -0.929072618
4236580 -0.110478952 -0.928293168
4245480 -0.11582873 -0.927730023
4254380 -0.120968326 -0.926968276
4263180 -0.126149266 -0.926286458
4272080 -0.131366714 -0.925518751
4280980 -0.136503398 -0.924874603
4289780 -0.141547605 -0.923902213
4298680 -0.146454051 -0.923206984
4307580 -0.151645883 -0.922613203
4316380 -0.156867265 -0.922022283
4325280 -0.161780327 -0.921095848
4334180 -0.166791558 -0.920175254
4343080 -0.172024637 -0.919569969
4351880 -0.176886275 -0.918636798
4360780 -0.181613534 -0.917518138
4369680 -0.186697378 -0.916684746
4378480 -0.191406413 -0.915793597
4387380 -0.196215286 -0.914863288
4396280 -0.201378807 -0.914046347
4405080 -0.205819964 -0.912997961
4413980 -0.210808202 -0.912078857
4422880 -0.21575348 -0.911179482
4431780 -0.220426887 -0.910016894
4440580 -0.225428476 -0.908894479
4449480 -0.230060234 -0.907647728
4458380 -0.234879463 -0.906794965
4467180 -0.23966661 -0.905740737
4476080 -0.244431152 -0.904413461
4484980 -0.249057054 -0.903110206
4493780 -0.25381416 -0.902113199
4502680 -0.258467793 -0.900580883
4511580 -0.263100475 -0.899421453
4520480 -0.26787725 -0.897912919
4529350 -0.272090703 -0.896885871
4538150 -0.276551365 -0.895309448
4547050 -0.28097999 -0.894115924
4555950 -0.285467982 -0.892637789
4564750 -0.289911389 -0.891456663
4573650 -0.294480711 -0.890053629
4582550 -0.298978805 -0.888902485
4591350 -0.303541392 -0.887474298
4600250 -0.308052182 -0.886059165
4609150 -0.312131613 -0.88452208
4618050 -0.316691696 -0.883001208
4626850 -0.321203917 -0.881525695
4635750 -0.325552254 -0.879851698
4644650 -0.330076813 -0.878323078
4653450 -0.334297388 -0.876609563
4662350 -0.338654071 -0.87504357
4671250 -0.342614054 -0.873524188
4680050 -0.346882224 -0.871881246
4688950 -0.351033478 -0.870171487
4697850 -0.355094999 -0.868357121
4706750 -0.359033077 -0.866756439
4715550 -0.363365262 -0.865152776
4724450 -0.367415159 -0.863480329
4733350 -0.371529519 -0.861763358
4742150 -0.375928699 -0.860385775
4751050 -0.379910498 -0.858443558
4759950 -0.384074777 -0.856875479
4768750 -0.388100892 -0.855097115
4777650 -0.392385959 -0.85331881
4786550 -0.396454632 -0.851548552
4795450 -0.400571674 -0.849549233
4804250 -0.404194623 -0.847489237
4813150 -0.40828973 -0.845690727
4822050 -0.412383586 -0.843936026
4830850 -0.416098952 -0.841925621
4839750 -0.420299142 -0.839657306
4848650 -0.424103766 -0.837949573
4857450 -0.427682727 -0.836066842
4866350 -0.431446075 -0.834030151
4875250 -0.435090303 -0.832068204
4884150 -0.439191639 -0.829921245
4892950 -0.443008571 -0.828154027
4901850 -0.446682214 -0.826184928
4910750 -0.450426995 -0.824331104
4919550 -0.454086035 -0.822229385
4928450 -0.457863688 -0.820109665
4937350 -0.461756438 -0.817596673
4946150 -0.465002357 -0.815811514
4955050 -0.469177097 -0.813549101
4963950 -0.472512513 -0.811608314
4972850 -0.47587946 -0.809574604
4981650 -0.479635775 -0.807255148
4990550 -0.483243167 -0.805015087
4999450 -0.48689723 -0.8028512
5008250 -0.490000814 -0.800735473
5017150 -0.493722289 -0.798533856
5026050 -0.497064948 -0.796034634
5034850 -0.500585198 -0.794123053
5043750 -0.50401926 -0.791897833
5052650 -0.507309436 -0.789520263
5061550 -0.510504543 -0.787353634
5070350 -0.513755142 -0.785100817
5079250 -0.517237901 -0.782643616
5088150 -0.52032417 -0.780861198
5096950 -0.52367562 -0.778320252
5105850 -0.52695471 -0.776275873
5114750 -0.53032571 -0.773956656
5123550 -0.533605813 -0.771558105
5132450 -0.536960422 -0.769565403
5141350 -0.54018563 -0.767466008
5150250 -0.5430637 -0.764796674
5159050 -0.546461462 -0.762564241
5167950 -0.549629688 -0.760172605
5176850 -0.552946925 -0.757909059
5185650 -0.55585891 -0.755658566
5194550 -0.558987498 -0.75311321
5203450 -0.561983525 -0.750890135
5212250 -0.565235018 -0.748516142
5221150 -0.568096697 -0.746388316
5230050 -0.571082711 -0.743889033
5238950 -0.574200391 -0.741559982
5247750 -0.577077746 -0.739424884
5256650 -0.580186545 -0.737134099
5265550 -0.583007156 -0.734685182
5274350 -0.586453914 -0.732557356
5283250 -0.589288115 -0.730067074
5292150 -0.592492759 -0.727649927
5300950 -0.595469594 -0.725430309
5309850 -0.5986346 -0.723005473
5318750 -0.60145694 -0.720202326
5327650 -0.604340195 -0.717923998
5336450 -0.60698229 -0.715384364
5345350 -0.610026895 -0.712854623
5354250 -0.612800478 -0.710748255
5363050 -0.615529537 -0.70792365
5371950 -0.618356764 -0.705196201
5380850 -0.62131685 -0.70276004
5389650 -0.624164044 -0.700348556
5398550 -0.626822173 -0.697714447
5407450 -0.629642188 -0.695343792
5416350 -0.632371246 -0.69296509
5425220 -0.635246455 -0.688992738
