# Hz S RI R 50
3000000 0.790318906 -0.590706646
3007900 0.789314806 -0.591776311
3015800 0.78794372 -0.593256235
3023700 0.786415457 -0.594529926
3031700 0.784751892 -0.59559673
3039600 0.78373897 -0.596825957
3047500 0.782287776 -0.596921384
3055400 0.781694412 -0.596969604
3063400 0.78265506 -0.597842752
3071300 0.782176613 -0.600011825
3079200 0.781208217 -0.602140247
3087200 0.780272781 -0.604125201
3095100 0.779020488 -0.605630755
3103000 0.777689874 -0.607297897
3110900 0.776426255 -0.608907401
3118900 0.775048017 -0.610369324
3126800 0.773601353 -0.611925661
3134700 0.772337079 -0.613345801
3142700 0.770997762 -0.61439383
3150600 0.76947242 -0.615762948
3158500 0.768333554 -0.616889059
3166400 0.76682192 -0.618247807
3174400 0.765323936 -0.619300603
3182300 0.763624787 -0.620239198
3190200 0.762100875 -0.620776176
3198200 0.760880529 -0.620607912
3206100 0.761245727 -0.620708584
3214000 0.761989891 -0.622742593
3221900 0.761393666 -0.625332415
3229900 0.760099291 -0.627535581
3237800 0.75881195 -0.629178464
3245700 0.757283926 -0.630850017
3253600 0.75584048 -0.63239181
3261600 0.754554867 -0.633699715
3269500 0.752943813 -0.635055482
3277400 0.751720845 -0.636254191
3285400 0.750429809 -0.637611985
3293300 0.749011158 -0.639112472
3301200 0.747610986 -0.640664637
3309100 0.745954394 -0.641528785
3317100 0.744240343 -0.642279505
3325000 0.742636144 -0.643394529
3332900 0.741171956 -0.643859386
3340900 0.739763796 -0.644001364
3348800 0.73976159 -0.643880248
3356700 0.740533888 -0.645115792
3364600 0.739992618 -0.647864222
3372600 0.739352762 -0.649929881
3380500 0.737737119 -0.65190804
3388400 0.736079812 -0.653555035
3396400 0.734633564 -0.654999554
3404300 0.73330748 -0.656486988
3412200 0.731859385 -0.657792568
3420100 0.730309188 -0.659169375
3428100 0.728774845 -0.660764515
3436000 0.727207005 -0.661825239
3443900 0.725693225 -0.662737309
3451800 0.723936617 -0.664262831
3459800 0.722503304 -0.665171623
3467700 0.720616281 -0.665832459
3475600 0.719294846 -0.666535675
3483600 0.71763575 -0.666764497
3491500 0.717134833 -0.666755795
3499400 0.717727303 -0.667163968
3507300 0.717985093 -0.66963309
3515300 0.717077016 -0.671838641
3523200 0.715782761 -0.674251616
3531100 0.71406871 -0.675779998
3539100 0.712314963 -0.677283227
3547000 0.710581362 -0.678661286
3554900 0.709397196 -0.680013835
3562800 0.707936763 -0.681481122
3570800 0.706157922 -0.682945728
3578700 0.704702496 -0.684036731
3586600 0.702838957 -0.685106933
3594600 0.700982153 -0.686407625
3602500 0.699318766 -0.687289893
3610400 0.697571456 -0.687871634
3618300 0.696023166 -0.688495993
3626300 0.694512069 -0.688544273
3634200 0.693742573 -0.688635885
3642100 0.693796396 -0.688904762
3650000 0.694479286 -0.690319418
3658000 0.694014012 -0.692893207
3665900 0.692870914 -0.695317327
3673800 0.691184043 -0.697252154
3681800 0.689427435 -0.698781013
3689700 0.687641501 -0.700294971
3697600 0.685972988 -0.701841652
3705500 0.684143781 -0.703035771
3713500 0.682303965 -0.704325258
3721400 0.680617094 -0.705518484
3729300 0.678792715 -0.706632673
3737300 0.677127361 -0.707751095
3745200 0.675196945 -0.708620309
3753100 0.673544466 -0.709233939
3761000 0.671632587 -0.709557354
3769000 0.67006874 -0.709406793
3776900 0.669608235 -0.709451079
3784800 0.669349074 -0.709758222
3792800 0.670013904 -0.710857868
3800728 0.669906437 -0.713395178
3808628 0.668561875 -0.715788125
3816528 0.666903376 -0.717902064
3824428 0.664955258 -0.719621181
3832428 0.663035273 -0.720872521
3840328 0.661076784 -0.722043275
3848228 0.659471213 -0.72360605
3856128 0.657625675 -0.724598526
3864128 0.656057596 -0.725960791
3872028 0.65418756 -0.726821839
3879928 0.65223664 -0.727958977
3887928 0.650300025 -0.729012012
3895828 0.648207247 -0.729602694
3903728 0.646027684 -0.730181396
3911628 0.644385218 -0.729378163
3919628 0.643717527 -0.729072988
3927528 0.644089877 -0.729031264
3935428 0.644703328 -0.73063749
3943428 0.644567966 -0.732518732
3951328 0.643872141 -0.735396981
3959228 0.641643106 -0.737541377
3967128 0.639872908 -0.739199876
3975128 0.638078391 -0.740870893
3983028 0.635990083 -0.742202103
3990928 0.633891284 -0.74358201
3998928 0.631957173 -0.744415462
4006828 0.630106449 -0.74546808
4014728 0.628247737 -0.746346473
4022628 0.62662065 -0.747509181
4030628 0.624194264 -0.748098134
4038528 0.621970772 -0.749209344
4046428 0.620170712 -0.749465525
4054328 0.618040382 -0.74881488
4062328 0.617166399 -0.747476398
4070228 0.618144392 -0.747213363
4078128 0.618914127 -0.748820662
4086128 0.618707239 -0.75148487
4094028 0.617732584 -0.75379157
4101928 0.616351187 -0.756019294
4109828 0.614182889 -0.758044958
4117828 0.611858963 -0.759414076
4125728 0.609757483 -0.760903835
4133628 0.607909798 -0.762151598
4141628 0.606102943 -0.763158857
4149528 0.604068338 -0.764007985
4157428 0.60206288 -0.764939308
4165328 0.600198507 -0.766024231
4173328 0.598310708 -0.767015039
4181228 0.595973074 -0.767889201
4189128 0.594010233 -0.767953217
4197128 0.591389596 -0.767724573
4205028 0.589802026 -0.766485929
4212928 0.589892983 -0.765245676
4220828 0.591784298 -0.765988528
4228828 0.592560946 -0.768637835
4236728 0.591632604 -0.771768212
4244628 0.589574337 -0.774160265
4252528 0.587673962 -0.776051878
4260528 0.585374057 -0.777718961
4268428 0.582999825 -0.778895199
4276328 0.58102864 -0.780495107
4284328 0.57893908 -0.78129673
4292228 0.576839685 -0.782188177
4300128 0.574399471 -0.782966434
4308028 0.572443962 -0.783802807
4316028 0.570409417 -0.784530878
4323928 0.568321406 -0.785110294
4331828 0.566354274 -0.785670399
4339828 0.563912868 -0.785590469
4347728 0.561590015 -0.784567058
4355628 0.561286568 -0.783110141
4363528 0.563330888 -0.782127141
4371528 0.565028965 -0.78529495
4379428 0.563752532 -0.788745343
4387328 0.561904788 -0.79154849
4395328 0.559890627 -0.793594062
4403228 0.557440817 -0.795412063
4411128 0.555085301 -0.796792566
4419028 0.552883505 -0.797550976
4427028 0.550466537 -0.799046814
4434928 0.547797858 -0.799587309
4442828 0.545908868 -0.800244629
4450728 0.543424427 -0.800833284
4458728 0.541471123 -0.801464378
4466628 0.539512097 -0.80208981
4474528 0.537194788 -0.802402913
4482528 0.534903883 -0.802176117
4490428 0.532957792 -0.801750481
4498328 0.531225442 -0.800074934
4506228 0.532227575 -0.798523068
4514228 0.534998118 -0.79984492
4522128 0.535356879 -0.803726613
4530028 0.533467173 -0.807064235
4538028 0.531146287 -0.809638798
4545928 0.528373301 -0.811276853
4553828 0.525913894 -0.812603116
4561728 0.52324301 -0.813686132
4569728 0.521214485 -0.814727783
4577628 0.518348813 -0.815376579
4585528 0.515879631 -0.816316425
4593528 0.513518393 -0.816659271
4601456 0.511266171 -0.81707102
4609356 0.508995175 -0.817023932
4617256 0.506671905 -0.817416906
4625156 0.50494486 -0.816992282
4633156 0.502818942 -0.816400229
4641056 0.501652419 -0.815128028
4648956 0.502093136 -0.813904583
4656856 0.503965079 -0.814331114
4664856 0.505181312 -0.817663848
4672756 0.50395447 -0.821076095
4680656 0.501135945 -0.82406789
4688656 0.498325645 -0.82573539
4696556 0.495799005 -0.827236771
4704456 0.493125796 -0.828212261
4712356 0.49031654 -0.829092383
4720356 0.488181799 -0.830122768
4728256 0.485577106 -0.830715298
4736156 0.482930302 -0.831155538
4744156 0.480361223 -0.831416368
4752056 0.47759369 -0.83155632
4759956 0.475576639 -0.831307768
4767856 0.473164141 -0.830640673
4775856 0.47135058 -0.829708635
4783756 0.470321118 -0.828610599
4791656 0.470481663 -0.827430248
4799656 0.472646653 -0.826903462
4807556 0.473937034 -0.829944849
4815456 0.473365426 -0.833913326
4823356 0.471049785 -0.837147176
4831356 0.467741429 -0.839417457
4839256 0.46473059 -0.840879023
4847156 0.461683332 -0.841970324
4855056 0.458949178 -0.842620432
4863056 0.456342995 -0.843017518
4870956 0.453816026 -0.843905687
4878856 0.451314687 -0.844387948
4886856 0.448418378 -0.844641387
4894756 0.44562152 -0.844289183
4902656 0.442711114 -0.84363228
4910556 0.44050166 -0.842726945
4918556 0.438845247 -0.841065645
4926456 0.438195019 -0.839803516
4934356 0.438655644 -0.838586509
4942356 0.440507054 -0.838641762
4950256 0.442054599 -0.841003656
4958156 0.441828876 -0.844975948
4966056 0.439381629 -0.848610043
4974056 0.436134815 -0.851046562
4981956 0.43271768 -0.852705717
4989856 0.42965579 -0.853595614
4997856 0.426597565 -0.854315042
5005756 0.423586666 -0.854353189
5013656 0.421064615 -0.854699552
5021556 0.418558001 -0.854905426
5029556 0.416095405 -0.855300128
5037456 0.413225948 -0.855597376
5045356 0.410114258 -0.855074465
5053256 0.407417565 -0.853858351
5061256 0.405288308 -0.851769864
5069156 0.404285609 -0.848971426
5077056 0.406035155 -0.847375214
5085056 0.408655464 -0.847758829
5092956 0.40991199 -0.850816249
5100856 0.409652173 -0.855191409
5108756 0.407373756 -0.858732521
5116756 0.403931856 -0.861437737
5124656 0.400422364 -0.86296159
5132556 0.396642774 -0.864029049
5140556 0.393383353 -0.864764332
5148456 0.390040367 -0.864778578
5156356 0.387290477 -0.864854931
5164256 0.38458234 -0.864474117
5172256 0.381972402 -0.864374577
5180156 0.37938255 -0.864691317
5188056 0.376658082 -0.863763988
5196056 0.373300164 -0.862822115
5203956 0.371163934 -0.860585093
5211856 0.369884669 -0.857653915
5219756 0.371353507 -0.855009198
5227756 0.374719828 -0.854895234
5235656 0.377155572 -0.858434617
5243556 0.376544743 -0.862877786
5251456 0.374137282 -0.866624474
5259456 0.370646774 -0.869158089
5267356 0.36683157 -0.871209681
5275256 0.363115727 -0.87228018
5283256 0.359208285 -0.872640967
5291156 0.356024324 -0.87252134
5299056 0.352847695 -0.872119724
5306956 0.350256145 -0.871530294
5314956 0.347539812 -0.870830833
5322856 0.344992905 -0.870676875
5330756 0.342251509 -0.870116055
5338756 0.339463949 -0.869102656
5346656 0.336985737 -0.867299795
5354556 0.335159659 -0.863907814
5362456 0.33598861 -0.860557019
5370456 0.340128272 -0.858484447
5378356 0.344606727 -0.861823797
5386256 0.344811469 -0.867883086
5394256 0.341671854 -0.872769892
5402184 0.337907642 -0.875653028
5410084 0.333517611 -0.877630472
5417984 0.329532325 -0.878274321
5425884 0.32563132 -0.878505825
5433884 0.322033762 -0.878191888
5441784 0.318520128 -0.877898573
5449684 0.315435349 -0.876883089
5457584 0.312992811 -0.876021206
5465584 0.310843318 -0.875047624
5473484 0.308743238 -0.873820424
5481384 0.306305021 -0.872849941
5489384 0.304285258 -0.871067941
5497284 0.302860528 -0.868764579
5505184 0.303208559 -0.866072893
5513084 0.305512696 -0.864210009
5521084 0.309992849 -0.865378081
5528984 0.311471372 -0.871097803
5536884 0.309116393 -0.877004981
5544884 0.304957538 -0.880495667
5552784 0.300371885 -0.88201344
5560684 0.296012878 -0.882943987
5568584 0.291941285 -0.882927834
5576584 0.288216978 -0.882659077
5584484 0.284902185 -0.882365107
5592384 0.281508505 -0.881317019
5600384 0.27872464 -0.880127906
5608284 0.276532083 -0.879093408
5616184 0.273952275 -0.877974867
5624084 0.2715981 -0.876546859
5632084 0.269540518 -0.874400436
5639984 0.268381178 -0.871991455
5647884 0.268596589 -0.869416594
5655784 0.270601689 -0.867360174
5663784 0.274651736 -0.867755591
5671684 0.277664631 -0.872959554
5679584 0.276202291 -0.879467368
5687584 0.27141267 -0.883910119
5695484 0.266182601 -0.885930776
5703384 0.261323183 -0.886650562
5711284 0.257144153 -0.886807203
5719284 0.253098994 -0.885866165
5727184 0.24987787 -0.885362863
5735084 0.246175453 -0.884346663
5743084 0.242672383 -0.882936
5750984 0.239612877 -0.88127911
5758884 0.237518057 -0.879636049
5766784 0.235150203 -0.877488791
5774784 0.233680292 -0.875160634
5782684 0.232922002 -0.872797429
5790584 0.233380034 -0.870289444
5798584 0.235279187 -0.868629693
5806484 0.238525107 -0.869054019
5814384 0.241268604 -0.87270385
5822284 0.240931063 -0.878956019
5830284 0.236770853 -0.883928
5838184 0.231025695 -0.886475026
5846084 0.225871086 -0.88724637
5853984 0.221157267 -0.887039422
5861984 0.216914892 -0.886558711
5869884 0.213518038 -0.885374903
5877784 0.21019718 -0.884783089
5885784 0.206584796 -0.883568942
5893684 0.202960491 -0.882085978
5901584 0.199868857 -0.879736542
5909484 0.197112023 -0.876637578
5917484 0.195258542 -0.873021364
5925384 0.195006132 -0.86972481
5933284 0.196595907 -0.866347849
5941284 0.199450895 -0.86536628
5949184 0.202682122 -0.866286873
5957084 0.205756351 -0.870298385
5964984 0.205262765 -0.876021325
5972984 0.201248899 -0.881646275
5980884 0.195210218 -0.884829282
5988784 0.189295709 -0.885680258
5996784 0.183963835 -0.885178804
6004684 0.179557979 -0.883898675
6012584 0.175155252 -0.882324278
6020484 0.172062933 -0.880762279
6028484 0.168985977 -0.879472792
6036384 0.165652289 -0.877960979
6044284 0.162022411 -0.875392556
6052184 0.159183651 -0.87202239
6060184 0.156991645 -0.867831885
6068084 0.156591579 -0.86352837
6075984 0.158392712 -0.859150767
6083984 0.162615537 -0.857463896
6091884 0.167323648 -0.858969271
6099784 0.169861286 -0.863845586
6107684 0.169469416 -0.8697443
6115684 0.165629088 -0.875577688
6123584 0.159874916 -0.878876388
6131484 0.153682738 -0.880276322
6139484 0.147873371 -0.880017817
6147384 0.142684847 -0.878561437
6155284 0.138362661 -0.876695454
6163184 0.134878352 -0.874135673
6171184 0.131970331 -0.871944725
6179084 0.129009097 -0.870099604
6186984 0.12571758 -0.867568016
6194984 0.12260577 -0.864605844
6202912 0.120277769 -0.860142886
6210812 0.120113231 -0.854899168
6218712 0.121829152 -0.849508523
6226612 0.127369791 -0.846023619
6234612 0.134923383 -0.847865819
6242512 0.138868629 -0.85444808
6250412 0.137897238 -0.862582921
6258312 0.133713006 -0.868578791
6266312 0.127283394 -0.872526109
6274212 0.120449796 -0.873979032
6282112 0.114076554 -0.873409748
6290112 0.107778057 -0.871557772
6298012 0.103916928 -0.867950737
6305912 0.099999256 -0.866052091
6313812 0.096507027 -0.862404167
6321812 0.095278121 -0.859654963
6329712 0.092603951 -0.856542289
6337612 0.09116055 -0.853947281
6345612 0.089351028 -0.849762439
6353512 0.088325381 -0.845444977
6361412 0.090582109 -0.839979588
6369312 0.094753116 -0.835793137
6377312 0.102373555 -0.834962606
6385212 0.109314545 -0.840647697
6393112 0.110580258 -0.850782036
6401112 0.105070948 -0.858770251
6409012 0.097859874 -0.862942159
6416912 0.089549928 -0.864502429
6424812 0.08301229 -0.863552033
6432812 0.076242685 -0.861253976
6440712 0.070700973 -0.857812762
6448612 0.066671952 -0.85380423
6456512 0.063389338 -0.849776327
6464512 0.061000321 -0.845205187
6472412 0.059124268 -0.841008424
6480312 0.058285165 -0.837154626
6488312 0.057101458 -0.832766652
6496212 0.057397723 -0.828264832
6504112 0.059020761 -0.823578834
6512012 0.062858805 -0.819453358
6520012 0.069795474 -0.817660093
6527912 0.077607922 -0.821888327
6535812 0.0805329 -0.832141876
6543812 0.075617462 -0.842357575
6551712 0.06642054 -0.847653567
6559612 0.056989725 -0.848521471
6567512 0.048717066 -0.846912384
6575512 0.041465245 -0.843317449
6583412 0.035898953 -0.839494526
6591312 0.0312008 -0.834232151
6599312 0.027792233 -0.828339815
6607212 0.025625115 -0.822692394
6615112 0.024439262 -0.816849708
6623012 0.024251079 -0.811834037
6631012 0.025066683 -0.806829869
6638912 0.026993455 -0.802387118
6646812 0.029975129 -0.797831833
6654712 0.034109752 -0.795206308
6662712 0.039647556 -0.794090092
6670612 0.047346886 -0.797424912
6678512 0.051551539 -0.806515932
6686512 0.047678466 -0.817858397
6694412 0.037724126 -0.824556887
6702312 0.02741016 -0.82609409
6710212 0.018203932 -0.823246896
6718212 0.011157021 -0.819188237
6726112 0.005217358 -0.813790559
6734012 0.000643455 -0.808252334
6742012 -0.002863192 -0.801189005
6749912 -0.004724518 -0.794665336
6757812 -0.005172243 -0.787492573
6765712 -0.003985508 -0.78101617
6773712 -0.001325645 -0.774810373
6781612 0.003018838 -0.770356207
6789512 0.008753073 -0.767303526
6797512 0.014460939 -0.766851425
6805412 0.020369442 -0.768824458
6813312 0.024901412 -0.773711502
6821212 0.027506992 -0.781582891
6829212 0.024171596 -0.791595697
6837112 0.015364198 -0.798452258
6845012 0.004119893 -0.799761176
6852912 -0.005575 -0.796432197
6860912 -0.01318117 -0.791184604
6868812 -0.018168896 -0.785157024
6876712 -0.022140154 -0.77873063
6884712 -0.025070015 -0.77166742
6892612 -0.026468863 -0.764165699
6900512 -0.02642999 -0.756597697
6908412 -0.024266321 -0.749262869
6916412 -0.020376542 -0.7424739
6924312 -0.014445843 -0.737297058
6932212 -0.007037321 -0.734877169
6940212 0.000799946 -0.73572582
6948112 0.007234329 -0.739600062
6956012 0.011246004 -0.746513366
6963912 0.0122499 -0.225099952
6971912 0.007803981 -0.763804256
6979812 -0.000999362 -0.770188033
6987712 -0.011940778 -0.77160114
6995712 -0.022399958 -0.767832815
7003640 -0.030520644 -0.761634945
7011540 -0.03550462 -0.753544509
7019440 -0.03802241 -0.745722115
7027340 -0.039358079 -0.738232672
7035340 -0.039247706 -0.730444312
7043240 -0.037831149 -0.723042666
7051140 -0.034905906 -0.715129554
7059040 -0.029695827 -0.708368778
7067040 -0.021328089 -0.702730417
7074940 -0.011212767 -0.70081073
7082840 -0.001611664 -0.703763127
7090840 0.006068347 -0.711299598
7098740 0.008806466 -0.720919013
7106640 0.006460264 -0.731954514
7114540 -0.000397656 -0.739713728
7122540 -0.010596267 -0.744065701
7130440 -0.022025715 -0.743592858
7138340 -0.032132457 -0.738909423
7146340 -0.039310865 -0.730821549
7154240 -0.043192092 -0.721053838
7162140 -0.043661549 -0.712178051
7170040 -0.04280813 -0.704464673
7178040 -0.04016786 -0.69721508
7185940 -0.037072252 -0.690278947
7193840 -0.032824844 -0.684920012
7201840 -0.027217961 -0.679273426
7209740 -0.019817957 -0.674972116
7217640 -0.009518893 -0.673575282
7225540 0.000733767 -0.676242172
7233540 0.009801354 -0.684328556
7241440 0.013377591 -0.695996582
7249340 0.009821789 -0.70810467
7257240 0.001690671 -0.717061519
7265240 -0.010148363 -0.720869362
7273140 -0.022135835 -0.718875348
7281040 -0.032031379 -0.71265316
7289040 -0.038860011 -0.70351988
7296940 -0.041301812 -0.693048894
7304840 -0.040703885 -0.682708024
7312740 -0.037445243 -0.67386341
7320740 -0.032179009 -0.666675984
7328640 -0.026108985 -0.661628961
7336540 -0.020087482 -0.657695412
7344540 -0.013186251 -0.654984593
7352440 -0.005597404 -0.653093636
7360340 0.003402672 -0.653340578
7368240 0.012661041 -0.65664047
7376240 0.021683892 -0.664814889
7384140 0.026234339 -0.677075028
7392040 0.023171216 -0.691452562
7400040 0.012536159 -0.702375411
7407940 -0.002103811 -0.705726683
7415840 -0.015329468 -0.701857566
7423740 -0.024815035 -0.693101167
7431740 -0.029930202 -0.682135224
7439640 -0.030743224 -0.67066437
7447540 -0.027447614 -0.660084784
7455440 -0.021769095 -0.651618063
7463440 -0.014235643 -0.645290136
7471340 -0.005641523 -0.642038464
7479240 0.002416314 -0.641306102
7487240 0.010106807 -0.642134487
7495140 0.017541829 -0.644269466
7503040 0.023793181 -0.647224068
7510940 0.030143242 -0.652463257
7518940 0.035049729 -0.659625232
7526840 0.038149062 -0.669408917
7534740 0.036476079 -0.681478202
7542740 0.028197608 -0.692387819
7550640 0.014474257 -0.697942018
7558540 -0.00029854 -0.695061445
7566440 -0.010951004 -0.685318946
7574440 -0.015408257 -0.672553658
7582340 -0.014610965 -0.660098195
7590240 -0.009360611 -0.649487793
7598240 -0.001235272 -0.642098307
7606140 0.008201102 -0.637814462
7614040 0.017699982 -0.636884152
7621940 0.02688319 -0.638621807
7629940 0.034364182 -0.642415344
7637840 0.040181707 -0.647679507
7645740 0.044250443 -0.653247535
7653640 0.047500401 -0.659318447
7661640 0.049886792 -0.666476368
7669540 0.050572898 -0.67463839
7677440 0.047980193 -0.683961272
7685440 0.040992554 -0.693324387
7693340 0.028989832 -0.698051154
7701240 0.014659313 -0.696334123
7709140 0.004031414 -0.685736894
7717140 0.001040718 -0.672305762
7725040 0.004290971 -0.660767257
7732940 0.011622788 -0.652513742
7740940 0.02024375 -0.647505819
7748840 0.029119612 -0.645602703
7756740 0.038256313 -0.646296322
7764640 0.046448424 -0.649106144
7772640 0.053731396 -0.654505968
7780540 0.058681666 -0.661578953
7788440 0.061354834 -0.669025003
7796440 0.062261082 -0.677049279
7804368 0.061173263 -0.684201717
