# Hz S RI R 50
3000000 0.749248266 -0.631660521
3007900 0.747638761 -0.633436739
3015800 0.745790123 -0.634774684
3023700 0.74377954 -0.636034071
3031700 0.742147028 -0.637071549
3039600 0.739877283 -0.638269424
3047500 0.738190174 -0.638393998
3055400 0.737765967 -0.637986123
3063400 0.738541662 -0.639140188
3071300 0.738285839 -0.641651213
3079200 0.737216353 -0.64439702
3087200 0.735860705 -0.646804511
3095100 0.733696222 -0.648994147
3103000 0.73195064 -0.651097238
3110900 0.729837298 -0.652309179
3118900 0.728521406 -0.654034018
3126800 0.726440191 -0.655611634
3134700 0.724699914 -0.657105088
3142700 0.722988128 -0.65847373
3150600 0.72104758 -0.660074114
3158500 0.719230353 -0.661638259
3166400 0.717090189 -0.66271907
3174400 0.715346455 -0.663687229
3182300 0.713110446 -0.664620339
3190200 0.711438775 -0.664966523
3198200 0.710327923 -0.664955198
3206100 0.710397124 -0.665487825
3214000 0.710955202 -0.667247533
3221900 0.710075616 -0.670818805
3229900 0.708445489 -0.673041939
3237800 0.70640701 -0.675135612
3245700 0.704249083 -0.676575481
3253600 0.702625691 -0.678675234
3261600 0.700464963 -0.680119752
3269500 0.698679029 -0.681405365
3277400 0.696958005 -0.682715773
3285400 0.694797694 -0.684261679
3293300 0.69332993 -0.686086177
3301200 0.691263198 -0.687544822
3309100 0.688631951 -0.688648343
3317100 0.686823427 -0.689676821
3325000 0.684942781 -0.690717101
3332900 0.682820141 -0.691147148
3340900 0.681138694 -0.691090047
3348800 0.681114494 -0.690742254
3356700 0.681840479 -0.692542195
3364600 0.681262254 -0.695302426
3372600 0.679559409 -0.697885334
3380500 0.677710473 -0.700454652
3388400 0.675503075 -0.702047049
3396400 0.6739192 -0.704238295
3404300 0.671329975 -0.705533385
3412200 0.669346034 -0.706770896
3420100 0.66763699 -0.708085954
3428100 0.665347099 -0.710068464
3436000 0.663618445 -0.711278855
3443900 0.661260664 -0.712908208
3451800 0.659237444 -0.713986992
3459800 0.657194912 -0.714825212
3467700 0.654738008 -0.715858042
3475600 0.652347087 -0.716214478
3483600 0.650546669 -0.716082394
3491500 0.650278508 -0.715122401
3499400 0.651173532 -0.716766595
3507300 0.650999546 -0.720005214
3515300 0.649368286 -0.722462713
3523200 0.647237002 -0.725247323
3531100 0.645050525 -0.726856589
3539100 0.642831206 -0.728582262
3547000 0.640704095 -0.73021394
3554900 0.638564586 -0.731559872
3562800 0.636582911 -0.732975482
3570800 0.634318768 -0.734580218
3578700 0.632107794 -0.735999405
3586600 0.6298725 -0.737421989
3594600 0.627158105 -0.738560557
3602500 0.625140964 -0.73957169
3610400 0.62267524 -0.740522146
3618300 0.620057702 -0.741024017
3626300 0.618303358 -0.740686833
3634200 0.616911947 -0.740068912
3642100 0.618019104 -0.740390062
3650000 0.61783719 -0.743187606
3658000 0.616342484 -0.745891273
3665900 0.614530563 -0.748694121
3673800 0.612388968 -0.750798404
3681800 0.609969377 -0.752481281
3689700 0.607434809 -0.753931462
3697600 0.605527162 -0.755490124
3705500 0.603158473 -0.756885588
3713500 0.600683331 -0.758520066
3721400 0.598267018 -0.759705722
3729300 0.596041142 -0.761120736
3737300 0.5935148 -0.762464463
3745200 0.590727925 -0.763445913
3753100 0.5882501 -0.764002084
3761000 0.585752308 -0.764273941
3769000 0.58296442 -0.764291703
3776900 0.581473588 -0.763339459
3784800 0.582030117 -0.762816667
3792800 0.583275914 -0.764468371
3800728 0.582296192 -0.767943263
3808628 0.579959034 -0.771197736
3816528 0.577658653 -0.773294031
3824428 0.575113415 -0.775229096
3832428 0.57241255 -0.776599705
3840328 0.569810211 -0.777993321
3848228 0.567757785 -0.779415249
3856128 0.564879775 -0.781007349
3864128 0.562565445 -0.782248914
3872028 0.559693396 -0.783729076
3879928 0.556989908 -0.784849464
3887928 0.554105699 -0.785651803
3895828 0.551490247 -0.786256134
3903728 0.548409163 -0.786302328
3911628 0.545693635 -0.785667121
3919628 0.543934345 -0.784469485
3927528 0.544618785 -0.783306419
3935428 0.546105802 -0.785360395
3943428 0.545715689 -0.788717567
3951328 0.543474555 -0.791986942
3959228 0.540788054 -0.794561505
3967128 0.537806451 -0.796525776
3975128 0.535283684 -0.798003256
3983028 0.532553136 -0.799171984
3990928 0.530118763 -0.800463914
3998928 0.527159631 -0.801855385
4006828 0.524278163 -0.803316175
4014728 0.521552562 -0.804202973
4022628 0.51840806 -0.805347383
4030628 0.515423119 -0.805670201
4038528 0.5127393 -0.806088507
4046428 0.509607195 -0.806459128
4054328 0.506975173 -0.806237518
4062328 0.504670858 -0.804883241
4070228 0.50455296 -0.803782761
4078128 0.505863547 -0.804000496
4086128 0.506354868 -0.807421803
4094028 0.5044173 -0.810731589
4101928 0.501900494 -0.813660085
4109828 0.49884209 -0.815443873
4117828 0.495987474 -0.817108929
4125728 0.492839932 -0.818628132
4133628 0.489650189 -0.8199023
4141628 0.4871625 -0.821068108
4149528 0.484265655 -0.822313964
4157428 0.481325924 -0.823448121
4165328 0.477813839 -0.824264049
4173328 0.474577277 -0.82460308
4181228 0.471432596 -0.825111627
4189128 0.468067705 -0.825085759
4197128 0.465227663 -0.824042379
4205028 0.462666779 -0.822384476
4212928 0.462862133 -0.820755481
4220828 0.464138895 -0.820510447
4228828 0.465381801 -0.823521912
4236728 0.463865846 -0.827324628
4244628 0.461023002 -0.83081144
4252528 0.457778632 -0.832862317
4260528 0.454543024 -0.834462344
4268428 0.451122403 -0.835915923
4276328 0.448034316 -0.836847722
4284328 0.444934785 -0.838402032
4292228 0.441697001 -0.839115679
4300128 0.438206166 -0.840154111
4308028 0.434593021 -0.840903222
4316028 0.431326806 -0.840856134
4323928 0.428233355 -0.84068644
4331828 0.42501977 -0.840525925
4339828 0.422248423 -0.839490473
4347728 0.419809848 -0.837877213
4355628 0.418977826 -0.835608065
4363528 0.421056002 -0.834223449
4371528 0.422933399 -0.83802402
4379428 0.421426117 -0.842396497
4387328 0.418412744 -0.845746159
4395328 0.414672672 -0.847734749
4403228 0.411011338 -0.849482595
4411128 0.407591491 -0.850522756
4419028 0.404374331 -0.851581633
4427028 0.401146322 -0.852568209
4434928 0.397851347 -0.853574931
4442828 0.394223839 -0.854406356
4450728 0.391027301 -0.854470133
4458728 0.386984854 -0.854547858
4466628 0.383837282 -0.854521453
4474528 0.380314946 -0.853535473
4482528 0.377420067 -0.852577745
4490428 0.37523815 -0.850914835
4498328 0.374170333 -0.848548948
4506228 0.375735163 -0.847621977
4514228 0.377856761 -0.849748194
4522128 0.377090185 -0.854076921
4530028 0.374216228 -0.857869386
4538028 0.370243221 -0.860291779
4545928 0.366551488 -0.861981153
4553828 0.362893313 -0.863201975
4561728 0.359506398 -0.864032626
4569728 0.355836302 -0.865243434
4577628 0.352211683 -0.865900635
4585528 0.348496973 -0.866354644
4593528 0.344916105 -0.866417407
4601456 0.341129869 -0.86543703
4609356 0.337509959 -0.864847719
4617256 0.334234386 -0.864242076
4625156 0.331097751 -0.863037168
4633156 0.328325599 -0.861203372
4641056 0.327147603 -0.858469426
4648956 0.328336298 -0.856602847
4656856 0.331082105 -0.85814476
4664856 0.331201106 -0.862588524
4672756 0.32826066 -0.866993904
4680656 0.324406862 -0.86994332
4688656 0.320244044 -0.871521592
4696556 0.316213935 -0.872586846
4704456 0.312392175 -0.873450577
4712356 0.308922708 -0.874143302
4720356 0.304975509 -0.874920666
4728256 0.301035106 -0.875090539
4736156 0.296898841 -0.87529236
4744156 0.293044894 -0.874856591
4752056 0.289172679 -0.874035835
4759956 0.285669773 -0.872947394
4767856 0.282429784 -0.871431469
4775856 0.280032038 -0.86885488
4783756 0.279169738 -0.866178631
4791656 0.280142098 -0.864255249
4799656 0.283160269 -0.865954995
4807556 0.283273667 -0.870233476
4815456 0.280646651 -0.874930202
4823356 0.276640683 -0.877769529
4831356 0.271721094 -0.87928301
4839256 0.267662078 -0.880614042
4847156 0.263521134 -0.881203174
4855056 0.259299248 -0.881865978
4863056 0.255131185 -0.882324695
4870956 0.251042276 -0.882216811
4878856 0.246982097 -0.881881475
4886856 0.242950528 -0.880959391
4894756 0.239151611 -0.880418896
4902656 0.235902637 -0.879291653
4910556 0.232511669 -0.877857744
4918556 0.229469925 -0.875596404
4926456 0.227563887 -0.872849225
4934356 0.227923363 -0.870250403
4942356 0.230548426 -0.869988918
4950256 0.232086598 -0.873574078
4958156 0.230294793 -0.878493785
4966056 0.225785985 -0.881916046
4974056 0.221223503 -0.88373363
4981956 0.216609165 -0.88491702
4989856 0.212355613 -0.885609745
4997856 0.208259284 -0.886124134
5005756 0.204001009 -0.886496067
5013656 0.199423715 -0.886778473
5021556 0.19478856 -0.88642919
5029556 0.189932301 -0.885574579
5037456 0.185818538 -0.884374558
5045356 0.181698918 -0.882321596
5053256 0.178230836 -0.880275607
5061256 0.175189822 -0.877605855
5069156 0.17337197 -0.873963177
5077056 0.173708036 -0.87067312
5085056 0.176312997 -0.869131743
5092956 0.179414376 -0.872479259
5100856 0.178374156 -0.8781991
5108756 0.174050882 -0.882827043
5116756 0.168868228 -0.885307192
5124656 0.163264244 -0.886445641
5132556 0.158249139 -0.886784791
5140556 0.153451979 -0.886952638
5148456 0.148784011 -0.886753976
5156356 0.143695622 -0.886554837
5164256 0.138892069 -0.885569036
5172256 0.134288668 -0.883543252
5180156 0.129853948 -0.881613016
5188056 0.126074165 -0.879604578
5196056 0.122113294 -0.877193808
5203956 0.119443625 -0.873993813
5211856 0.117588214 -0.86992985
5219756 0.117985285 -0.865943849
5227756 0.121143713 -0.864773035
5235656 0.123926669 -0.867814421
5243556 0.122890748 -0.873027384
5251456 0.118814952 -0.877346336
5259456 0.113607883 -0.879835784
5267356 0.108009256 -0.880812168
5275256 0.102808587 -0.881304025
5283256 0.097512654 -0.881443798
5291156 0.092632494 -0.880959749
5299056 0.087324686 -0.88024491
5306956 0.082409568 -0.878750503
5314956 0.077325694 -0.876532852
5322856 0.072856642 -0.87430948
5330756 0.068792246 -0.871636867
5338756 0.065112985 -0.868314802
5346656 0.062101032 -0.864382207
5354556 0.060331653 -0.860216438
5362456 0.060870181 -0.855902433
5370456 0.063408397 -0.85303688
5378356 0.0675342 -0.854447901
5386256 0.068516895 -0.860293686
5394256 0.064705252 -0.86604166
5402184 0.058778654 -0.869847178
5410084 0.052358426 -0.870743632
5417984 0.046625766 -0.871288359
5425884 0.041510939 -0.870520532
5433884 0.035994306 -0.869857311
5441784 0.030657146 -0.868692815
5449684 0.025090618 -0.867025792
5457584 0.019859233 -0.864351332
5465584 0.015159755 -0.861513733
5473484 0.011186192 -0.858025431
5481384 0.00770837 -0.853629589
5489384 0.004883604 -0.849102973
5497284 0.003270129 -0.844382464
5505184 0.004039031 -0.839426875
5513084 0.007306995 -0.835980415
5521084 0.012258197 -0.837451457
5528984 0.014290179 -0.843084812
5536884 0.011103282 -0.849736154
5544884 0.004776912 -0.852981925
5552784 -0.002283158 -0.854877948
5560684 -0.008075474 -0.854521453
5568584 -0.014262792 -0.854175269
5576584 -0.019391693 -0.852861046
5584484 -0.025771852 -0.851032257
5592384 -0.031338419 -0.848669409
5600384 -0.036862593 -0.8449741
5608284 -0.041361819 -0.84113866
5616184 -0.045430209 -0.836988329
5624084 -0.048286471 -0.832136392
5632084 -0.050498299 -0.827017724
5639984 -0.051647514 -0.821986973
5647884 -0.050787419 -0.816467165
5655784 -0.04722673 -0.813206672
5663784 -0.041476745 -0.813769638
5671684 -0.038623601 -0.819818198
5679584 -0.041393227 -0.827459871
5687584 -0.048556182 -0.831854581
5695484 -0.056296177 -0.833135485
5703384 -0.06286145 -0.832369208
5711284 -0.069685861 -0.831189513
5719284 -0.075306124 -0.829303085
5727184 -0.081108003 -0.82689011
5735084 -0.086660802 -0.823735058
5743084 -0.091475456 -0.819659471
5750984 -0.095713369 -0.81565541
5758884 -0.099731065 -0.81114304
5766784 -0.103208974 -0.806530714
5774784 -0.105256877 -0.801176726
5782684 -0.106531463 -0.795682072
5790584 -0.106114692 -0.78982979
5798584 -0.102318435 -0.785363435
5806484 -0.097172275 -0.785151362
5814384 -0.093751646 -0.789314568
5822284 -0.09471175 -0.79588586
5830284 -0.100162416 -0.801307201
5838184 -0.107394531 -0.803521871
5846084 -0.11456421 -0.803622007
5853984 -0.121367864 -0.802696406
5861984 -0.128493681 -0.800982654
5869884 -0.135218635 -0.798007249
5877784 -0.1416018 -0.794562339
5885784 -0.147359639 -0.789386928
5893684 -0.152168408 -0.783813536
5901584 -0.155988648 -0.777805924
5909484 -0.15883252 -0.771571099
5917484 -0.1602007 -0.764900088
5925384 -0.160805508 -0.758575201
5933284 -0.159248024 -0.752018809
5941284 -0.154967144 -0.747185707
5949184 -0.148391112 -0.745744407
5957084 -0.142700165 -0.750539302
5964984 -0.142571955 -0.759314417
5972984 -0.148982927 -0.766295373
5980884 -0.157518163 -0.769361674
5988784 -0.166224613 -0.768990278
5996784 -0.174079179 -0.766594827
6004684 -0.181401252 -0.763621151
6012584 -0.188075646 -0.759343147
6020484 -0.194317489 -0.754502415
6028484 -0.199345394 -0.748525798
6036384 -0.203798636 -0.742201328
6044284 -0.207302421 -0.735492765
6052184 -0.208998218 -0.728776931
6060184 -0.210533365 -0.721588909
6068084 -0.210153147 -0.714355468
6075984 -0.20744881 -0.707329511
6083984 -0.202025815 -0.702202379
6091884 -0.195173531 -0.700637996
6099784 -0.188578099 -0.704786658
6107684 -0.187255427 -0.713079333
6115684 -0.192747071 -0.721725761
6123584 -0.201565116 -0.725221633
6131484 -0.210944801 -0.725235223
6139484 -0.219460904 -0.722942531
6147384 -0.227164834 -0.71950078
6155284 -0.234345734 -0.714679419
6163184 -0.240914076 -0.708665788
6171184 -0.246087357 -0.701719582
6179084 -0.250196248 -0.693889915
6186984 -0.252656668 -0.685771882
6194984 -0.25392735 -0.677879273
6202912 -0.253653049 -0.669996321
6210812 -0.252285093 -0.662452995
6218712 -0.248406872 -0.655006349
6226612 -0.242325797 -0.649937093
6234612 -0.23384945 -0.647953987
6242512 -0.224959731 -0.652507662
6250412 -0.222106099 -0.662705779
6258312 -0.227294936 -0.672696352
6266312 -0.237550333 -0.678147792
6274212 -0.248276382 -0.678007841
6282112 -0.257601916 -0.675019264
6290112 -0.266237109 -0.670349419
6298012 -0.273010045 -0.66406852
6305912 -0.278793722 -0.657056033
6313812 -0.283508211 -0.648579895
6321812 -0.28646022 -0.639909446
6329712 -0.287710011 -0.630982398
6337612 -0.288299053 -0.622855007
6345612 -0.286604613 -0.613904416
6353512 -0.284098207 -0.605528473
6361412 -0.27899897 -0.597706854
6369312 -0.270653605 -0.592177748
6377312 -0.260506778 -0.59100753
6385212 -0.250375837 -0.59598428
6393112 -0.245840996 -0.607593834
6401112 -0.250678777 -0.619021594
6409012 -0.26154372 -0.626096308
6416912 -0.273661941 -0.626967489
6424812 -0.285016447 -0.623595952
6432812 -0.294554799 -0.617493808
6440712 -0.30221194 -0.609294176
6448612 -0.308350414 -0.599798917
6456512 -0.312148898 -0.589654207
6464512 -0.313971817 -0.578789234
6472412 -0.31369245 -0.568355262
6480312 -0.311489492 -0.558493316
6488312 -0.307258725 -0.54928863
6496212 -0.302015841 -0.541811406
6504112 -0.294748306 -0.535471618
6512012 -0.285738795 -0.531371474
6520012 -0.275190204 -0.531234264
6527912 -0.2655586 -0.537212073
6535812 -0.261021822 -0.549285173
6543812 -0.266716837 -0.561972737
6551712 -0.278900563 -0.569020569
6559612 -0.292315989 -0.568163752
6567512 -0.303946644 -0.562803328
6575512 -0.312512785 -0.554778456
6583412 -0.31936258 -0.545068323
6591312 -0.323226988 -0.535393595
6599312 -0.325750648 -0.524144828
6607212 -0.325994282 -0.513728857
6615112 -0.324350535 -0.503564417
6623012 -0.321506649 -0.494175046
6631012 -0.316816389 -0.484407722
6638912 -0.31025362 -0.476111412
6646812 -0.301384389 -0.470155775
6654712 -0.290786057 -0.466345727
6662712 -0.278010547 -0.467443108
6670612 -0.267442584 -0.474861592
6678512 -0.262764066 -0.487589687
6686512 -0.266846746 -0.50172621
6694412 -0.279237598 -0.51033914
6702312 -0.293890208 -0.51129055
6710212 -0.306512981 -0.506622791
6718212 -0.317056953 -0.497721672
6726112 -0.324217915 -0.486857265
6734012 -0.328788548 -0.474569946
6742012 -0.329916626 -0.461448639
6749912 -0.32820335 -0.448990345
6757812 -0.32377699 -0.437211781
6765712 -0.317598313 -0.427192389
6773712 -0.309162139 -0.41882053
6781612 -0.299879968 -0.412754386
6789512 -0.289016634 -0.408456921
6797512 -0.276928961 -0.407765775
6805412 -0.264779865 -0.411373406
6813312 -0.254609674 -0.42100051
6821212 -0.250347107 -0.435973018
6829212 -0.256603032 -0.451747477
6837112 -0.271402508 -0.460456132
6845012 -0.288036882 -0.460032016
6852912 -0.301107913 -0.452523112
6860912 -0.310575962 -0.440841257
6868812 -0.315688788 -0.428174138
6876712 -0.317300677 -0.41560176
6884712 -0.315539181 -0.402527481
6892612 -0.311350047 -0.390877604
6900512 -0.305049598 -0.380619674
6908412 -0.297486841 -0.37224397
6916412 -0.287959545 -0.365198016
6924312 -0.277388185 -0.360535144
6932212 -0.265194416 -0.357895433
6940212 -0.252948224 -0.359325945
6948112 -0.240541279 -0.365344136
6956012 -0.231297522 -0.376804649
6963912 -0.228015229 -0.391927719
6971912 -0.234851017 -0.40806052
6979812 -0.249136298 -0.417746007
6987712 -0.266545623 -0.417637497
6995712 -0.281041324 -0.40971902
7003640 -0.290559947 -0.397065818
7011540 -0.294912546 -0.383133977
7019440 -0.294970542 -0.369034707
7027340 -0.291012972 -0.356295317
7035340 -0.284567594 -0.344814091
7043240 -0.276260554 -0.334983915
7051140 -0.266139239 -0.328110039
7059040 -0.254328221 -0.323265701
7067040 -0.24180077 -0.321193218
7074940 -0.229975581 -0.3227939
7082840 -0.217870667 -0.326843202
7090840 -0.207222238 -0.334956586
7098740 -0.199676215 -0.347818285
7106640 -0.198070779 -0.36392349
7114540 -0.205583542 -0.379418194
7122540 -0.220683306 -0.389083474
7130440 -0.238622099 -0.388936877
7138340 -0.253507733 -0.380252808
7146340 -0.262631028 -0.367254704
7154240 -0.265894234 -0.352067917
7162140 -0.264324218 -0.338021248
7170040 -0.259316772 -0.325044095
7178040 -0.250513851 -0.314549982
7185940 -0.239909261 -0.306277573
7193840 -0.228206917 -0.301799356
7201840 -0.216072276 -0.299264818
7209740 -0.20342718 -0.299582839
7217640 -0.190870761 -0.303348839
7225540 -0.179279893 -0.31025055
7233540 -0.170111015 -0.321801602
7241440 -0.164197504 -0.335702687
7249340 -0.165150761 -0.353010565
7257240 -0.173793733 -0.368492573
7265240 -0.191224217 -0.378269374
7273140 -0.210599854 -0.377455145
7281040 -0.226185679 -0.367202699
7289040 -0.235023647 -0.352407485
7296940 -0.237138599 -0.336031496
7304840 -0.233006283 -0.32100895
7312740 -0.225358277 -0.309004276
7320740 -0.214418426 -0.299899667
7328640 -0.201401174 -0.294233083
7336540 -0.188483178 -0.292340725
7344540 -0.175378248 -0.293429315
7352440 -0.163265988 -0.298151314
7360340 -0.152990862 -0.305684775
7368240 -0.144348055 -0.315698832
7376240 -0.138267979 -0.328204572
7384140 -0.136664018 -0.343051016
7392040 -0.140831515 -0.35828495
7400040 -0.152018219 -0.371720612
7407940 -0.168854877 -0.378773212
7415840 -0.187233522 -0.376313209
7423740 -0.20142202 -0.365211814
7431740 -0.207751259 -0.350091874
7439640 -0.207614019 -0.335174471
7447540 -0.202947348 -0.322524636
7455440 -0.194812417 -0.312148243
7463440 -0.183579877 -0.305091977
7471340 -0.171467944 -0.301742404
7479240 -0.158905312 -0.30152139
7487240 -0.146822974 -0.305194765
7495140 -0.135911941 -0.311547517
7503040 -0.127399981 -0.320464134
7510940 -0.120665669 -0.331715852
7518940 -0.117682941 -0.345106303
7526840 -0.118232838 -0.358943045
7534740 -0.123276188 -0.372838944
7542740 -0.134767457 -0.385623812
7550640 -0.151233002 -0.392587214
7558540 -0.169894948 -0.391378223
7566440 -0.185444638 -0.380919963
7574440 -0.193686857 -0.364982485
7582340 -0.194391444 -0.348498702
7590240 -0.188576489 -0.333990991
7598240 -0.177459046 -0.323147088
7606140 -0.164167642 -0.317689239
7614040 -0.150109186 -0.317319899
7621940 -0.137747377 -0.320816934
7629940 -0.126563519 -0.327834397
7637840 -0.118011176 -0.337121605
7645740 -0.112428702 -0.34844619
7653640 -0.109548896 -0.36070618
7661640 -0.109980903 -0.373648554
7669540 -0.113810077 -0.387102037
7677440 -0.121791101 -0.39937815
7685440 -0.135033667 -0.408798187
7693340 -0.15173918 -0.413070738
7701240 -0.169450432 -0.409366339
7709140 -0.182994589 -0.397329449
7717140 -0.188843712 -0.38149023
7725040 -0.186646237 -0.366364985
7732940 -0.179446011 -0.354406684
7740940 -0.168673843 -0.346633732
7748840 -0.156460657 -0.343465328
