# Hz S RI R 50
50000 -0.728914499 0.064744576
73700 -0.721200287 0.061859533
97400 -0.718407988 0.065222449
121100 -0.716296732 0.070933096
144800 -0.713900566 0.077997259
168500 -0.712391078 0.085764624
192200 -0.710554778 0.094067879
215900 -0.708614587 0.102385468
239600 -0.706217527 0.111053042
263300 -0.704261362 0.119549266
287100 -0.701720118 0.128115713
310800 -0.699007868 0.136662349
334500 -0.696349203 0.145680561
358200 -0.693628311 0.154264509
381900 -0.690736472 0.162701085
405600 -0.687810897 0.171119719
429300 -0.684802889 0.179837554
453000 -0.681618452 0.188192337
476700 -0.678418457 0.196509733
500400 -0.674861848 0.204852625
524200 -0.671311438 0.213517904
547900 -0.667870044 0.221595451
571600 -0.664060413 0.229697942
595300 -0.660070955 0.237908944
619000 -0.656266868 0.245753154
642700 -0.65222913 0.254001677
666400 -0.64826852 0.261764675
690100 -0.644164025 0.269795417
713800 -0.639972686 0.277323663
737500 -0.635382592 0.285187691
761300 -0.631059825 0.292817115
785000 -0.626404881 0.300567626
808700 -0.621763765 0.308161199
832400 -0.616900563 0.315442144
856100 -0.612015068 0.322826385
879800 -0.60695672 0.330312728
903500 -0.602122247 0.337260335
927200 -0.596928954 0.344504177
950900 -0.591919898 0.351779371
974600 -0.586368381 0.358720511
998400 -0.580942273 0.365592211
1022100 -0.575362265 0.372566878
1045800 -0.569610655 0.379512399
1069500 -0.563745081 0.386393249
1093200 -0.558089733 0.392851829
1116900 -0.552312076 0.399296432
1140600 -0.546257913 0.4058429
1164300 -0.540147662 0.412450879
1188000 -0.534264206 0.418866902
1211700 -0.527809858 0.425233632
1235500 -0.521143734 0.431425333
1259200 -0.514737188 0.43754515
1282900 -0.508032619 0.443231284
1306600 -0.501215577 0.449365675
1330300 -0.494634389 0.45495066
1354000 -0.488026857 0.46074751
1377700 -0.48105359 0.466546088
1401400 -0.473967105 0.472158998
1425100 -0.466323047 0.478122532
1448800 -0.458928585 0.483551084
1472600 -0.451487332 0.488438516
1496300 -0.443664878 0.493605643
1520000 -0.436254978 0.498356193
1543700 -0.428611785 0.503446459
1567400 -0.420973271 0.508869826
1591100 -0.412844032 0.513645291
1614800 -0.404442727 0.518451631
1638500 -0.395896077 0.523082375
1662200 -0.387128382 0.527308821
1685900 -0.378762274 0.531385481
1709700 -0.370287388 0.535396337
1733400 -0.361709922 0.53980863
1757100 -0.352561265 0.543921649
1780800 -0.342965394 0.547988057
1804500 -0.333537608 0.551749825
1828200 -0.323683589 0.554893016
1851900 -0.314212679 0.557610094
1875600 -0.304936677 0.561187624
1899300 -0.29489988 0.564268112
1923000 -0.284570366 0.567129492
1946800 -0.273386865 0.569122493
1970500 -0.262734025 0.571275115
1994200 -0.252042144 0.573445081
2017900 -0.240532964 0.57575792
2041600 -0.229448407 0.577428996
2065300 -0.217781722 0.578448891
2089000 -0.205871701 0.579459369
2112700 -0.195119872 0.579162418
2136400 -0.182546004 0.580110788
2160100 -0.169060096 0.579205036
2183900 -0.1563607 0.577428162
2207600 -0.143657177 0.577785372
2231300 -0.128768354 0.57516551
2255000 -0.115597948 0.572853446
2278700 -0.103172153 0.570730447
2302400 -0.087764441 0.566614151
2326100 -0.07482028 0.561134696
2349800 -0.061047181 0.554065287
2373500 -0.046150732 0.54916954
2397200 -0.031236041 0.539914369
2421000 -0.016593195 0.531634271
2444710 -0.002236829 0.522996425
2468410 0.012845318 0.509861528
2492110 0.024055361 0.498694777
2515810 0.035253923 0.48658213
2539510 0.050182949 0.46992442
2563210 0.059979695 0.451123356
2586910 0.06784822 0.430257171
2610610 0.07581073 0.415148407
2634310 0.08312764 0.393553316
2658010 0.086166322 0.368427515
2681810 0.085642434 0.35145682
2705510 0.086604155 0.326755672
2729210 0.076801605 0.303138643
2752910 0.068198688 0.291948556
2776610 0.068603523 0.262325286
2800310 0.047425642 0.239241868
2824010 0.031373582 0.23301357
2847710 0.031264204 0.216902643
2871410 0.005175791 0.202352225
2895110 -0.01184003 0.198835089
2918910 -0.020820297 0.193206012
2942610 -0.047254279 0.184765264
2966310 -0.065532281 0.187623009
2990010 -0.072956494 0.186940535
3013710 -0.091809667 0.177831977
3037410 -0.110843606 0.182451918
3061110 -0.117442876 0.190584018
3084810 -0.122387461 0.186611056
3108510 -0.139124587 0.194761037
3132210 -0.147473141 0.205714374
3156010 -0.151155978 0.209307238
3179710 -0.167599529 0.217392072
3203410 -0.176061764 0.2286437
3227110 -0.176028847 0.231731861
3250810 -0.190165609 0.233872517
3274510 -0.197819396 0.244435951
3298210 -0.193406119 0.254628628
3321910 -0.197946056 0.252482801
3345610 -0.203399121 0.26336649
3369310 -0.201999634 0.275241643
3393110 -0.2018013 0.277268171
3416810 -0.20792593 0.288775324
3440510 -0.206963449 0.298221111
3464210 -0.205390825 0.300872266
3487910 -0.21289964 0.308136463
3511610 -0.211149662 0.317228376
3535310 -0.205495551 0.323096156
3559010 -0.20822519 0.324069589
3582710 -0.206441372 0.333678603
3606410 -0.201246544 0.343785762
3630210 -0.197490349 0.345779448
3653910 -0.197426676 0.354078769
3677610 -0.192550987 0.362326502
3701310 -0.186852827 0.364961653
3725010 -0.187816068 0.369820833
3748710 -0.18207322 0.376624464
3772410 -0.172565206 0.37885037
3796110 -0.170203149 0.379116088
3819810 -0.16428335 0.383020192
3843510 -0.155575692 0.387265324
3867310 -0.148941844 0.385770142
3891010 -0.145283833 0.388498067
3914710 -0.138710126 0.392628461
3938410 -0.130600422 0.389742016
3962110 -0.129381433 0.387676894
3985810 -0.125308766 0.389897018
4009510 -0.115806132 0.386326342
4033210 -0.113363713 0.381434291
4056910 -0.108889192 0.381598234
4080610 -0.099068969 0.380186676
4104410 -0.095415711 0.37399885
4128110 -0.093476727 0.372649759
4151810 -0.086933486 0.371351689
4175510 -0.083445288 0.362782418
4199210 -0.08358246 0.356945931
4222910 -0.081032417 0.353288263
4246610 -0.07519558 0.34389466
4270310 -0.075105659 0.335149973
4294010 -0.075345285 0.329877644
4317710 -0.071482375 0.324540704
4341510 -0.072833545 0.313981771
4365210 -0.077696681 0.308096677
4388910 -0.079046174 0.303406506
4412610 -0.081919781 0.289794623
4436310 -0.091608777 0.281138777
4460010 -0.097132638 0.276285201
4483710 -0.098256774 0.264994829
4507410 -0.110856607 0.255722224
4531110 -0.120509438 0.253265559
4554810 -0.126253023 0.248841121
4578610 -0.142194539 0.240002721
4602310 -0.157720461 0.240751639
4626010 -0.169104278 0.240495994
4649710 -0.18471916 0.233443409
4673410 -0.202998697 0.236409991
4697110 -0.215948164 0.241071417
4720810 -0.227670297 0.240788236
4744510 -0.246959626 0.248107552
4768210 -0.259696751 0.259761571
4791910 -0.269994348 0.268806606
4815710 -0.288201451 0.278398275
4839420 -0.300655424 0.294670909
4863120 -0.308575332 0.308885186
4886820 -0.320389688 0.318663269
4910520 -0.329549252 0.33761987
4934220 -0.333192318 0.353542178
4957920 -0.336997926 0.366242289
4981620 -0.342782407 0.385511428
5005320 -0.342094093 0.403226166
5029020 -0.341600149 0.418338298
5052720 -0.344418913 0.434527099
5076520 -0.341733694 0.452505528
5100220 -0.338123887 0.466646313
5123920 -0.336525529 0.479767382
5147620 -0.331540048 0.495954573
5171320 -0.324970275 0.508930385
5195020 -0.319329172 0.520110249
5218720 -0.313508301 0.53411597
5242420 -0.305070966 0.546067953
5266120 -0.297146052 0.55602169
5289820 -0.291642487 0.566747486
5313620 -0.282631129 0.577410519
5337320 -0.273612588 0.585686266
5361020 -0.266883403 0.59287697
5384720 -0.25795871 0.602094888
5408420 -0.24834153 0.609022974
5432120 -0.239977255 0.614540398
5455820 -0.23219116 0.622289121
5479520 -0.222653374 0.628330111
5503220 -0.213869959 0.632952511
5526920 -0.206677958 0.638346612
5550720 -0.19741775 0.643264353
5574420 -0.188772112 0.646841943
5598120 -0.181254073 0.650226116
5621820 -0.172750532 0.654906272
5645520 -0.163951456 0.657635867
5669220 -0.156422793 0.65995568
5692920 -0.149224668 0.663601577
5716620 -0.140757784 0.665902733
5740320 -0.133465304 0.66748929
5764020 -0.127002194 0.669733822
5787820 -0.119002752 0.671652734
5811520 -0.111845895 0.672458291
5835220 -0.105766937 0.67412281
5858920 -0.098774388 0.675950646
5882620 -0.091977201 0.67644155
5906320 -0.086429931 0.677400767
5930020 -0.080304607 0.678925871
5953720 -0.073707878 0.679668068
5977420 -0.068411886 0.679871857
6001120 -0.06309513 0.681156337
6024920 -0.057067152 0.681919932
6048620 -0.051939282 0.682178676
6072320 -0.047204371 0.683192551
6096020 -0.041822742 0.684385478
6119720 -0.036990046 0.684727013
6143420 -0.033086333 0.685789883
6167120 -0.028322704 0.687235832
6190820 -0.024104144 0.688438355
6214520 -0.020354727 0.689846694
6238220 -0.015963304 0.692005753
6262020 -0.01181265 0.69389081
6285720 -0.007421385 0.695958435
6309420 -0.003205623 0.698201
6333120 0.001225765 0.700463414
6356820 0.005690905 0.702479541
6380520 0.010240177 0.704463779
6404220 0.014990086 0.70676732
6427920 0.019989047 0.708771765
6451620 0.02544891 0.710508644
6475320 0.030629256 0.712579309
6499120 0.036797542 0.714253365
6522820 0.042863119 0.715663433
6546520 0.048823002 0.717015802
6570220 0.055178705 0.718125224
6593920 0.061472896 0.719091832
6617620 0.067970916 0.719583988
6641320 0.07430759 0.720139205
6665020 0.080714784 0.720594406
6688720 0.087163351 0.720776259
6712420 0.093627899 0.720612823
6736220 0.100198544 0.720524191
6759920 0.106451809 0.720457673
6783620 0.112716503 0.720093965
6807320 0.119149662 0.719433248
6831020 0.125196248 0.718819141
6854720 0.131480857 0.718179941
6878420 0.137495711 0.717289984
6902120 0.143146678 0.716155767
6925820 0.14900428 0.714897453
6949520 0.154857724 0.71357274
6973320 0.160663127 0.712658643
6997020 0.166009902 0.711123824
7020720 0.17164877 0.709668159
7044420 0.177121609 0.708106637
7068120 0.182329922 0.706555426
7091820 0.187704682 0.704886555
7115520 0.192658066 0.703140676
7139220 0.197665423 0.701538383
7162920 0.202621549 0.699491262
7186620 0.207688927 0.697783052
7210420 0.212299093 0.695798397
7234130 0.216782301 0.694154322
7257830 0.221589639 0.692017853
7281530 0.226198345 0.690028429
7305230 0.230704298 0.688046276
7328930 0.235037401 0.686081051
7352630 0.239528268 0.683941602
7376330 0.243626624 0.68184113
7400030 0.247820958 0.679729104
7423730 0.252120137 0.677842319
7447430 0.256132215 0.675460994
7471230 0.259802162 0.673628926
7494930 0.264083802 0.671207785
7518630 0.268053799 0.669114589
7542330 0.271821469 0.666893005
7566030 0.275339215 0.664738714
7589730 0.279133409 0.66248697
7613430 0.282867223 0.660341739
7637130 0.286530554 0.658102214
7660830 0.289863914 0.655723571
7684530 0.293331354 0.65349847
7708330 0.296725094 0.651452422
7732030 0.29997906 0.649424672
7755730 0.30332452 0.64725995
7779430 0.306985825 0.645085811
7803130 0.310029238 0.64283514
7826830 0.313320606 0.640543997
7850530 0.316576808 0.638543903
7874230 0.319850355 0.636224806
7897930 0.322954535 0.634108841
7921630 0.326113939 0.631858944
7945430 0.328979581 0.629520297
7969130 0.332191735 0.627459049
7992830 0.335137814 0.625104188
8016530 0.338145315 0.623038411
8040230 0.341003507 0.62053734
8063930 0.344198822 0.618494451
8087630 0.346794456 0.616174101
8111330 0.349709451 0.613876998
8135030 0.352544218 0.61171931
8158730 0.355276226 0.60934937
8182530 0.357989847 0.607100903
8206230 0.36074087 0.604500055
8229930 0.363465338 0.602308928
8253630 0.366130441 0.600082457
8277330 0.368532329 0.59763962
8301030 0.371286898 0.595578134
8324730 0.373877555 0.593188285
8348430 0.376333773 0.590725481
8372130 0.378697544 0.58838731
8395830 0.381282716 0.585952758
8419630 0.383665472 0.583871662
8443330 0.385974615 0.581517934
8467030 0.388512283 0.579160749
8490730 0.390641897 0.576604366
8514430 0.392738759 0.57418096
8538130 0.39511758 0.572088181
8561830 0.397188663 0.569760859
8585530 0.399492919 0.567403256
8609230 0.401697993 0.564881205
8632930 0.403598994 0.562681496
8656730 0.405810505 0.560229957
8680430 0.407761424 0.557932674
8704130 0.409898161 0.555751919
8727830 0.411866873 0.553375601
8751530 0.413901686 0.550973474
8775230 0.415598422 0.548571944
8798930 0.417574644 0.546406567
8822630 0.419349759 0.543939709
8846330 0.421294033 0.54171586
8870030 0.423000603 0.539431095
8893830 0.424846976 0.536973595
8917530 0.42660889 0.534730911
8941230 0.428179115 0.532454013
8964930 0.429840087 0.530287206
8988630 0.431444793 0.527903378
9012330 0.433251708 0.525574266
9036030 0.434868812 0.523329555
9059730 0.436435192 0.521107733
9083430 0.43800345 0.518958747
9107130 0.439474999 0.516304135
9130930 0.440957814 0.514205038
9154630 0.442522644 0.512019693
9178330 0.443983197 0.509905755
9202030 0.445436567 0.507569015
9225730 0.446899831 0.505428791
9249430 0.448167502 0.503123998
9273130 0.44939956 0.50099653
9296830 0.450985431 0.498849958
9320530 0.452070087 0.496687203
9344230 0.453257858 0.494460761
9368030 0.454698771 0.492235839
9391730 0.456095576 0.490154176
9415430 0.45727089 0.488090366
9439130 0.458459347 0.486091166
9462830 0.459472268 0.483951866
9486530 0.460870742 0.481867045
9510230 0.461771786 0.4801023
9533930 0.463028699 0.477959603
9557630 0.464042216 0.475793212
9581330 0.46527934 0.473941951
9605130 0.466305792 0.471805274
9628840 0.467757463 0.469927489
9652540 0.468906551 0.467857271
9676240 0.46990478 0.466006338
9699940 0.471010535 0.463971853
9723640 0.472014367 0.462119132
9747340 0.473088115 0.460140913
9771040 0.473944127 0.45831269
9794740 0.474890291 0.456526368
9818440 0.475727766 0.454553931
9842140 0.477006673 0.452680945
9865940 0.47758463 0.45093435
9889640 0.478583276 0.449054867
9913340 0.479584187 0.447372525
9937040 0.480472385 0.445618182
9960740 0.48136723 0.443901807
9984440 0.481983333 0.442125707
10008140 0.482883125 0.440452694
10031840 0.483895599 0.438607126
10055540 0.484753787 0.436959445
10079240 0.485508412 0.435333013
10103040 0.486324995 0.433908432
10126740 0.48708111 0.432317674
10150440 0.488015413 0.430702358
10174140 0.488821774 0.429137021
10197840 0.489654332 0.427440136
10221540 0.490330368 0.426018565
10245240 0.491215914 0.424602895
10268940 0.491943448 0.423203617
10292640 0.492843329 0.421503603
10316340 0.49363926 0.420125544
10340140 0.494367927 0.418697953
10363840 0.495097935 0.417308062
10387540 0.496015518 0.41585952
10411240 0.496967256 0.414533287
10434940 0.497717738 0.413295716
10458640 0.498511821 0.411699742
10482340 0.499365121 0.410471796
10506040 0.500266492 0.409363478
10529740 0.500935316 0.407862514
10553440 0.501852512 0.406518548
10577240 0.502674758 0.405479013
10600940 0.503401637 0.404152452
10624640 0.504614651 0.402948707
10648340 0.505270838 0.401960909
10672040 0.506055176 0.400422036
10695740 0.507062733 0.399611443
10719440 0.508091866 0.398367792
10743140 0.508976638 0.3973912
10766840 0.509711861 0.396138906
10790540 0.510812222 0.394949942
10814340 0.51185888 0.393848866
10838040 0.512715816 0.392936527
10861740 0.513978302 0.39159438
10885440 0.514871597 0.390719115
10909140 0.515713334 0.389566481
10932840 0.516927003 0.388682723
10956540 0.518002152 0.387668639
10980240 0.519100964 0.386416643
11003940 0.52021718 0.385584384
11027640 0.521405994 0.384470909
11051440 0.522603332 0.383576929
11075140 0.523969054 0.382611423
11098840 0.525183558 0.381199479
11122540 0.526226997 0.380281567
11146240 0.527407884 0.3794263
11169940 0.528761804 0.378345042
11193640 0.530272126 0.377315729
11217340 0.531410992 0.376013904
11241040 0.532823264 0.375231802
11264740 0.534152209 0.37420243
11288540 0.535568177 0.37314555
11312240 0.5369789 0.372158348
11335940 0.538564026 0.370807856
11359640 0.539937496 0.370032578
11383340 0.541542232 0.36887145
11407040 0.54320687 0.367893487
11430740 0.544505417 0.366595536
11454440 0.546085655 0.365455865
11478140 0.54798448 0.36429131
11501840 0.549394488 0.363246172
11525640 0.551077961 0.362149953
11549340 0.552664935 0.360714197
11573040 0.5541718 0.359391331
11596740 0.556174337 0.358333528
11620440 0.557710051 0.357150018
11644140 0.559635818 0.355742871
11667840 0.561359882 0.354294329
11691540 0.562966465 0.353087514
11715240 0.564755856 0.351678401
11738940 0.566556572 0.35040754
11762740 0.568470418 0.348995208
11786440 0.570401072 0.347365647
11810140 0.572106361 0.345808207
11833840 0.574189603 0.344557285
11857540 0.575937509 0.342804342
11881240 0.578099727 0.341354906
11904940 0.579586207 0.339816808
11928640 0.581686139 0.338006854
11952340 0.583614766 0.336370378
11976040 0.585691273 0.334840983
11999840 0.587490558 0.332966238
