# Hz S RI R 50
50000 0.994109392 -0.057407252
73700 0.987734675 -0.081740289
97400 0.979817152 -0.10665261
121100 0.956763565 -0.135136574
144800 0.952126681 -0.114776074
168500 0.966796517 -0.142057821
192200 0.968784868 -0.166636705
215900 0.96323949 -0.192485004
239600 0.961583375 -0.211331695
263300 0.956769466 -0.240365028
287100 0.938545167 -0.262737244
310800 0.930721938 -0.272364318
334500 0.925462603 -0.283434033
358200 0.927575826 -0.298948794
381900 0.926722049 -0.322195559
405600 0.921684622 -0.348148941
429300 0.911521553 -0.370800912
453000 0.899809896 -0.392129451
476700 0.886273145 -0.410785883
500400 0.871769726 -0.422735065
524200 0.86746031 -0.434648364
547900 0.862635731 -0.450830578
571600 0.857500731 -0.470942348
595300 0.848660647 -0.493780612
619000 0.835470795 -0.514697015
642700 0.819205939 -0.533028662
666400 0.804537892 -0.546089112
690100 0.790650844 -0.558597743
713800 0.782404363 -0.567150294
737500 0.776515722 -0.584939718
761300 0.765240311 -0.603577971
785000 0.752801299 -0.621151447
808700 0.737146794 -0.639184892
832400 0.719248175 -0.652219653
856100 0.70482248 -0.66376847
879800 0.688863217 -0.674477458
903500 0.680003464 -0.682314217
927200 0.669455826 -0.698267757
950900 0.655421733 -0.713966965
974600 0.640687167 -0.728161752
998400 0.622555255 -0.741590559
1022100 0.603570044 -0.750148296
1045800 0.590255677 -0.757047057
1069500 0.577892005 -0.767985582
1093200 0.56261056 -0.778398454
1116900 0.549751102 -0.789498388
1140600 0.532998383 -0.800888717
1164300 0.51543498 -0.809865102
1188000 0.498755067 -0.819012045
1211700 0.481335967 -0.825017809
1235500 0.46953383 -0.83190757
1259200 0.452522337 -0.842741191
1282900 0.436759769 -0.848548293
1306600 0.420360088 -0.857892215
1330300 0.401436567 -1.665288551
1354000 0.386988282 -0.866531729
1377700 0.371089398 -0.875075042
1401400 0.35341528 -0.879449605
1425100 0.33964848 -0.885448932
1448800 0.321551531 -0.893182337
1472600 0.303413391 -0.89495027
1496300 0.288914471 -0.0900907317
1520000 0.270313203 -0.903463542
1543700 0.256380617 -0.906973838
1567400 0.239199832 -0.911183774
1591100 0.221603572 -0.913038849
1614800 0.20582278 -0.917084038
1638500 0.186410397 -0.919013857
1662200 0.172248825 -0.9719782969
1685900 0.154542729 -0.922633767
1709700 0.13650839 -0.922406077
1733400 0.123368427 -0.923923969
1757100 0.103087131 -0.925821661
1780800 0.088071405 -0.920631289
1804500 0.072283484 -0.92437756
1828200 0.053753063 -0.921190857
1851900 0.039079837 -0.918933212
1875600 0.023356106 -0.920714199
1899300 0.005213484 -0.915756762
1923000 -0.009126692 -0.914874494
1946800 -0.025867495 -0.910975813
1970500 -0.04098121 -0.908114492
1994200 -0.057422697 -0.90420717
2017900 -0.071357145 -0.899917542
2041600 -0.086833178 -0.895782172
2065300 -0.103873655 -0.891568124
2089000 -0.115427494 -0.88593626
2112700 -0.132311791 -0.881465315
2136400 -0.146770283 -0.874653875
2160100 -0.160865291 -0.867951571
2183900 -0.174034386 -0.862481594
2207600 -0.189303472 -0.853647589
2231300 -0.201651304 -0.846657931
2255000 -0.215012997 -0.838753759
2278700 -0.228997111 -0.831157743
2302400 -0.239106103 -0.820048928
2326100 -0.252492219 -0.813208043
2349800 -0.26347649 -0.801870763
2373500 -0.275791823 -0.792227745
2397200 -0.283930391 -0.783427059
2421000 -0.297069162 -0.77077049
2444710 -0.304433882 -0.761206984
2468410 -0.313810259 -0.749607801
2492110 -0.323697388 -0.739419817
2515810 -0.328230142 -0.72581917
2539510 -0.337278187 -0.71695888
2563210 -0.34291321 -0.703290343
2586910 -0.349624514 -0.692065775
2610610 -0.353748142 -0.682353854
2634310 -0.358558207 -0.667797446
2658010 -0.361280053 -0.658253967
2681810 -0.365372031 -0.646348416
2705510 -0.367826849 -0.636507093
2729210 -0.36858198 -0.624908328
2752910 -0.371418327 -0.615494847
2776610 -0.370380669 -0.604697763
2800310 -0.37315759 -0.596353352
2824010 -0.371623247 -0.588924348
2847710 -0.371383249 -0.577552199
2871410 -0.370590627 -0.573205232
2895110 -0.369594603 -0.562963008
2918910 -0.371931344 -0.556798517
2942610 -0.367948353 -0.552066087
2966310 -0.369944274 -0.544185936
2990010 -0.36705169 -0.540119349
3013710 -0.367030709 -0.532734274
3037410 -0.369555413 -0.530320823
3061110 -0.365805715 -0.52321428
3084810 -0.367492467 -0.5204674
3108510 -0.366232067 -0.515318393
3132210 -0.369017004 -0.508502781
3156010 -0.367415755 -0.507601916
3179710 -0.36936748 -0.499503374
3203410 -0.369481742 -0.497983396
3227110 -0.368346095 -0.491078644
3250810 -0.373027861 -0.487713903
3274510 -0.370256304 -0.48220548
3298210 -0.37307015 -0.477274954
3321910 -0.372009783 -0.47262147
3345610 -0.374281138 -0.464432656
3369310 -0.373296529 -0.461387723
3393110 -0.374105423 -0.453312188
3416810 -0.37336108 -0.449115693
3440510 -0.371995031 -0.440733075
3464210 -0.374076932 -0.436451464
3487910 -0.370058447 -0.428111225
3511610 -0.370001137 -0.421976417
3535310 -0.366293847 -0.415109932
3559010 -0.365088552 -0.406460434
3582710 -0.359728097 -0.401457816
3606410 -0.356862097 -0.393332093
3630210 -0.351182699 -0.387998402
3653910 -0.345969647 -0.380035489
3677610 -0.340835601 -0.375870198
3701310 -0.332394361 -0.368188112
3725010 -0.326226919 -0.364176243
3748710 -0.316494852 -0.358707726
3772410 -0.309478282 -0.354100823
3796110 -0.297923713 -0.3519544
3819810 -0.288671225 -0.34824866
3843510 -0.277475267 -0.347902715
3867310 -0.266225278 -0.345605254
3891010 -0.254840135 -0.347845792
3914710 -0.242076054 -0.348175585
3938410 -0.230504885 -0.35207042
3962110 -0.217231899 -0.35709387
3985810 -0.20687291 -0.361899584
4009510 -0.193829968 -0.370105266
4033210 -0.183095782 -0.378605514
4056910 -0.173150256 -0.388888746
4080610 -0.162354603 -0.399712115
4104410 -0.154647037 -0.412985444
4128110 -0.146479785 -0.426131844
4151810 -0.140022993 -0.441066592
4175510 -0.135476589 -0.457373112
4199210 -0.132287278 -0.472360849
4222910 -0.130036592 -0.489354759
4246610 -0.129804462 -0.506360352
4270310 -0.13116528 -0.522826015
4294010 -0.133081868 -0.540019094
4317710 -0.137784928 -0.556599557
4341510 -0.143441498 -0.572905063
4365210 -0.149850204 -0.588378489
4388910 -0.158723935 -0.603830516
4412610 -0.167853072 -0.617508292
4436310 -0.177892044 -0.630761802
4460010 -0.189027115 -0.643606722
4483710 -0.200945079 -0.654852628
4507410 -0.2130616 -0.665612459
4531110 -0.226133376 -0.675194621
4554810 -0.239559054 -0.683690011
4578610 -0.253092318 -0.691192924
4602310 -0.267062097 -0.698110044
4626010 -0.280894041 -0.703631401
4649710 -0.294650703 -0.708474218
4673410 -0.308641433 -0.713028371
4697110 -0.322497248 -0.716305792
4720810 -0.336092561 -0.719149529
4744510 -0.349802345 -0.721206843
4768210 -0.363367289 -0.72256416
4791910 -0.376125663 -0.723297715
4815710 -0.389359831 -0.723887145
4839420 -0.402148038 -0.723242998
4863120 -0.414536714 -0.72275263
4886820 -0.426744103 -0.72164762
4910520 -0.438702195 -0.720242679
4934220 -0.450127363 -0.718642115
4957920 -0.461517274 -0.716554284
4981620 -0.472563892 -0.713900983
5005320 -0.483337163 -0.711186707
5029020 -0.493576347 -0.708562016
5052720 -0.50407058 -0.705099344
5076520 -0.514060795 -0.702115356
5100220 -0.523839235 -0.698398172
5123920 -0.533435285 -0.694741487
5147620 -0.542579352 -0.69068259
5171320 -0.551577448 -0.686806738
5195020 -0.560300886 -0.682501733
5218720 -0.568621158 -0.678042292
5242420 -0.576851308 -0.673618912
5266120 -0.584997415 -0.669148802
5289820 -0.592829525 -0.664389967
5313620 -0.600238919 -0.659789741
5337320 -0.607562899 -0.655225992
5361020 -0.61459881 -0.650418162
5384720 -0.621442794 -0.645618081
5408420 -0.627965807 -0.640680193
5432120 -0.634530484 -0.635826885
5455820 -0.640705883 -0.631255507
5479520 -0.646807312 -0.626416683
5503220 -0.65281701 -0.621613085
5526920 -0.658288359 -0.616816878
5550720 -0.664135575 -0.612071573
5574420 -0.669466853 -0.607554256
5598120 -0.675078809 -0.602652251
5621820 -0.680137813 -0.598442196
5645520 -0.685065567 -0.593611836
5669220 -0.690370738 -0.589156627
5692920 -0.695143103 -0.584648907
5716620 -0.699965834 -0.580210685
5740320 -0.704869508 -0.575923204
5764020 -0.709552109 -0.571676373
5787820 -0.714357793 -0.567311942
5811520 -0.718800485 -0.563233673
5835220 -0.723470389 -0.559089303
5858920 -0.727962732 -0.554876089
5882620 -0.73262763 -0.550696313
5906320 -0.737282752 -0.546762764
5930020 -0.741822421 -0.542547404
5953720 -0.746656835 -0.538700759
5977420 -0.75115025 -0.534405827
6001120 -0.755990266 -0.530164897
6024920 -0.760640919 -0.52600336
6048620 -0.765337169 -0.521907031
6072320 -0.769987881 -0.517862319
6096020 -0.774653255 -0.513528287
6119720 -0.779472112 -0.509167551
6143420 -0.783953309 -0.504786729
6167120 -0.788826346 -0.500467002
6190820 -0.793579757 -0.496481835
6214520 -0.798097133 -0.491988807
6238220 -0.802829325 -0.487982571
6262020 -0.807344496 -0.483853191
6285720 -0.81203711 -0.479817122
6309420 -0.81626147 -0.475513696
6333120 -0.820734679 -0.471257686
6356820 -0.82502824 -0.467118531
6380520 -0.82920289 -0.462559491
6404220 -0.833330452 -0.458232164
6427920 -0.83733195 -0.453234761
6451620 -0.841498017 -0.448263466
6475320 -0.844992756 -0.442905396
6499120 -0.848796427 -0.437376916
6522820 -0.85223484 -0.431883692
6546520 -0.855525255 -0.426074057
6570220 -0.858807086 -0.420131772
6593920 -0.861668109 -0.414699673
6617620 -0.864581882 -0.408559828
6641320 -0.8673653 -0.40297091
6665020 -0.870156586 -0.397191137
6688720 -0.872576117 -0.391686707
6712420 -0.875288367 -0.386045515
6736220 -0.8779006 -0.380569636
6759920 -0.880279302 -0.375153452
6783620 -0.882640182 -0.369720011
6807320 -0.884900391 -0.364049971
6831020 -0.88735336 -0.35901609
6854720 -0.889422237 -0.353729814
6878420 -0.891833782 -0.348628968
6902120 -0.893881857 -0.343084275
6925820 -0.89604175 -0.338126808
6949520 -0.897918879 -0.332764416
6973320 -0.900159358 -0.327725559
6997020 -0.902009367 -0.322377383
7020720 -0.903780043 -0.317426919
7044420 -0.90571314 -0.312144637
7068120 -0.90758413 -0.307247608
7091820 -0.909210443 -0.301909893
7115520 -0.911023557 -0.297181606
7139220 -0.912501275 -0.292282015
7162920 -0.914286434 -0.286926865
7186620 -0.915886163 -0.282330572
7210420 -0.917415142 -0.277245521
7234130 -0.918832957 -0.27225238
7257830 -0.920309007 -0.267287105
7281530 -0.921657443 -0.262588381
7305230 -0.923004209 -0.257608324
7328930 -0.924488544 -0.253000289
7352630 -0.925816714 -0.247919529
7376330 -0.926980793 -0.243337929
7400030 -0.928367793 -0.238470941
7423730 -0.929403483 -0.233812645
7447430 -0.930692851 -0.229078695
7471230 -0.93172872 -0.224293574
7494930 -0.932830214 -0.219666227
7518630 -0.934008121 -0.215164035
7542330 -0.935077011 -0.210258051
7566030 -0.936054348 -0.20581074
7589730 -0.937214195 -0.200935781
7613430 -0.93776822 -0.196579575
7637130 -0.939010679 -0.192019745
7660830 -0.939893066 -0.187551915
7684530 -0.940624594 -0.183028325
7708330 -0.941656768 -0.178448751
7732030 -0.942566812 -0.173873856
7755730 -0.943223774 -0.169460102
7779430 -0.943961262 -0.165032982
7803130 -0.94461739 -0.160445749
7826830 -0.945571959 -0.156132206
7850530 -0.946129977 -0.151584938
7874230 -0.946816027 -0.147282406
7897930 -0.947370588 -0.142602622
7921630 -0.947969555 -0.138387113
7945430 -0.948446094 -0.133870646
7969130 -0.949254214 -0.129691839
7992830 -0.949647188 -0.125236511
8016530 -0.950260341 -0.120925918
8040230 -0.950597286 -0.116699293
8063930 -0.951086223 -0.112444333
8087630 -0.951771855 -0.108143635
8111330 -0.951874732 -0.103785037
8135030 -0.952157974 -0.099557317
8158730 -0.952581942 -0.095339596
8182530 -0.952799916 -0.091402359
8206230 -0.95344913 -0.087273292
8229930 -0.9533993 -0.083089008
8253630 -0.953959643 -0.078955665
8277330 -0.954118132 -0.074886895
8301030 -0.954547166 -0.071105144
8324730 -0.954613626 -0.066739812
8348430 -0.955063879 -0.062986642
8372130 -0.955190181 -0.058569494
8395830 -0.955605983 -0.054548595
8419630 -0.955612242 -0.050700832
8443330 -0.956028878 -0.046428073
8467030 -0.956040024 -0.04258966
8490730 -0.956381916 -0.038334894
8514430 -0.956502556 -0.034410431
8538130 -0.956612765 -0.030416771
8561830 -0.956693172 -0.026385968
8585530 -0.956813752 -0.022616434
8609230 -0.957158207 -0.018359944
8632930 -0.956951737 -0.01429621
8656730 -0.957054436 -0.010587852
8680430 -0.957079231 -0.006355747
8704130 -0.957079887 -0.002575894
8727830 -0.957079827 0.001583055
8751530 -0.95682764 0.005049386
8775230 -0.956992924 0.009456786
8798930 -0.956703722 0.013190438
8822630 -0.956873357 0.016962042
8846330 -0.956393837 0.02083818
8870030 -0.956263184 0.024798002
8893830 -0.956298649 0.02849503
8917530 -0.956162571 0.032633922
8941230 -0.955887138 0.036084119
8964930 -0.955716431 0.040305424
8988630 -0.955516815 0.043641094
9012330 -0.955481588 0.047941695
9036030 -0.955133378 0.05152646
9059730 -0.95492351 0.055471796
9083430 -0.954372942 0.059240635
9107130 -0.954366862 0.062925748
9130930 -0.953955411 0.066987581
9154630 -0.953547775 0.070582233
9178330 -0.953428626 0.074621446
9202030 -0.952786505 0.078359775
9225730 -0.952373981 0.082026503
9249430 -0.952213823 0.085993871
9273130 -0.951322078 0.08969599
9296830 -0.951325953 0.093248844
9320530 -0.950713634 0.097128666
9344230 -0.950455129 0.100896686
9368030 -0.949674189 0.104765817
9391730 -0.949256241 0.108172275
9415430 -0.948879122 0.112002454
9439130 -0.948374748 0.115462236
9462830 -0.94773221 0.119454532
9486530 -0.947094917 0.122946195
9510230 -0.946794748 0.126797556
9533930 -0.945989608 0.130282148
9557630 -0.945542752 0.13430494
9581330 -0.944861531 0.137582525
9605130 -0.944232821 0.141231909
9628840 -0.943680703 0.145053416
9652540 -0.942968368 0.148752346
9676240 -0.942190468 0.152287483
9699940 -0.941637277 0.155684396
9723640 -0.941109836 0.1596338
9747340 -0.940061628 0.163095012
9771040 -0.939482569 0.166941225
9794740 -0.938667476 0.170227065
9818440 -0.938015401 0.173840418
9842140 -0.937080144 0.177438661
9865940 -0.936499655 0.180982127
9889640 -0.935673058 0.18447332
9913340 -0.934780418 0.188365131
9937040 -0.933754265 0.191786363
9960740 -0.933046579 0.195380493
9984440 -0.932072699 0.198841497
10008140 -0.931463837 0.202465459
10031840 -0.930336534 0.205639332
10055540 -0.929454743 0.209534734
10079240 -0.928378224 0.212716937
10103040 -0.927315831 0.216667681
10126740 -0.926574647 0.220142945
10150440 -0.925281286 0.223553329
10174140 -0.924526989 0.226966768
10197840 -0.923233509 0.230610579
10221540 -0.922454297 0.234054669
10245240 -0.921070218 0.237668856
10268940 -0.920233368 0.241186141
10292640 -0.918876767 0.244657397
10316340 -0.917810976 0.24821861
10340140 -0.916413366 0.251523494
10363840 -0.915328204 0.255396634
10387540 -0.9143368 0.258783131
10411240 -0.912719368 0.262189596
10434940 -0.911750078 0.265834957
10458640 -0.910286068 0.26937291
10482340 -0.908796072 0.272879958
10506040 -0.90763086 0.27642703
10529740 -0.906124114 0.279743909
10553440 -0.904600024 0.283213227
10577240 -0.9031834 0.286904513
10600940 -0.901825249 0.290216654
10624640 -0.899838566 0.293708741
10648340 -0.898458063 0.29742974
10672040 -0.896928012 0.300828635
10695740 -0.895252168 0.304381847
10719440 -0.893341004 0.307627797
10743140 -0.891708076 0.311326086
10766840 -0.889517366 0.314540952
10790540 -0.887809574 0.318476378
10814340 -0.885846972 0.321526259
10838040 -0.883696079 0.325231462
10861740 -0.881595015 0.328566133
10885440 -0.879381418 0.33201617
10909140 -0.877314925 0.335225254
10932840 -0.87475878 0.338732302
10956540 -0.872705221 0.341744363
10980240 -0.870132625 0.345236182
11003940 -0.867494523 0.348420053
11027640 -0.864910483 0.351762294
11051440 -0.86257863 0.354786127
11075140 -0.859486997 0.357791155
11098840 -0.856910884 0.360952645
11122540 -0.853968799 0.363586366
11146240 -0.850767314 0.366676032
11169940 -0.847744464 0.369277596
11193640 -0.844527304 0.371742784
11217340 -0.841767191 0.374579727
11241040 -0.838351964 0.376874089
11264740 -0.834825754 0.379535466
11288540 -0.831515491 0.381763368
11312240 -0.828294634 0.383838444
11335940 -0.824793338 0.385952055
11359640 -0.821412861 0.387420892
11383340 -0.817654192 0.38934198
11407040 -0.814308643 0.390896588
11430740 -0.810611188 0.392217159
11454440 -0.807150542 0.393300294
11478140 -0.803627967 0.394457936
11501840 -0.800392985 0.395351886
11525640 -0.796849668 0.396135598
11549340 -0.793464481 0.396651118
11573040 -0.790114283 0.397155493
11596740 -0.786910891 0.39727655
11620440 -0.783904612 0.397690653
11644140 -0.780674695 0.397644788
11667840 -0.777807712 0.397606492
11691540 -0.775344491 0.397069603
11715240 -0.772496283 0.39692527
11738940 -0.770174205 0.396637737
11762740 -0.767589688 0.395990431
11786440 -0.765315115 0.39526543
11810140 -0.763061702 0.394953221
11833840 -0.76119703 0.394178688
11857540 -0.759408354 0.393366694
11881240 -0.757558286 0.392824441
11904940 -0.75586611 0.392020195
11928640 -0.754324436 0.391116976
11952340 -0.753066241 0.390183985
11976040 -0.751603841 0.389419853
11999840 -0.750418841 0.38857454
