# Hz S RI R 50
50000 -0.963472425 0.021880852
73700 -0.96535921 0.034805193
97400 -0.964762032 0.046741455
121100 -0.963517844 0.05851553
144800 -0.962499201 0.069951266
168500 -0.961434245 0.081347003
192200 -0.960095226 0.092785887
215900 -0.958801031 0.103853292
239600 -0.957167208 0.11485286
263300 -0.955575168 0.125800952
287100 -0.953759551 0.136632651
310800 -0.951564908 0.147633939
334500 -0.94941008 0.158719003
358200 -0.94734019 0.169649571
381900 -0.944999456 0.180534332
405600 -0.942389309 0.19124113
429300 -0.94002366 0.202222943
453000 -0.937313795 0.213016644
476700 -0.934381723 0.223341867
500400 -0.931416273 0.234079986
524200 -0.927887499 0.244976133
547900 -0.92465949 0.255698412
571600 -0.920763969 0.265772134
595300 -0.917616605 0.275464475
619000 -0.914342224 0.285970807
642700 -0.910534441 0.296154469
666400 -0.90702039 0.306674212
690100 -0.902808606 0.317261427
713800 -0.898772835 0.32770428
737500 -0.894572317 0.337635934
761300 -0.890154421 0.34843105
785000 -0.885555326 0.358453184
808700 -0.881167829 0.368824481
832400 -0.876163065 0.378676593
856100 -0.870804071 0.388755291
879800 -0.865444719 0.398668527
903500 -0.859696805 0.407662153
927200 -0.855116426 0.416676431
950900 -0.850715458 0.426492124
974600 -0.845564305 0.436265289
998400 -0.839901566 0.446251869
1022100 -0.834387719 0.45603156
1045800 -0.828450918 0.46565172
1069500 -0.822204768 0.475455641
1093200 -0.816111445 0.485091447
1116900 -0.809976398 0.494448214
1140600 -0.803615212 0.503993213
1164300 -0.796475291 0.513204455
1188000 -0.789318144 0.522527694
1211700 -0.782057464 0.531351149
1235500 -0.774932384 0.539266347
1259200 -0.76884222 0.547070562
1282900 -0.762715697 0.556237876
1306600 -0.755868732 0.565472245
1330300 -0.7486853 0.574796497
1354000 -0.741342961 0.583748042
1377700 -0.733669638 0.592515766
1401400 -0.725704729 0.601340293
1425100 -0.717454493 0.609838128
1448800 -0.709022283 0.618613064
1472600 -0.700463593 0.626690268
1496300 -0.691992402 0.634185552
1520000 -0.683625221 0.641989111
1543700 -0.675254166 0.649632215
1567400 -0.667180716 0.657643437
1591100 -0.658661246 0.665971934
1614800 -0.650022089 0.6738016
1638500 -0.640903174 0.681692719
1662200 -0.631435036 0.689381957
1685900 -0.62194997 0.697271645
1709700 -0.612636387 0.704863429
1733400 -0.602388203 0.712153911
1757100 -0.592159271 0.719109416
1780800 -0.582315385 0.726169645
1804500 -0.572517037 0.732905626
1828200 -0.562308788 0.739360868
1851900 -0.552350044 0.746035993
1875600 -0.541910171 0.753202199
1899300 -0.531432092 0.759962677
1923000 -0.520651757 0.76636815
1946800 -0.50962156 0.772955298
1970500 -0.498462557 0.779221236
1994200 -0.486799985 0.78543508
2017900 -0.475164949 0.791490256
2041600 -0.463686794 0.797095417
2065300 -0.451959848 0.802486598
2089000 -0.440310925 0.807964086
2112700 -0.428553909 0.813914239
2136400 -0.41625303 0.819169282
2160100 -0.40374428 0.824295401
2183900 -0.390764415 0.829741775
2207600 -0.377843677 0.834374904
2231300 -0.364497959 0.838815629
2255000 -0.351379513 0.843053281
2278700 -0.337567567 0.847303867
2302400 -0.323802292 0.851358413
2326100 -0.310319304 0.855100512
2349800 -0.29606533 0.858504176
2373500 -0.281428605 0.862017989
2397200 -0.267204403 0.864773929
2421000 -0.252473324 0.86802411
2444710 -0.237334296 0.870087146
2468410 -0.222097948 0.872400462
2492110 -0.207009851 0.874548614
2515810 -0.19112119 0.87632054
2539510 -0.175305381 0.877138614
2563210 -0.159328937 0.878257036
2586910 -0.143141046 0.879000961
2610610 -0.126506134 0.879074335
2634310 -0.110387526 0.878648638
2658010 -0.093287907 0.8782323
2681810 -0.076272755 0.87713766
2705510 -0.05904686 0.875458776
2729210 -0.041688494 0.874040126
2752910 -0.023633373 0.871387004
2776610 -0.006114178 0.867937982
2800310 0.011808901 0.864584684
2824010 0.030164092 0.860584557
2847710 0.048423789 0.855217635
2871410 0.066412866 0.849846065
2895110 0.085254766 0.843715906
2918910 0.104080677 0.836386084
2942610 0.122219771 0.828723371
2966310 0.141164556 0.82047528
2990010 0.160008475 0.810831844
3013710 0.17806065 0.800038576
3037410 0.196574106 0.789326608
3061110 0.215256109 0.776583433
3084810 0.232708141 0.762485325
3108510 0.250050663 0.748865723
3132210 0.26800698 0.733107924
3156010 0.284250825 0.715595304
3179710 0.299266487 0.698133289
3203410 0.315288752 0.679528474
3227110 0.329424291 0.658096849
3250810 0.341105163 0.637159943
3274510 0.353563815 0.616047143
3298210 0.364391386 0.591824769
3321910 0.372286945 0.567911326
3345610 0.380115449 0.544095396
3369310 0.386390924 0.517728865
3393110 0.388951867 0.491515815
3416810 0.391227155 0.466434925
3440510 0.392018169 0.438898056
3464210 0.388192862 0.411726325
3487910 0.383442133 0.386685311
3511610 0.377125263 0.360099375
3535310 0.365748941 0.334499329
3559010 0.352991104 0.312868595
3582710 0.33987376 0.290886908
3606410 0.322377562 0.271104395
3630210 0.303582787 0.255501598
3653910 0.286247372 0.24128966
3677610 0.265516877 0.228585839
3701310 0.244315937 0.221469134
3725010 0.225920557 0.215989798
3748710 0.206497028 0.211376577
3772410 0.186399161 0.211011767
3796110 0.169947355 0.213262051
3819810 0.153591156 0.214984044
3843510 0.137030303 0.220577582
3867310 0.124181479 0.228424772
3891010 0.112844184 0.235436201
3914710 0.101749323 0.244987934
3938410 0.094392642 0.256713777
3962110 0.0895821 0.266402631
3985810 0.084789089 0.276941776
4009510 0.083066098 0.289452224
4033210 0.08421529 0.299458116
4056910 0.085005186 0.309398591
4080610 0.088490374 0.320253938
4104410 0.09438274 0.328605264
4128110 0.100042514 0.33598271
4151810 0.107335761 0.343505889
4175510 0.116610944 0.349086642
4199210 0.125621706 0.353138685
4222910 0.135223835 0.356702804
4246610 0.146005779 0.358654588
4270310 0.156683325 0.358875185
4294010 0.166844382 0.358746439
4317710 0.17798151 0.357265025
4341510 0.188603982 0.354484587
4365210 0.198758974 0.351056694
4388910 0.209330037 0.347014367
4412610 0.21958968 0.341752201
4436310 0.229295745 0.335519164
4460010 0.239120081 0.32899478
4483710 0.248851865 0.321354776
4507410 0.257884442 0.312659382
4531110 0.266469597 0.303708016
4554810 0.275064766 0.293432772
4578610 0.282569497 0.282291263
4602310 0.289192646 0.270995229
4626010 0.295644551 0.259253263
4649710 0.301205605 0.246381074
4673410 0.306013792 0.233856499
4697110 0.310613781 0.220495238
4720810 0.314207851 0.206478849
4744510 0.31670013 0.192057013
4768210 0.318686932 0.177737236
4791910 0.319527655 0.162636071
4815710 0.319548338 0.147557124
4839420 0.318808108 0.132617205
4863120 0.317386776 0.117377243
4886820 0.314345419 0.101889781
4910520 0.31099227 0.086835049
4934220 0.306461006 0.071520641
4957920 0.300839245 0.056543722
4981620 0.294083416 0.041729338
5005320 0.286713451 0.027512153
5029020 0.278134286 0.01362219
5052720 0.268792539 0.000491121
5076520 0.258809536 -0.012106633
5100220 0.247787296 -0.024328883
5123920 0.236428543 -0.035960651
5147620 0.223879382 -0.046875409
5171320 0.210961043 -0.056712944
5195020 0.197002023 -0.065773107
5218720 0.182768955 -0.073862157
5242420 0.16825664 -0.081130303
5266120 0.153104975 -0.087484799
5289820 0.137212097 -0.092986002
5313620 0.12110275 -0.097329318
5337320 0.104972049 -0.10056407
5361020 0.088143482 -0.102309092
5384720 0.071761846 -0.102763801
5408420 0.055420812 -0.102252952
5432120 0.039026863 -0.100682787
5455820 0.023264842 -0.097833424
5479520 0.007613186 -0.094254001
5503220 -0.0078418 -0.089248277
5526920 -0.023011101 -0.08333908
5550720 -0.037512388 -0.076032489
5574420 -0.051115103 -0.06807781
5598120 -0.064284868 -0.059044826
5621820 -0.076629064 -0.049102127
5645520 -0.088192187 -0.038520764
5669220 -0.099535778 -0.027119895
5692920 -0.109611093 -0.014461833
5716620 -0.118811778 -0.001257349
5740320 -0.127086564 0.013194669
5764020 -0.133785948 0.028279701
5787820 -0.139645919 0.043449986
5811520 -0.144255876 0.059275567
5835220 -0.147749587 0.075752399
5858920 -0.149559512 0.092638559
5882620 -0.150312706 0.109899282
5906320 -0.149620786 0.127167597
5930020 -0.147266969 0.145056158
5953720 -0.143311396 0.162718996
5977420 -0.137451395 0.180578485
6001120 -0.130148202 0.197876796
6024920 -0.120811074 0.215081691
6048620 -0.10993608 0.231093108
6072320 -0.097154408 0.246531262
6096020 -0.083183944 0.26085487
6119720 -0.067629955 0.274201989
6143420 -0.050562608 0.286282777
6167120 -0.032134972 0.29670903
6190820 -0.012740734 0.30596137
6214520 0.007721114 0.313556045
6238220 0.029135473 0.319315701
6262020 0.051386058 0.323264241
6285720 0.074035055 0.325432807
6309420 0.097099952 0.325611233
6333120 0.120442837 0.323838114
6356820 0.143842294 0.320254117
6380520 0.167129188 0.314544111
6404220 0.190349027 0.307198345
6427920 0.213370651 0.297418862
6451620 0.235766485 0.286076307
6475320 0.257716685 0.27260214
6499120 0.278907507 0.257366567
6522820 0.299019426 0.240228161
6546520 0.318432122 0.221368521
6570220 0.336448073 0.201107069
6593920 0.353322118 0.178658887
6617620 0.368476092 0.154681503
6641320 0.381906032 0.129562333
6665020 0.393469125 0.10321819
6688720 0.403093814 0.075746104
6712420 0.410704016 0.048018265
6736220 0.41658166 0.019594119
6759920 0.420804768 -0.009082834
6783620 0.423499554 -0.038467857
6807320 0.424237489 -0.068378202
6831020 0.422948449 -0.099018938
6854720 0.419481068 -0.129797339
6878420 0.413379907 -0.160219162
6902120 0.405692338 -0.19018881
6925820 0.395539909 -0.219713136
6949520 0.383826464 -0.248905315
6973320 0.369657009 -0.277509927
6997020 0.353496968 -0.304773628
7020720 0.335214287 -0.33058691
7044420 0.315637648 -0.354597181
7068120 0.294635325 -0.377067804
7091820 0.273377805 -0.398201137
7115520 0.250745505 -0.417922765
7139220 0.227359667 -0.436418712
7162920 0.202979877 -0.453602761
7186620 0.177929237 -0.469313055
7210420 0.151723966 -0.483332455
7234130 0.125236347 -0.496002584
7257830 0.097932785 -0.506870985
7281530 0.070468127 -0.515730082
7305230 0.043195795 -0.522843837
7328930 0.015775494 -0.528400719
7352630 -0.011216606 -0.532432436
7376330 -0.037830617 -0.535066008
7400030 -0.063898466 -0.536371827
7423730 -0.089648 -0.536409199
7447430 -0.114755734 -0.535650014
7471230 -0.139500305 -0.533862471
7494930 -0.163925409 -0.531220495
7518630 -0.187865346 -0.52737993
7542330 -0.211210295 -0.522651195
7566030 -0.234111085 -0.516978025
7589730 -0.255964428 -0.510329782
7613430 -0.277477979 -0.503273427
7637130 -0.298229992 -0.495264321
7660830 -0.318038374 -0.487059265
7684530 -0.33744055 -0.477907866
7708330 -0.35628432 -0.468427568
7732030 -0.374329 -0.458425998
7755730 -0.391763329 -0.447799563
7779430 -0.408563762 -0.436848908
7803130 -0.424421638 -0.425524264
7826830 -0.439236313 -0.414295136
7850530 -0.453666567 -0.402788579
7874230 -0.467487007 -0.391485005
7897930 -0.481152594 -0.380031883
7921630 -0.494358062 -0.368503212
7945430 -0.507601797 -0.356498301
7969130 -0.519909322 -0.344149112
7992830 -0.532310247 -0.331313401
8016530 -0.543457686 -0.318399667
8040230 -0.553751111 -0.305409252
8063930 -0.563638508 -0.292149901
8087630 -0.572748661 -0.279379576
8111330 -0.581901609 -0.266745358
8135030 -0.590353429 -0.254120379
8158730 -0.598766922 -0.241850361
8182530 -0.607299804 -0.229110017
8206230 -0.615095794 -0.216498449
8229930 -0.622947692 -0.203187361
8253630 -0.629832506 -0.189900711
8277330 -0.636186838 -0.176434978
8301030 -0.642011463 -0.163268014
8324730 -0.647325158 -0.150561422
8348430 -0.652402758 -0.137604624
8372130 -0.657164812 -0.125371322
8395830 -0.662024259 -0.112890712
8419630 -0.666690766 -0.100125759
8443330 -0.670793056 -0.087352328
8467030 -0.674585819 -0.074317075
8490730 -0.677663922 -0.061642043
8514430 -0.680517435 -0.048918358
8538130 -0.682617008 -0.036622241
8561830 -0.684745192 -0.024566547
8585530 -0.686619162 -0.012708676
8609230 -0.688298642 -0.001091063
8632930 -0.690113663 0.010487685
8656730 -0.691316485 0.022508459
8680430 -0.69235152 0.034008197
8704130 -0.692763209 0.045753266
8727830 -0.692751646 0.056926969
8751530 -0.692514002 0.068178437
8775230 -0.692203342 0.078519277
8798930 -0.69151175 0.088834933
8822630 -0.690835952 0.099028632
8846330 -0.689972519 0.108779586
8870030 -0.688872754 0.118089027
8893830 -0.687966048 0.127262637
8917530 -0.686596453 0.135780468
8941230 -0.685806393 0.144674345
8964930 -0.684884548 0.152768656
8988630 -0.684191346 0.160962387
9012330 -0.683339536 0.169182568
9036030 -0.682651042 0.177322775
9059730 -0.6821599 0.185238733
9083430 -0.681623935 0.19292362
9107130 -0.680874526 0.200960412
9130930 -0.680537283 0.208562165
9154630 -0.680129945 0.216601312
9178330 -0.679536223 0.224365651
9202030 -0.679316639 0.232382521
9225730 -0.678583979 0.240389481
9249430 -0.677905917 0.24819757
9273130 -0.677263081 0.256198972
9296830 -0.67655158 0.264053285
9320530 -0.675817191 0.272114068
9344230 -0.67479819 0.280205637
9368030 -0.673859715 0.287988036
9391730 -0.672665476 0.296141028
9415430 -0.671672284 0.304031133
9439130 -0.67014259 0.312292486
9462830 -0.668651044 0.319868683
9486530 -0.667059242 0.327812463
9510230 -0.665370643 0.335275977
9533930 -0.663422226 0.343109726
9557630 -0.661539137 0.35078442
9581330 -0.659740209 0.358493447
9605130 -0.657441556 0.366064995
9628840 -0.654354631 0.375032722
9652540 -0.651860177 0.382623255
9676240 -0.649452626 0.389801025
9699940 -0.646854579 0.397305846
9723640 -0.644325435 0.404502779
9747340 -0.641577899 0.41162467
9771040 -0.638898968 0.418551653
9794740 -0.636215806 0.425534933
9818440 -0.633276343 0.432385891
9842140 -0.63057059 0.439329296
9865940 -0.627436876 0.445997238
9889640 -0.624621272 0.452755093
9913340 -0.621235072 0.459448695
9937040 -0.61837244 0.465764731
9960740 -0.614940047 0.471950352
9984440 -0.6118384 0.478387385
10008140 -0.608664155 0.484785228
10031840 -0.605453848 0.490911364
10055540 -0.601934909 0.496954947
10079240 -0.598626732 0.503098011
10103040 -0.594733178 0.508994162
10126740 -0.591519474 0.515152633
10150440 -0.588095486 0.520737707
10174140 -0.584273755 0.526540219
10197840 -0.581026434 0.532096803
10221540 -0.577199518 0.537953436
10245240 -0.573625206 0.543204247
10268940 -0.569703698 0.548966705
10292640 -0.566232681 0.554333209
10316340 -0.562300741 0.559500932
10340140 -0.55866146 0.564813971
10363840 -0.554746687 0.569908618
10387540 -0.550864219 0.575254261
10411240 -0.547202229 0.580373644
10434940 -0.543153524 0.585416793
10458640 -0.539314866 0.59037137
10482340 -0.535512328 0.595485091
10506040 -0.531293511 0.600487709
10529740 -0.527166664 0.605112969
10553440 -0.523323893 0.610096037
10577240 -0.51899451 0.614580273
10600940 -0.515182375 0.619255304
10624640 -0.511014461 0.62378323
10648340 -0.506902515 0.628202378
10672040 -0.502667069 0.632798016
10695740 -0.498654156 0.63684982
10719440 -0.494589924 0.641303479
10743140 -0.490077018 0.645379185
10766840 -0.486237972 0.649694621
10790540 -0.481763988 0.653740465
10814340 -0.477772057 0.657877624
10838040 -0.473291009 0.661768436
10861740 -0.469297915 0.665572762
10885440 -0.464831233 0.669339537
10909140 -0.460757195 0.673181235
10932840 -0.456608027 0.677030384
10956540 -0.452323734 0.680721461
10980240 -0.448182851 0.683998227
11003940 -0.443858683 0.687685787
11027640 -0.439513385 0.691096127
11051440 -0.435189038 0.694555342
11075140 -0.431134045 0.69805926
11098840 -0.426730304 0.701372325
11122540 -0.422689408 0.704737782
11146240 -0.418514847 0.70763266
11169940 -0.414107292 0.711103916
11193640 -0.41000837 0.714348852
11217340 -0.405696392 0.717356562
11241040 -0.401723384 0.720639765
11264740 -0.397296607 0.723374903
11288540 -0.393326878 0.726482212
11312240 -0.388914465 0.729483604
11335940 -0.384633183 0.732360363
11359640 -0.380536079 0.735254466
11383340 -0.376255393 0.738187491
11407040 -0.37185347 0.740688562
11430740 -0.368000239 0.74380666
11454440 -0.363620519 0.746330082
11478140 -0.359361171 0.748910367
11501840 -0.355115026 0.751562058
11525640 -0.351066946 0.754006385
11549340 -0.346927344 0.756872296
11573040 -0.342828363 0.759124457
11596740 -0.338736623 0.761729598
11620440 -0.334460109 0.764020323
11644140 -0.330492466 0.766616642
11667840 -0.326189517 0.769029378
11691540 -0.322243213 0.771472275
11715240 -0.318155586 0.773593544
11738940 -0.313789069 0.776074469
11762740 -0.30942291 0.778182387
11786440 -0.305273175 0.780520856
11810140 -0.301300227 0.782503962
11833840 -0.297042131 0.78487724
11857540 -0.292981386 0.787089586
11881240 -0.288770735 0.7890805
11904940 -0.284567266 0.791225731
11928640 -0.280359357 0.793052434
11952340 -0.276333451 0.795096814
11976040 -0.272241204 0.796960651
11999840 -0.267987489 0.798818767
