# Hz S RI R 50
50000 0.993510067 -0.045536432
57800 0.997363507 -0.0542958
65700 0.997023522 -0.061813198
73600 0.996927261 -0.069907538
81500 0.995721459 -0.077671058
89400 0.994913876 -0.085163444
97300 0.994358599 -0.09284342
105200 0.994664251 -0.100758314
113100 0.992416381 -0.10776256
121000 0.99176681 -0.115239329
128900 0.990819573 -0.122938223
136800 0.989595353 -0.13037686
144700 0.988683819 -0.137789785
152500 0.987427771 -0.145158708
160400 0.986316323 -0.15245378
168300 0.985142111 -0.160020783
176200 0.98368448 -0.167319655
184100 0.982372105 -0.174839481
192000 0.981154322 -0.182121887
199900 0.979541659 -0.18958041
207800 0.977893769 -0.1969527
215700 0.976292669 -0.204162672
223600 0.974673986 -0.211583063
231500 0.972938239 -0.219048991
239400 0.971153616 -0.22598505
247300 0.969279527 -0.233395412
255100 0.96751213 -0.240936085
263000 0.965409398 -0.247849419
270900 0.963641107 -0.255161792
278800 0.961490094 -0.262613564
286700 0.959142625 -0.269743531
294600 0.957091331 -0.27685979
302500 0.954816281 -0.284264087
310400 0.952244281 -0.291413575
318300 0.95002985 -0.298437684
326200 0.947750687 -0.305689811
334100 0.945062756 -0.312945425
342000 0.94261974 -0.319976776
349800 0.939872562 -0.327241659
357700 0.937223374 -0.334219664
365600 0.934365749 -0.341178208
373500 0.931845843 -0.348533868
381400 0.928737699 -0.355569601
389300 0.925702154 -0.362493842
397200 0.923025071 -0.369587987
405100 0.920005917 -0.376746475
413000 0.916584849 -0.383640021
420900 0.913597047 -0.390645176
428800 0.910539388 -0.39766097
436700 0.906834423 -0.404898881
444600 0.903378844 -0.411566734
452400 0.900121271 -0.418509125
460300 0.896578907 -0.425671011
468200 0.893078386 -0.43227753
476100 0.889571547 -0.439144551
484000 0.885785281 -0.446381837
491900 0.881936192 -0.453033715
499800 0.878184139 -0.459724903
507700 0.874261975 -0.466539502
515600 0.870454907 -0.473390311
523500 0.866264641 -0.480280458
531400 0.862043738 -0.487068474
539300 0.858043015 -0.493579387
547100 0.853717803 -0.500613033
555000 0.849333345 -0.506931662
562900 0.845141232 -0.513637781
570800 0.840879499 -0.520588755
578700 0.83597815 -0.526959896
586600 0.831569135 -0.53351289
594500 0.827025651 -0.540099203
602400 0.822366893 -0.546830534
610300 0.817529141 -0.553369402
618200 0.812440574 -0.559542179
626100 0.807938039 -0.566262304
634000 0.802546441 -0.572773277
641900 0.797448754 -0.578980684
649700 0.792550086 -0.585505366
657600 0.787359714 -0.591912984
665500 0.78194952 -0.597982883
673400 0.776657402 -0.604459345
681300 0.771088719 -0.610783934
689200 0.765565395 -0.616972982
697100 0.760080337 -0.622931897
705000 0.754419505 -0.629192233
712900 0.748820424 -0.635368347
720800 0.74277538 -0.64144659
728700 0.737049877 -0.647315621
736600 0.731278777 -0.653523981
744400 0.724969446 -0.659458637
752300 0.718993127 -0.665109276
760200 0.712989568 -0.671173393
768100 0.706640601 -0.67722404
776000 0.700249016 -0.682999193
783900 0.69392383 -0.688747584
791800 0.687133312 -0.69445765
799700 0.680476665 -0.700081884
807600 0.673935532 -0.705727219
815500 0.667280495 -0.711627602
823400 0.660056054 -0.717229306
831300 0.653308868 -0.722479641
839200 0.646427631 -0.728129088
847092 0.639284551 -0.733461856
854892 0.631989955 -0.738607466
862792 0.624860405 -0.744027793
870692 0.617531359 -0.749337732
878592 0.609997928 -0.754640638
886492 0.602374851 -0.75960195
894392 0.594723701 -0.76472336
902292 0.587301492 -0.769659101
910192 0.579436302 -0.77477163
918092 0.571466326 -0.779719829
925992 0.563524723 -0.784430146
933892 0.555332958 -0.789050281
941792 0.547291517 -0.793881654
949592 0.539219021 -0.798394918
957492 0.530831277 -0.80294156
965392 0.52221924 -0.807308495
973292 0.513812005 -0.811663329
981192 0.505441129 -0.81632018
989092 0.496605157 -0.820413589
996992 0.48771885 -0.82477504
1004892 0.478729873 -0.828864455
1012792 0.469857603 -0.832823455
1020692 0.460805654 -0.836813747
1028592 0.451416701 -0.840771138
1036492 0.442105352 -0.844608724
1044392 0.432753443 -0.848091602
1052192 0.423392921 -0.851747035
1060092 0.413731306 -0.855337858
1067992 0.403996765 -0.858599245
1075892 0.394209384 -0.861827433
1083792 0.3840442 -0.864911794
1091692 0.374121189 -0.86797738
1099592 0.363992452 -0.870922267
1107492 0.353989481 -0.873670995
1115392 0.343573123 -0.876619577
1123292 0.332915723 -0.879325389
1131192 0.322392582 -0.881689488
1139092 0.311604201 -0.883968174
1146892 0.300980091 -0.88605231
1154792 0.290185421 -0.888117015
1162692 0.278809189 -0.890166938
1170592 0.267775326 -0.891678154
1178492 0.256674826 -0.893160939
1186392 0.245451629 -0.894649624
1194292 0.234182 -0.895887076
1202192 0.222554549 -0.896831214
1210092 0.210807904 -0.897592723
1217992 0.199535176 -0.898207366
1225892 0.188165992 -0.898875832
1233792 0.176598682 -0.899854421
1241692 0.164383426 -0.900436222
1249492 0.15214166 -0.900622308
1257392 0.139847725 -0.900483489
1265292 0.127504914 -0.900012135
1273192 0.11530517 -0.899650752
1281092 0.102561771 -0.89898616
1288992 0.089860148 -0.898053526
1296892 0.076886601 -0.896945357
1304792 0.063939988 -0.895201623
1312692 0.051042608 -0.893452465
1320592 0.037843719 -0.891380131
1328492 0.025004627 -0.888964951
1336392 0.012072899 -0.886100471
1344192 -0.000997201 -0.883685111
1352092 -0.014252658 -0.880253076
1359992 -0.027668979 -0.877070546
1367892 -0.041070472 -0.873361349
1375792 -0.054333239 -0.8690418
1383692 -0.067355044 -0.864631235
1391592 -0.080467507 -0.86015588
1399492 -0.093790113 -0.855767548
1407392 -0.107801996 -0.850962877
1415292 -0.122058629 -0.845510005
1423192 -0.136122182 -0.839177072
1431092 -0.149857312 -0.832042992
1438992 -0.163143247 -0.824236452
1446792 -0.175099819 -0.816488146
1454692 -0.186765119 -0.809962213
1462592 -0.200632005 -0.803888678
1470492 -0.215261489 -0.796079695
1478392 -0.229422792 -0.786783158
1486292 -0.242761522 -0.776555001
1494192 -0.254901856 -0.766437292
1502092 -0.266758173 -0.756794154
1509992 -0.279069274 -0.747740089
1517892 -0.293856918 -0.738107144
1525792 -0.307876169 -0.724848508
1533692 -0.31948322 -0.711111664
1541492 -0.330266863 -0.698654711
1549392 -0.341459929 -0.685420989
1557292 -0.35181719 -0.672381401
1565192 -0.36282429 -0.658900678
1573092 -0.373102754 -0.644040584
1580992 -0.38114345 -0.630115985
1588892 -0.391716212 -0.618221104
1596792 -0.404331088 -0.60299921
1604692 -0.414821863 -0.58405739
1612592 -0.421657681 -0.566020309
1620492 -0.4285703 -0.548858761
1628392 -0.434132546 -0.530821621
1636292 -0.437022417 -0.516913354
1644184 -0.44853127 -0.503964126
1651984 -0.459043711 -0.482004612
1659884 -0.463313937 -0.457314163
1667784 -0.461349397 -0.436455547
1675684 -0.462106555 -0.420164048
1683584 -0.464137703 -0.40171352
1691484 -0.46313104 -0.381862819
1699384 -0.459304839 -0.36677584
1707284 -0.461037456 -0.355780452
1715184 -0.466901361 -0.338683992
1723084 -0.470135569 -0.317486405
1730984 -0.468176275 -0.293195903
1738884 -0.460112303 -0.274620175
1746684 -0.45737192 -0.260226547
1754584 -0.453437536 -0.24015662
1762484 -0.444142818 -0.225799098
1770384 -0.443743079 -0.216099902
1778284 -0.447473496 -0.194245293
1786184 -0.438049077 -0.167147457
1794084 -0.421173125 -0.150827199
1801984 -0.409553974 -0.13968186
1809884 -0.398628503 -0.128571942
1817784 -0.388240694 -0.123169004
1825684 -0.38838163 -0.11731337
1833584 -0.389788687 -0.101161472
1841484 -0.383591353 -0.078328661
1849284 -0.366380751 -0.060191661
1857184 -0.349376291 -0.052323888
1865084 -0.337553799 -0.047624941
1872984 -0.329449087 -0.045768346
1880884 -0.332495272 -0.03994175
1888784 -0.331501662 -0.017885362
1896684 -0.312987238 0.003052357
1904584 -0.291734308 0.008975901
1912484 -0.277520984 0.009520605
1920384 -0.267758548 0.007881826
1928284 -0.26778388 0.006107329
1936184 -0.274273306 0.016487989
1943984 -0.270497709 0.038763504
1951884 -0.253690063 0.056276686
1959784 -0.2364721 0.064748361
1967684 -0.219951197 0.071378692
1975584 -0.2052318 0.071500428
1983484 -0.199023485 0.07307823
1991384 -0.189386516 0.080906063
1999284 -0.177450805 0.083395548
2007184 -0.171075999 0.086797729
2015084 -0.161531105 0.093236565
2022984 -0.152681738 0.095116585
2030884 -0.14987573 0.099718548
2038784 -0.144578471 0.113482557
2046584 -0.128912493 0.127257645
2054484 -0.109751336 0.132525607
2062384 -0.09353201 0.132474988
2070284 -0.082888729 0.129800349
2078184 -0.079229123 0.132026776
2086084 -0.072487629 0.143797457
2093984 -0.054889287 0.158472716
2101884 -0.026802023 0.165272146
2109784 0.002618541 0.156945168
2117684 0.020031601 0.135708361
2125584 0.017669061 0.115950301
2133484 0.005212002 0.115533292
2141284 0.002840924 0.1319938
2149184 0.018874511 0.151323929
2157084 0.047491502 0.158624708
2164984 0.076228804 0.150250524
2172884 0.096215471 0.129278302
2180784 0.096091412 0.103469438
2188684 0.077347427 0.097056284
2196584 0.069037534 0.117382869
2204484 0.086907178 0.14150165
2212384 0.120394438 0.149709731
2220284 0.154699191 0.139935314
2228184 0.180839389 0.117025062
2236084 0.194139197 0.086441576
2243884 0.191140979 0.056488957
2251784 0.175309494 0.03736471
2259684 0.153120279 0.03522326
2267584 0.1422984 0.056999195
2275484 0.160818934 0.078559488
2283384 0.194242432 0.079904213
2291284 0.222502589 0.057690817
2299184 0.232626438 0.02328829
2307084 0.219168692 -0.009486658
2314984 0.186110273 -0.018648501
2322884 0.165422573 0.008135433
2330784 0.186373546 0.041856054
2338584 0.233305767 0.041052363
2346484 0.265217781 0.004773474
2354384 0.269956439 -0.040754713
2362284 0.250150233 -0.081539459
2370184 0.210062325 -0.100552625
2378084 0.176280885 -0.089219391
2385984 0.162798732 -0.06748981
2393884 0.167127057 -0.043606773
2401784 0.193036124 -0.035419292
2409684 0.214300826 -0.054800022
2417584 0.214357614 -0.084056511
2425484 0.1955792 -0.105397462
2433384 0.170597672 -0.111265018
2441276 0.148287996 -0.102925106
2449076 0.140368297 -0.083127103
2456976 0.152313143 -0.069559119
2464876 0.168438598 -0.077181868
2472776 0.170798778 -0.101093351
2480676 0.149476155 -0.124814569
2488576 0.111931242 -0.128720313
2496476 0.07875318 -0.106056287
2504376 0.068068288 -0.070034772
2512276 0.081007517 -0.04127781
2520176 0.103315763 -0.034134756
2528076 0.114263333 -0.046728402
2535976 0.103324934 -0.061167135
2543776 0.080087237 -0.058938838
2551676 0.061798587 -0.039989087
2559576 0.05688804 -0.013713131
2567476 0.06531997 0.006500676
2575376 0.073830343 0.01372662
2583276 0.07149966 0.019081704
2591176 0.066383399 0.033328298
2599076 0.066230215 0.053274948
2606976 0.072434514 0.075225964
2614876 0.088125437 0.094321906
2622776 0.106832027 0.102247744
2630676 0.116629421 0.102666735
2638576 0.117229774 0.10771463
2646376 0.117714002 0.122950665
2654276 0.127548918 0.144139692
2662176 0.147532463 0.159954041
2670076 0.167388886 0.165171295
2677976 0.178941085 0.166743487
2685876 0.185553863 0.174849018
2693776 0.195941045 0.189342752
2701676 0.213278576 0.205536082
2709576 0.238041207 0.217916697
2717476 0.265482604 0.221722021
2725376 0.288972407 0.219934344
2733276 0.309087902 0.216615319
2741076 0.326154798 0.212801158
2748976 0.340651363 0.209740459
2756876 0.354348897 0.209579229
2764776 0.370405167 0.212222382
2772676 0.390778094 0.214422881
2780576 0.414534896 0.212615668
2788476 0.438154548 0.205591142
2796376 0.458248794 0.194178044
2804276 0.47290188 0.181820869
2812176 0.482871979 0.173916295
2820076 0.496626853 0.171795561
2827976 0.51660794 0.168069973
2835876 0.538267254 0.15859273
2843676 0.55686438 0.144940659
2851576 0.572320342 0.129732623
2859476 0.584598124 0.114619895
2867376 0.594947159 0.101663365
2875276 0.606500446 0.090575709
2883176 0.618957638 0.078271269
2891076 0.630456566 0.064998418
2898976 0.642123699 0.052460931
2906876 0.654979467 0.03831648
2914776 0.666175842 0.0218915
2922676 0.6755355 0.004587456
2930576 0.682907879 -0.012985322
2938376 0.68795222 -0.029677515
2946276 0.691407084 -0.04418059
2954176 0.69689083 -0.056299917
2962076 0.704350233 -0.070207498
2969976 0.710986673 -0.086300976
2977876 0.715931534 -0.102849036
2985776 0.718980371 -0.119193762
2993676 0.720781207 -0.134675249
3001576 0.722483158 -0.148159161
3009476 0.725299775 -0.161520078
3017376 0.728737115 -0.175838991
3025276 0.731137037 -0.190947949
3033176 0.73257327 -0.206082433
3040976 0.733533322 -0.220799654
3048876 0.733566641 -0.235926851
3056776 0.732704401 -0.250092625
3064676 0.731980383 -0.263765186
3072576 0.730794906 -0.2771658
3080476 0.729324936 -0.290183842
3088376 0.727745831 -0.302695691
3096276 0.726247727 -0.315061271
3104176 0.724673092 -0.32738021
3112076 0.72305572 -0.339750081
3119976 0.720991551 -0.352088391
3127876 0.718493938 -0.364226996
3135676 0.71589154 -0.375884115
3143576 0.713503658 -0.387333095
3151476 0.710951387 -0.398673593
3159376 0.708331882 -0.410231351
3167276 0.705271899 -0.421954005
3175176 0.701582252 -0.433158546
3183076 0.698004961 -0.444480031
3190976 0.694086372 -0.455097556
3198876 0.690449118 -0.465991824
3206776 0.686465799 -0.476691633
3214676 0.682139396 -0.487407416
3222576 0.677788317 -0.497794806
3230476 0.672915577 -0.508116126
3238368 0.667539834 -0.518230497
3246168 0.662662208 -0.527941048
3254068 0.657369673 -0.537168502
3261968 0.65237993 -0.546371579
3269868 0.647116601 -0.555619657
3277768 0.641717314 -0.56462574
3285668 0.63596785 -0.573313772
3293568 0.63052839 -0.581903219
3301468 0.624806582 -0.590394437
3309368 0.619021773 -0.598506152
3317268 0.613314688 -0.606421232
3325168 0.607538342 -0.614350676
3333068 0.601623415 -0.622299373
3340868 0.595740735 -0.6298334
3348768 0.589680373 -0.637424886
3356668 0.583389997 -0.644780099
3364568 0.577008247 -0.651893854
3372468 0.570470035 -0.658580541
3380368 0.564409852 -0.664983212
3388268 0.558386862 -0.671436011
3396168 0.552582681 -0.677772402
3404068 0.546127974 -0.68456161
3411968 0.539894223 -0.690728962
3419868 0.533541321 -0.696898162
3427768 0.527410686 -0.702668607
3435668 0.521214902 -0.708363354
3443468 0.515208542 -0.714215695
3451368 0.509050428 -0.720137476
3459268 0.502918243 -0.72562772
3467168 0.496666312 -0.731193542
3475068 0.490074962 -0.736898958
3482968 0.483994781 -0.742218971
3490868 0.477451145 -0.747329473
3498768 0.470569431 -0.752687811
3506668 0.463919579 -0.757351875
3514568 0.457537949 -0.761916875
3522468 0.451113998 -0.766398429
3530368 0.444730609 -0.770994901
3538168 0.438684701 -0.775498211
3546068 0.432380586 -0.780159652
3553968 0.425624936 -0.784352958
3561868 0.419428855 -0.788755714
3569768 0.413306683 -0.792634367
3577668 0.406799256 -0.796863436
3585568 0.40056771 -0.80117613
3593468 0.394151419 -0.805140972
3601368 0.387841254 -0.8090384
3609268 0.381334543 -0.813050985
3617168 0.374830275 -0.816848635
3625068 0.368333101 -0.820386171
3632968 0.362105011 -0.823924124
3640768 0.355653971 -0.827296555
3648668 0.349386006 -0.830770969
3656568 0.342995196 -0.834352254
3664468 0.3364349 -0.837582528
3672368 0.329822868 -0.840939521
3680268 0.323448687 -0.843941748
3688168 0.317135572 -0.847082197
3696068 0.310746461 -0.849923372
3703968 0.304560035 -0.852722585
3711868 0.297990679 -0.8558048
3719768 0.291666328 -0.858627736
3727668 0.285178035 -0.861358225
3735468 0.278883337 -0.863994419
3743368 0.272602796 -0.866539299
3751268 0.266290217 -0.869032919
3759168 0.259988844 -0.871946096
3767068 0.253559142 -0.874427974
3774968 0.24705252 -0.876835167
3782868 0.240572825 -0.879028737
3790768 0.234204053 -0.881484091
3798668 0.22772935 -0.883544743
3806568 0.221392139 -0.885764658
3814468 0.214977934 -0.88776493
3822368 0.208527073 -0.889720261
3830268 0.202160164 -0.891688287
3838068 0.195890873 -0.893403589
3845968 0.189493387 -0.895249187
3853868 0.182935819 -0.896992027
3861768 0.176677182 -0.898520708
3869668 0.170331299 -0.900042533
3877568 0.164252579 -0.901446461
3885468 0.15810588 -0.902843177
3893368 0.151843503 -0.904421985
3901268 0.145805507 -0.905773818
3909168 0.139426946 -0.90713489
3917068 0.133462071 -0.908569753
3924968 0.126982271 -0.909770488
3932768 0.120957106 -0.911112844
3940668 0.114826075 -0.912263035
3948568 0.108483701 -0.913542807
3956468 0.102281518 -0.914371132
3964368 0.09626504 -0.915401577
3972268 0.089858777 -0.916246771
3980168 0.083717145 -0.916908323
3988068 0.077680602 -0.917972445
3995968 0.071387819 -0.9187361
4003868 0.065306425 -0.91941142
4011768 0.059093393 -0.919938743
4019668 0.053154826 -0.920630037
4027568 0.047102253 -0.921268761
4035460 0.041105359 -0.921809196
4043260 0.035290054 -0.922324836
4051160 0.029185663 -0.922656118
4059060 0.023276209 -0.92306751
4066960 0.017305202 -0.923470318
4074860 0.011298947 -0.923615813
4082760 0.005434196 -0.924026787
4090660 -0.00043864 -0.923903524
4098560 -0.00658533 -0.924373865
4106460 -0.012475083 -0.924157023
4114360 -0.018368523 -0.924195706
4122260 -0.024281619 -0.924252808
4130160 -0.030007135 -0.924189329
4137960 -0.035728596 -0.92414397
4145860 -0.04149786 -0.923964142
4153760 -0.047135461 -0.923808038
4161660 -0.053037539 -0.923365771
4169560 -0.058580625 -0.923267543
4177460 -0.064603559 -0.922782301
4185360 -0.069988273 -0.922485053
4193260 -0.075684383 -0.922155022
4201160 -0.081349387 -0.921575486
4209060 -0.086855046 -0.92126888
4216960 -0.092348411 -0.920767486
4224860 -0.098078303 -0.920111715
4232760 -0.103548198 -0.919345378
4240560 -0.1088472 -0.918728888
4248460 -0.114302501 -0.918149769
4256360 -0.119701839 -0.917171955
4264260 -0.125016838 -0.91651839
4272160 -0.130264595 -0.91564387
4280060 -0.135432496 -0.915028035
4287960 -0.140765622 -0.914250493
4295860 -0.14604932 -0.913387715
4303760 -0.151051238 -0.912670075
4311660 -0.156283587 -0.911783099
4319560 -0.161510109 -0.911110103
4327460 -0.166724026 -0.910002887
4335260 -0.171743184 -0.909100651
4343160 -0.177036315 -0.908076584
4351060 -0.182069748 -0.907180964
4358960 -0.187014982 -0.906320989
4366860 -0.191952869 -0.905142307
4374760 -0.197061985 -0.903932511
4382660 -0.202130526 -0.903080642
4390560 -0.20711115 -0.90196824
4398460 -0.212073415 -0.901105701
4406360 -0.217115059 -0.899956345
4414260 -0.222150623 -0.898724675
4422160 -0.226785212 -0.897636115
4430060 -0.231706723 -0.896558105
4437860 -0.236724793 -0.895266175
4445760 -0.241476565 -0.894210577
4453660 -0.246534585 -0.893001914
4461560 -0.251452356 -0.891812026
4469460 -0.256424337 -0.89030224
4477360 -0.261189073 -0.889042139
4485260 -0.266233474 -0.887808799
4493160 -0.271012604 -0.886192798
4501060 -0.275963425 -0.884609282
4508960 -0.280552178 -0.88315016
4516860 -0.285059958 -0.881677329
4524760 -0.28991881 -0.880159139
4532560 -0.29446581 -0.878531634
4540460 -0.299170434 -0.877022385
4548360 -0.303700596 -0.875603675
4556260 -0.308328092 -0.874175131
4564160 -0.31282407 -0.872506678
4572060 -0.317550122 -0.870954453
4579960 -0.32201451 -0.869468152
4587860 -0.32658565 -0.867925763
4595760 -0.331302702 -0.866259515
4603660 -0.335817039 -0.864726603
4611560 -0.340480893 -0.862956583
4619460 -0.344904661 -0.861165106
4627360 -0.349425137 -0.859419703
4635160 -0.354065209 -0.85768789
4643060 -0.358541131 -0.855656564
4650960 -0.362941235 -0.853812456
4658860 -0.367301523 -0.852030754
4666760 -0.371801763 -0.84998399
4674660 -0.375970453 -0.848090291
4682560 -0.380469113 -0.846221268
4690460 -0.384691953 -0.844266116
4698360 -0.38888657 -0.842438578
4706260 -0.393039882 -0.840441763
4714160 -0.397452026 -0.838447988
4722060 -0.40133363 -0.836575627
4729860 -0.405544489 -0.834649264
4737760 -0.410027354 -0.832770586
4745660 -0.414311349 -0.83067888
4753560 -0.418556123 -0.828725576
4761460 -0.422709196 -0.826665997
4769360 -0.426858603 -0.824567019
4777260 -0.431081026 -0.822538435
4785160 -0.435393959 -0.820221185
4793060 -0.439558446 -0.818110108
4800960 -0.443648964 -0.81580466
4808860 -0.447724968 -0.813399612
4816760 -0.45165041 -0.811339676
4824660 -0.455740511 -0.809043228
4832552 -0.459126442 -0.806895315
4840352 -0.463078081 -0.804636359
4848252 -0.467082917 -0.802382647
4856152 -0.470846861 -0.800084471
4864052 -0.474714547 -0.797953903
