# Hz S RI R 50
50000 -0.889800548 0.026907976
73700 -0.885487735 0.04068645
97400 -0.884284317 0.05429662
121100 -0.883279383 0.067893244
144800 -0.881936132 0.08145485
168500 -0.880423605 0.094855889
192200 -0.878820955 0.108000233
215900 -0.877017319 0.121125087
239600 -0.87498939 0.134160891
263300 -0.872842729 0.14735502
287100 -0.87037146 0.160290643
310800 -0.867519497 0.173320278
334500 -0.864798784 0.186324983
358200 -0.861870765 0.199175924
381900 -0.858604371 0.21220915
405600 -0.855058073 0.224861159
429300 -0.851534485 0.237785294
453000 -0.847705423 0.250183224
476700 -0.843965709 0.262646824
500400 -0.839901864 0.275310099
524200 -0.835641324 0.288023173
547900 -0.830916643 0.300528317
571600 -0.826127648 0.313080549
595300 -0.821383893 0.325817286
619000 -0.816143095 0.337907522
642700 -0.810847699 0.350616753
666400 -0.805375099 0.362990587
690100 -0.799420714 0.375121325
713800 -0.793165862 0.38692975
737500 -0.78721255 0.398559451
761300 -0.781260311 0.410564899
785000 -0.77462387 0.422794938
808700 -0.767945826 0.434770852
832400 -0.761039078 0.446799039
856100 -0.754043102 0.458718031
879800 -0.746562123 0.470283478
903500 -0.738888621 0.482058465
927200 -0.73100984 0.493654221
950900 -0.722503721 0.504890143
974600 -0.713903546 0.51592487
998400 -0.705580592 0.526530504
1022100 -0.697630167 0.537346482
1045800 -0.689288139 0.548663437
1069500 -0.680482447 0.559617996
1093200 -0.671541988 0.570636987
1116900 -0.661911249 0.581802606
1140600 -0.652139604 0.592966079
1164300 -0.642225265 0.603558003
1188000 -0.631545126 0.613736569
1211700 -0.620716452 0.62323141
1235500 -0.610084831 0.633481621
1259200 -0.599267423 0.643201231
1282900 -0.589252352 0.652527213
1306600 -0.578818857 0.662432432
1330300 -0.567477643 0.672530293
1354000 -0.555719733 0.682294785
1377700 -0.543902993 0.692051708
1401400 -0.531357765 0.701285481
1425100 -0.51910597 0.710527896
1448800 -0.506424307 0.718918621
1472600 -0.492850393 0.727912783
1496300 -0.479559749 0.736012995
1520000 -0.466781258 0.744017362
1543700 -0.452868252 0.752641439
1567400 -0.439616531 0.759679317
1591100 -0.425319164 0.767721235
1614800 -0.411326259 0.775409042
1638500 -0.396576762 0.782952249
1662200 -0.381291806 0.789740324
1685900 -0.366738796 0.796234071
1709700 -0.351797223 0.802438855
1733400 -0.336390674 0.80962187
1757100 -0.320939004 0.815606236
1780800 -0.303856074 0.821279883
1804500 -0.287909597 0.825945556
1828200 -0.272376507 0.831284165
1851900 -0.25580421 0.837590038
1875600 -0.238023579 0.841898262
1899300 -0.220569193 0.845844686
1923000 -0.203084394 0.850127637
1946800 -0.185665577 0.854429125
1970500 -0.166137874 0.8579517
1994200 -0.147682815 0.860894322
2017900 -0.127538934 0.862028002
2041600 -0.111034251 0.861256003
2065300 -0.093549929 0.865358948
2089000 -0.073486402 0.867588043
2112700 -0.053129337 0.867921829
2136400 -0.034053996 0.867712318
2160100 -0.014046888 0.868266403
2183900 0.00688916 0.866626143
2207600 0.02643436 0.864568829
2231300 0.047282159 0.863172292
2255000 0.066780522 0.860912919
2278700 0.087189078 0.857640087
2302400 0.107305712 0.855723738
2326100 0.130548983 0.85295546
2349800 0.152290314 0.846462845
2373500 0.171681806 0.843388915
2397200 0.197344049 0.838833451
2421000 0.221369117 0.828258872
2444710 0.238973155 0.819021642
2468410 0.261883467 0.814067423
2492110 0.287504345 0.802769184
2515810 0.305153369 0.788866579
2539510 0.326907634 0.782424509
2563210 0.35068044 0.770033419
2586910 0.372240632 0.754500389
2610610 0.391395211 0.741653501
2634310 0.41327095 0.727754473
2658010 0.433499068 0.71052283
2681810 0.451613813 0.698823392
2705510 0.477149397 0.680696249
2729210 0.496506333 0.658943891
2752910 0.510303854 0.641026735
2776610 0.534057021 0.62693721
2800310 0.559539914 0.601210057
2824010 0.57218182 0.570042729
2847710 0.583968997 0.554941713
2871410 0.605338931 0.531806766
2895110 0.624596178 0.502264618
2918910 0.636044621 0.473757356
2942610 0.648512423 0.445861041
2966310 0.662291169 0.415581703
2990010 0.667186021 0.386055469
3013710 0.681499242 0.360172271
3037410 0.689191222 0.324425876
3061110 0.692065834 0.292932242
3084810 0.699301362 0.265723615
3108510 0.707014679 0.226928919
3132210 0.700388193 0.189499184
3156010 0.695902347 0.166719451
3179710 0.705433249 0.133537918
3203410 0.699391126 0.093408003
3227110 0.690304934 0.060869902
3250810 0.685539424 0.029873417
3274510 0.675985872 -0.008313328
3298210 0.65736562 -0.038268949
3321910 0.649650871 -0.065024197
3345610 0.633742392 -0.099995605
3369310 0.615270674 -0.128274768
3393110 0.599122285 -0.153766825
3416810 0.580193519 -0.187884524
3440510 0.550970494 -0.210568517
3464210 0.533358871 -0.226767897
3487910 0.517094552 -0.258975595
3511610 0.481786757 -0.283969044
3535310 0.45512402 -0.293423712
3559010 0.441239356 -0.318929582
3582710 0.400057524 -0.345502495
3606410 0.358950108 -0.34662202
3630210 0.350818902 -0.349454283
3653910 0.317241996 -0.381623655
3677610 0.27131465 -0.380060881
3701310 0.257121115 -0.374837964
3725010 0.227783322 -0.401064544
3748710 0.173596009 -0.398590654
3772410 0.155599564 -0.366478711
3796110 0.15706174 -0.387420743
3819810 0.104845456 -0.403715789
3843510 0.067949697 -0.37483102
3867310 0.066678188 -0.374200552
3891010 0.020168624 -0.387732774
3914710 -0.023192709 -0.347217351
3938410 -0.006004028 -0.324406683
3962110 -0.029794258 -0.351458787
3985810 -0.081073857 -0.32575652
4009510 -0.077629625 -0.292294383
4033210 -0.090806856 -0.305892318
4056910 -0.136219933 -0.281506896
4080610 -0.131244897 -0.236038863
4104410 -0.119744718 -0.248595848
4128110 -0.161680951 -0.243944436
4151810 -0.169849723 -0.20150581
4175510 -0.158966869 -0.201264873
4199210 -0.19231458 -0.194747522
4222910 -0.1992677 -0.149699971
4246610 -0.175396144 -0.144291862
4270310 -0.199979454 -0.149613678
4294010 -0.211534827 -0.11190509
4317710 -0.193043053 -0.101608805
4341510 -0.211213827 -0.104415781
4365210 -0.223404929 -0.065605692
4388910 -0.195369616 -0.047632396
4412610 -0.198537975 -0.060391172
4436310 -0.215316325 -0.036596532
4460010 -0.19764629 -0.015206356
4483710 -0.195519044 -0.022643405
4507410 -0.212412536 0.000688193
4531110 -0.187704339 0.030009992
4554810 -0.1673574 0.01453012
4578610 -0.188305407 0.014950556
4602310 -0.181551322 0.046485781
4626010 -0.158015236 0.042310699
4649710 -0.173273667 0.039341982
4673410 -0.166943594 0.072495579
4697110 -0.130423232 0.070743471
4720810 -0.138478353 0.046005476
4744510 -0.15219967 0.07067921
4768210 -0.122266121 0.081433229
4791910 -0.120715692 0.059894941
4815710 -0.134235784 0.078428328
4839420 -0.102807059 0.092185176
4863120 -0.092727795 0.061664227
4886820 -0.115960486 0.066640004
4910520 -0.098899737 0.085617005
4934220 -0.084691487 0.066319882
4957920 -0.102184891 0.064919322
4981620 -0.090504467 0.082523621
5005320 -0.073128886 0.065857492
5029020 -0.090261049 0.05500213
5052720 -0.090399317 0.072831563
5076520 -0.073269754 0.065734535
5100220 -0.0839395 0.054011933
5123920 -0.086999312 0.06849765
5147620 -0.068964034 0.064910084
5171320 -0.076152175 0.04697236
5195020 -0.08816915 0.057203602
5218720 -0.075388379 0.061200484
5242420 -0.078162893 0.046633224
5266120 -0.090187355 0.054990582
5289820 -0.077459089 0.061188567
5313620 -0.076284848 0.043619349
5337320 -0.095235027 0.046783335
5361020 -0.089175507 0.060343854
5384720 -0.08263906 0.049524724
5408420 -0.098501838 0.049195993
5432120 -0.095068387 0.063830919
5455820 -0.085148341 0.055326297
5479520 -0.100783906 0.04940924
5503220 -0.104493089 0.066163972
5526920 -0.092677913 0.066223829
5550720 -0.101341038 0.058389224
5574420 -0.10799364 0.071447253
5598120 -0.097968004 0.076725244
5621820 -0.101024903 0.069432519
5645520 -0.109721623 0.080232247
5669220 -0.100209891 0.090069517
5692920 -0.097024984 0.083661675
5716620 -0.105539403 0.089734829
5740320 -0.099051654 0.101515829
5764020 -0.091824695 0.098587363
5787820 -0.097629003 0.101674444
5811520 -0.092046417 0.113472945
5835220 -0.082335546 0.112336389
5858920 -0.085262797 0.112754896
5882620 -0.080866731 0.123055063
5906320 -0.070432387 0.12355823
5930020 -0.070790447 0.122428022
5953720 -0.067168854 0.131911635
5977420 -0.055102702 0.134690657
6001120 -0.050820238 0.132021456
6024920 -0.046893559 0.138239309
6048620 -0.034462165 0.14051114
6072320 -0.028067827 0.135983601
6096020 -0.024628788 0.140159919
6119720 -0.0109541 0.143604874
6143420 -0.000398265 0.137561693
6167120 0.004576033 0.136313959
6190820 0.015385167 0.136446475
6214520 0.025815034 0.130531683
6238220 0.031427811 0.127230107
6262020 0.042469937 0.126489117
6285720 0.05483032 0.118334643
6309420 0.060771118 0.110479056
6333120 0.069076903 0.106602475
6356820 0.079766906 0.09878958
6380520 0.086908191 0.0900729
6404220 0.096333406 0.083562113
6427920 0.107702739 0.072365015
6451620 0.114116713 0.059301786
6475320 0.120914399 0.049005292
6499120 0.129744708 0.035653002
6522820 0.134588286 0.020574705
6546520 0.139638841 0.008109679
6570220 0.146618515 -0.007709123
6593920 0.149316251 -0.025634529
6617620 0.150823369 -0.040766175
6641320 0.154330313 -0.057945776
6665020 0.154200688 -0.076865442
6688720 0.152515217 -0.092915333
6712420 0.154263272 -0.110510826
6736220 0.152162179 -0.132441863
6759920 0.146450504 -0.151438057
6783620 0.143271163 -0.170447543
6807320 0.136121705 -0.193112388
6831020 0.125179082 -0.21168138
6854720 0.117816545 -0.229243308
6878420 0.10819254 -0.251759558
6902120 0.092221662 -0.271920174
6925820 0.077082403 -0.287886708
6949520 0.062744796 -0.30622977
6973320 0.043146185 -0.32360211
6997020 0.024796614 -0.336228609
7020720 0.008104797 -0.351561158
7044420 -0.014079373 -0.367429733
7068120 -0.037431094 -0.377986073
7091820 -0.058629158 -0.388072103
7115520 -0.08258266 -0.399274826
7139220 -0.108505673 -0.405940532
7162920 -0.13187313 -0.411070346
7186620 -0.156749814 -0.417514979
7210420 -0.184199884 -0.420388162
7234130 -0.209600031 -0.420316308
7257830 -0.234653711 -0.420331358
7281530 -0.261092901 -0.418146342
7305230 -0.285188674 -0.413521587
7328930 -0.308501899 -0.409557461
7352630 -0.333362728 -0.404130905
7376330 -0.356903105 -0.396122574
7400030 -0.378971993 -0.387945502
7423730 -0.401784241 -0.3785865
7447430 -0.423080831 -0.367236852
7471230 -0.442717254 -0.356076151
7494930 -0.463105231 -0.344510197
7518630 -0.482388734 -0.330796539
7542330 -0.500026047 -0.316740572
7566030 -0.517289042 -0.302314102
7589730 -0.533556282 -0.286832153
7613430 -0.547938048 -0.270916849
7637130 -0.562095284 -0.255762994
7660830 -0.576200246 -0.239172905
7684530 -0.58810234 -0.222057148
7708330 -0.599372625 -0.205618888
7732030 -0.610361337 -0.188833415
7755730 -0.620021641 -0.171355038
7779430 -0.628737211 -0.154692187
7803130 -0.637577354 -0.137817293
7826830 -0.645182669 -0.120517961
7850530 -0.651910722 -0.103273943
7874230 -0.658096432 -0.086487449
7897930 -0.663741528 -0.068978436
7921630 -0.668206572 -0.052165865
7945430 -0.672511398 -0.035718187
7969130 -0.676255047 -0.019205214
7992830 -0.679378926 -0.002654554
8016530 -0.681855261 0.013256695
8040230 -0.68413943 0.029393561
8063930 -0.685604989 0.045190021
8087630 -0.686696827 0.060536623
8111330 -0.687763214 0.075721763
8135030 -0.688019692 0.091082237
8158730 -0.688096523 0.106029942
8182530 -0.687413394 0.120667643
8206230 -0.686701297 0.134864524
8229930 -0.685529291 0.149253487
8253630 -0.684139072 0.162964314
8277330 -0.682616651 0.176640987
8301030 -0.680495202 0.190009042
8324730 -0.678370058 0.203270316
8348430 -0.675834238 0.215955212
8372130 -0.672995269 0.228846654
8395830 -0.670010089 0.241084888
8419630 -0.666804611 0.253403961
8443330 -0.663664042 0.265077531
8467030 -0.659740507 0.276846855
8490730 -0.656340658 0.288091659
8514430 -0.652450323 0.299474924
8538130 -0.648555457 0.310124307
8561830 -0.644592642 0.321168452
8585530 -0.640330612 0.331824362
8609230 -0.636200308 0.342213451
8632930 -0.631860971 0.352614372
8656730 -0.627146482 0.362497687
8680430 -0.622686266 0.372643142
8704130 -0.617581248 0.382191777
8727830 -0.61288172 0.391622275
8751530 -0.607787787 0.40086925
8775230 -0.602860331 0.410180926
8798930 -0.597205698 0.419183224
8822630 -0.592216968 0.427865803
8846330 -0.586660742 0.436489164
8870030 -0.58157736 0.444979459
8893830 -0.575765013 0.453240782
8917530 -0.570356428 0.461154222
8941230 -0.564544022 0.468969315
8964930 -0.559180736 0.476857423
8988630 -0.553328812 0.484338194
9012330 -0.547591924 0.491713821
9036030 -0.541703939 0.499129921
9059730 -0.535992503 0.506193995
9083430 -0.529841184 0.513310372
9107130 -0.524053096 0.520050406
9130930 -0.517862796 0.526776611
9154630 -0.511911869 0.533319294
9178330 -0.505957841 0.539634644
9202030 -0.499886304 0.546077907
9225730 -0.493656158 0.552120327
9249430 -0.487544268 0.558076322
9273130 -0.481432199 0.563982546
9296830 -0.47529906 0.569800078
9320530 -0.469127416 0.575604259
9344230 -0.462987273 0.580845177
9368030 -0.45674327 0.586513161
9391730 -0.450712114 0.591514229
9415430 -0.444480329 0.596969187
9439130 -0.438043862 0.60172528
9462830 -0.432063192 0.606787502
9486530 -0.425710231 0.611727833
9510230 -0.419742763 0.616531193
9533930 -0.413277506 0.621150374
9557630 -0.407218188 0.625502288
9581330 -0.400933176 0.629845142
9605130 -0.394943147 0.634230732
9628840 -0.388535469 0.638519644
9652540 -0.382185101 0.642754673
9676240 -0.376066535 0.646718561
9699940 -0.369817137 0.650850415
9723640 -0.363595783 0.65461266
9747340 -0.357468307 0.658376991
9771040 -0.351192295 0.662204742
9794740 -0.344964355 0.665825366
9818440 -0.338811904 0.669250965
9842140 -0.332854807 0.672510862
9865940 -0.326486885 0.675986468
9889640 -0.320417582 0.679437875
9913340 -0.314160108 0.682531416
9937040 -0.308244675 0.685745835
9960740 -0.301790118 0.688776791
9984440 -0.295828491 0.691704988
10008140 -0.289664566 0.69443345
10031840 -0.283508867 0.69723767
10055540 -0.277472496 0.700074672
10079240 -0.271501243 0.702760457
10103040 -0.265395551 0.705189883
10126740 -0.259177684 0.707816481
10150440 -0.25346595 0.710223019
10174140 -0.247281387 0.712651491
10197840 -0.241531893 0.714965403
10221540 -0.235323846 0.717202425
10245240 -0.229574725 0.719567298
10268940 -0.223531261 0.721583545
10292640 -0.217602297 0.723748266
10316340 -0.21176505 0.725645065
10340140 -0.20580773 0.727603197
10363840 -0.199989497 0.729517221
10387540 -0.193933129 0.731470704
10411240 -0.188295304 0.733295321
10434940 -0.182261049 0.734928369
10458640 -0.17669326 0.73656553
10482340 -0.170716404 0.738411366
10506040 -0.164988145 0.739917635
10529740 -0.159167364 0.741270959
10553440 -0.153344571 0.742933213
10577240 -0.147722125 0.744299411
10600940 -0.141710504 0.745535254
10624640 -0.136068016 0.747100889
10648340 -0.130561143 0.74827826
10672040 -0.124637536 0.749396145
10695740 -0.119133077 0.750605106
10719440 -0.113472186 0.751712024
10743140 -0.107882708 0.752725124
10766840 -0.102250128 0.75397253
10790540 -0.096567146 0.754778802
10814340 -0.091007307 0.755784392
10838040 -0.085522122 0.756554663
10861740 -0.079988144 0.757486581
10885440 -0.074512802 0.758294224
10909140 -0.068987652 0.759080052
10932840 -0.063402608 0.759842574
10956540 -0.057889964 0.760465919
10980240 -0.052598766 0.76097089
11003940 -0.047041416 0.761642575
11027640 -0.041753403 0.762158691
11051440 -0.036372482 0.762659668
11075140 -0.031030187 0.763299047
11098840 -0.025388443 0.763607144
11122540 -0.020114244 0.76393944
11146240 -0.014709956 0.764464676
11169940 -0.009529874 0.764680504
11193640 -0.004167497 0.765086174
11217340 0.001093114 0.76519978
11241040 0.006572445 0.765511691
11264740 0.011696208 0.765481412
11288540 0.01704904 0.765844225
11312240 0.022176994 0.765793085
11335940 0.027408976 0.765902638
11359640 0.032660931 0.765684366
11383340 0.037913344 0.765864908
11407040 0.042881235 0.765691339
11430740 0.048084806 0.765793442
11454440 0.052964027 0.765664041
11478140 0.058169241 0.765549123
11501840 0.06320402 0.765093743
11525640 0.068299263 0.765224933
11549340 0.073394253 0.764673352
11573040 0.078348144 0.764651298
11596740 0.083434298 0.764151096
11620440 0.088483765 0.763843953
11644140 0.093236923 0.763611555
11667840 0.098300382 0.763062417
11691540 0.103250235 0.76260823
11715240 0.108222283 0.76224482
11738940 0.113151416 0.76150453
11762740 0.117992095 0.761297941
11786440 0.122935816 0.760740756
11810140 0.127620562 0.760077059
11833840 0.132500678 0.75931245
11857540 0.13741818 0.758624374
11881240 0.142266631 0.758086621
11904940 0.14700371 0.757299542
11928640 0.151865556 0.756579518
11952340 0.156358152 0.755851209
11976040 0.161128178 0.755003988
11999840 0.165845483 0.754190564
