# Hz S RI R 50
50000 0.996388077 -0.031136482
73700 0.995868504 -0.047741983
97400 0.994150757 -0.062381528
121100 0.992035448 -0.077642872
144800 0.989755392 -0.092863775
168500 0.986279189 -0.107985444
192200 0.981912255 -0.123428225
215900 0.972850739 -0.135936632
239600 0.970226109 -0.139400243
263300 0.973298609 -0.15258637
287100 0.971250295 -0.167492449
310800 0.967757523 -0.181572973
334500 0.964355587 -0.194661274
358200 0.96081537 -0.208227828
381900 0.956156909 -0.2208101
405600 0.952072262 -0.232730209
429300 0.948590874 -0.245112001
453000 0.944835007 -0.258005827
476700 0.940071344 -0.270917415
500400 0.934930622 -0.284045666
524200 0.929055452 -0.296700149
547900 0.922549486 -0.308607578
571600 0.916546344 -0.31971997
595300 0.911310672 -0.330801784
619000 0.905530989 -0.342152923
642700 0.900131225 -0.353810966
666400 0.893710911 -0.365352541
690100 0.887428164 -0.37683171
713800 0.88026607 -0.387839406
737500 0.873426318 -0.398953795
761300 0.866128861 -0.409467339
785000 0.858730971 -0.420189887
808700 0.850916028 -0.430654674
832400 0.843123733 -0.440328985
856100 0.835632503 -0.449275434
879800 0.828761577 -0.458344638
903500 0.821691393 -0.467872381
927200 0.814323902 -0.477632582
950900 0.806601345 -0.486928671
974600 0.798780202 -0.496908187
998400 0.790397822 -0.50590384
1022100 0.782320082 -0.515202224
1045800 0.774092972 -0.524133384
1069500 0.765313267 -0.532619416
1093200 0.756388485 -0.541104257
1116900 0.747429728 -0.54943484
1140600 0.738494813 -0.557454407
1164300 0.729644179 -0.56476581
1188000 0.720836639 -0.571964204
1211700 0.711719214 -0.579266846
1235500 0.702778697 -0.586325883
1259200 0.693980336 -0.593502283
1282900 0.685474157 -0.60016644
1306600 0.676725208 -0.606651604
1330300 0.667695879 -0.613463044
1354000 0.658490538 -0.620108187
1377700 0.64922136 -0.62686181
1401400 0.639956772 -0.633274137
1425100 0.630544424 -0.638935387
1448800 0.620993256 -0.644615888
1472600 0.611339211 -0.650275409
1496300 0.602225899 -0.655393004
1520000 0.593138277 -0.660614371
1543700 0.584301471 -0.666003525
1567400 0.574781119 -0.671079039
1591100 0.565034449 -0.676485478
1614800 0.555438995 -0.680857539
1638500 0.546169459 -0.685427367
1662200 0.536848723 -0.689773559
1685900 0.527045786 -0.694124579
1709700 0.517245531 -0.697818696
1733400 0.507573127 -0.701191723
1757100 0.498502612 -0.704201817
1780800 0.489623934 -0.707527041
1804500 0.480566263 -0.711137413
1828200 0.47176209 -0.714754581
1851900 0.462513893 -0.717860758
1875600 0.453242093 -0.721033155
1899300 0.444105297 -0.723977029
1923000 0.435331404 -0.727096796
1946800 0.426294654 -0.729865193
1970500 0.417175024 -0.732776522
1994200 0.407902926 -0.735974609
2017900 0.398339778 -0.737935721
2041600 0.389152616 -0.740297496
2065300 0.380259245 -0.74287343
2089000 0.370978295 -0.745094299
2112700 0.361567735 -0.74652642
2136400 0.352619469 -0.747896254
2160100 0.344189643 -0.749490797
2183900 0.335322469 -0.751230359
2207600 0.326509952 -0.752385139
2231300 0.317836016 -0.753850936
2255000 0.309320986 -0.755036711
2278700 0.300992399 -0.75640577
2302400 0.292179644 -0.757757186
2326100 0.283044546 -0.7589401
2349800 0.274871438 -0.759758114
2373500 0.266525119 -0.760543048
2397200 0.258040904 -0.762033879
2421000 0.248724952 -0.762688219
2444710 0.240497693 -0.801717996
2468410 0.231839656 -0.802054703
2492110 0.223478376 -0.802628636
2515810 0.214400514 -0.803751349
2539510 0.205230578 -0.803700804
2563210 0.196060329 -0.803441822
2586910 0.188000023 -0.802949368
2610610 0.179522305 -0.803011238
2634310 0.171143203 -0.803041696
2658010 0.162027031 -0.80275768
2681810 0.153995394 -0.802332937
2705510 0.145738258 -0.802186131
2729210 0.137682631 -0.801605105
2752910 0.129490166 -0.8011747
2776610 0.121303334 -0.800555646
2800310 0.112934753 -0.800362288
2824010 0.104574538 -0.799441337
2847710 0.09619148 -0.79842019
2871410 0.087958343 -0.796966731
2895110 0.080183006 -0.796402454
2918910 0.071859709 -0.795168817
2942610 0.063866056 -0.794058263
2966310 0.055953092 -0.792356669
2990010 0.048485569 -0.790600419
3013710 0.040800433 -0.788857817
3037410 0.033059436 -0.788043797
3061110 0.025016143 -0.785941779
3084810 0.017202502 -0.783754348
3108510 0.010330298 -0.78197807
3132210 0.002772622 -0.780338466
3156010 -0.005115354 -0.778031468
3179710 -0.012354725 -0.775497376
3203410 -0.019495666 -0.77303946
3227110 -0.026609865 -0.771393001
3250810 -0.033881157 -0.768867909
3274510 -0.041244555 -0.766590595
3298210 -0.047989983 -0.763942837
3321910 -0.054745215 -0.76148051
3345610 -0.061804842 -0.758670151
3369310 -0.068638242 -0.756174862
3393110 -0.075377151 -0.75297445
3416810 -0.082308918 -0.750228822
3440510 -0.088646523 -0.747328102
3464210 -0.095109909 -0.744689404
3487910 -0.101716093 -0.741053164
3511610 -0.10815902 -0.737632393
3535310 -0.113792501 -0.734233498
3559010 -0.119531482 -0.731552779
3582710 -0.126023098 -0.728790938
3606410 -0.13279809 -0.72516036
3630210 -0.138747394 -0.72162497
3653910 -0.143824562 -0.717910349
3677610 -0.149816066 -0.714951217
3701310 -0.155894324 -0.7115646
3725010 -0.162245988 -0.708106637
3748710 -0.167703986 -0.703759908
3772410 -0.172544896 -0.700451076
3796110 -0.178496956 -0.697127699
3819810 -0.184252098 -0.69362384
3843510 -0.189712524 -0.688890159
3867310 -0.194671228 -0.684413492
3891010 -0.199582383 -0.681152224
3914710 -0.204901784 -0.67748636
3938410 -0.210083603 -0.67320007
3962110 -0.215264067 -0.669157147
3985810 -0.219467699 -0.665141165
4009510 -0.224097728 -0.660842001
4033210 -0.229476034 -0.656623601
4056910 -0.234213724 -0.652321338
4080610 -0.238727137 -0.647818624
4104410 -0.243005946 -0.643611073
4128110 -0.247522562 -0.639876008
4151810 -0.25227341 -0.635317802
4175510 -0.256108999 -0.630233466
4199210 -0.260228484 -0.625793099
4222910 -0.264020383 -0.62156248
4246610 -0.26832208 -0.617392897
4270310 -0.272690087 -0.612873554
4294010 -0.276502937 -0.607467949
4317710 -0.279893517 -0.603082835
4341510 -0.283182173 -0.598476231
4365210 -0.287348598 -0.594153821
4388910 -0.291473269 -0.589429795
4412610 -0.294716179 -0.584367454
4436310 -0.297451078 -0.579521656
4460010 -0.301096826 -0.574746906
4483710 -0.30441305 -0.570005714
4507410 -0.30739966 -0.565419375
4531110 -0.310620337 -0.560132324
4554810 -0.313320726 -0.55502057
4578610 -0.315639793 -0.549740433
4602310 -0.318175405 -0.545577764
4626010 -0.320802211 -0.540510892
4649710 -0.324106484 -0.535260081
4673410 -0.32636097 -0.529987692
4697110 -0.32811141 -0.524896144
4720810 -0.330730378 -0.520113289
4744510 -0.333122342 -0.515372276
4768210 -0.334594756 -0.509800434
4791910 -0.336851984 -0.505151569
4815710 -0.338360875 -0.49960342
4839420 -0.346467554 -0.500431478
4863120 -0.348272502 -0.494871795
4886820 -0.349366396 -0.489994615
4910520 -0.351622313 -0.484929621
4934220 -0.353160113 -0.479186266
4957920 -0.354195207 -0.474317222
4981620 -0.355410486 -0.469477534
5005320 -0.356527626 -0.464302957
5029020 -0.3575778 -0.459528774
5052720 -0.358912736 -0.454226464
5076520 -0.359559535 -0.448708385
5100220 -0.360237836 -0.443204522
5123920 -0.360657423 -0.438255459
5147620 -0.361403971 -0.43329221
5171320 -0.362366825 -0.428627163
5195020 -0.362623512 -0.423737823
5218720 -0.362908452 -0.417816549
5242420 -0.362814456 -0.412230759
5266120 -0.362671494 -0.407489806
5289820 -0.36280018 -0.403078883
5313620 -0.363121926 -0.397536426
5337320 -0.362819701 -0.391894668
5361020 -0.362071871 -0.387074112
5384720 -0.36175704 -0.382296949
5408420 -0.361630171 -0.377252608
5432120 -0.360331088 -0.371627658
5455820 -0.358941882 -0.366890698
5479520 -0.3581236 -0.362427115
5503220 -0.357574552 -0.357857733
5526920 -0.356259286 -0.35230112
5550720 -0.354456722 -0.346377342
5574420 -0.352596491 -0.34174177
5598120 -0.351018071 -0.338098555
5621820 -0.350098997 -0.333680599
5645520 -0.34863913 -0.328198999
5669220 -0.345983892 -0.323037475
5692920 -0.343125939 -0.318873822
5716620 -0.340884 -0.315281003
5740320 -0.339605867 -0.310417175
5764020 -0.337417304 -0.30555883
5787820 -0.33416137 -0.30077061
5811520 -0.330412775 -0.296811401
5835220 -0.32754752 -0.293116539
5858920 -0.325463175 -0.289203166
5882620 -0.322650998 -0.284594833
5906320 -0.31869781 -0.280539274
5930020 -0.314525425 -0.276964664
5953720 -0.311071842 -0.274589061
5977420 -0.307976573 -0.270622402
6001120 -0.304092943 -0.266678869
6024920 -0.299592167 -0.263742387
6048620 -0.295276612 -0.260768651
6072320 -0.291511595 -0.258092224
6096020 -0.287302941 -0.254953205
6119720 -0.28310123 -0.25197345
6143420 -0.278130263 -0.249882444
6167120 -0.274147778 -0.247556626
6190820 -0.26882857 -0.245502203
6214520 -0.264605343 -0.243591457
6238220 -0.259141594 -0.242520734
6262020 -0.253256201 -0.241927236
6285720 -0.249409228 -0.241112232
6309420 -0.244949862 -0.239675506
6333120 -0.239487051 -0.238510444
6356820 -0.23288007 -0.238133445
6380520 -0.227835565 -0.238839492
6404220 -0.223080381 -0.239418789
6427920 -0.218368098 -0.239280119
6451620 -0.213095232 -0.238477483
6475320 -0.207191601 -0.238840624
6499120 -0.201282933 -0.239209517
6522820 -0.19613938 -0.240794867
6546520 -0.191108658 -0.242196336
6570220 -0.186677187 -0.243480935
6593920 -0.181319072 -0.243625491
6617620 -0.175168603 -0.244593933
6641320 -0.169145211 -0.246735095
6665020 -0.164359137 -0.249285966
6688720 -0.159433171 -0.251855552
6712420 -0.154502823 -0.253956764
6736220 -0.149573579 -0.256364703
6759920 -0.1444007 -0.258946299
6783620 -0.138548061 -0.262619107
6807320 -0.132940858 -0.267535746
6831020 -0.128790229 -0.271333485
6854720 -0.125307798 -0.275156348
6878420 -0.120748907 -0.278077542
6902120 -0.11581657 -0.283066451
6925820 -0.110712662 -0.288807272
6949520 -0.107854187 -0.294644057
6973320 -0.104854524 -0.299304187
6997020 -0.10148061 -0.30398339
7020720 -0.09678553 -0.310152679
7044420 -0.093432985 -0.31727156
7068120 -0.091435506 -0.323704242
7091820 -0.089546471 -0.329185247
7115520 -0.087093979 -0.334931582
7139220 -0.083671942 -0.341967493
7162920 -0.082258626 -0.349774837
7186620 -0.081422664 -0.357334345
7210420 -0.081281192 -0.363566458
7234130 -0.085002161 -0.372425407
7257830 -0.083434469 -0.379808038
7281530 -0.083239041 -0.388253003
7305230 -0.084072396 -0.395884662
7328930 -0.085081219 -0.40202251
7352630 -0.08521489 -0.409306913
7376330 -0.086191117 -0.416799932
7400030 -0.087702088 -0.424719303
7423730 -0.090057075 -0.431476444
7447430 -0.092285111 -0.437796324
7471230 -0.093872599 -0.444739282
7494930 -0.095821179 -0.451879471
7518630 -0.099096395 -0.459280431
7542330 -0.102865576 -0.466067165
7566030 -0.106912679 -0.471791893
7589730 -0.110107488 -0.47730726
7613430 -0.11300949 -0.483499318
7637130 -0.116660028 -0.490332335
7660830 -0.121533833 -0.496628314
7684530 -0.126675993 -0.50218898
7708330 -0.131261155 -0.506207644
7732030 -0.135224625 -0.511245012
7755730 -0.139570608 -0.516814589
7779430 -0.144603133 -0.522089481
7803130 -0.15056248 -0.527042686
7826830 -0.156319022 -0.530759334
7850530 -0.161142781 -0.53429526
7874230 -0.165819242 -0.538464784
7897930 -0.1709944 -0.543040335
7921630 -0.17720364 -0.547013521
7945430 -0.183449342 -0.550465345
7969130 -0.189150214 -0.552849233
7992830 -0.194273382 -0.555827677
8016530 -0.199522197 -0.559141814
8040230 -0.2054957 -0.562366545
8063930 -0.212070509 -0.565507948
8087630 -0.218372896 -0.567291319
8111330 -0.224022656 -0.568945288
8135030 -0.229097276 -0.570942461
8158730 -0.234701409 -0.573547959
8182530 -0.241078644 -0.575562179
8206230 -0.24749507 -0.57693535
8229930 -0.25361967 -0.578242659
8253630 -0.258916944 -0.579116702
8277330 -0.26444447 -0.580623567
8301030 -0.270634233 -0.582024812
8324730 -0.276523292 -0.582810819
8348430 -0.282583326 -0.583517551
8372130 -0.288113832 -0.583995223
8395830 -0.294019669 -0.584483265
8419630 -0.299752652 -0.584962606
8443330 -0.305194765 -0.585466802
8467030 -0.311328142 -0.585463643
8490730 -0.316649734 -0.585359334
8514430 -0.322388052 -0.585148572
8538130 -0.327705562 -0.584953069
8561830 -0.333167195 -0.584919393
8585530 -0.338694393 -0.584399342
8609230 -0.343947261 -0.583902478
8632930 -0.349403649 -0.583428502
8656730 -0.354765832 -0.582705199
8680430 -0.359819501 -0.581839382
8704130 -0.365037679 -0.58084464
8727830 -0.37018606 -0.579971432
8751530 -0.375329226 -0.579046368
8775230 -0.380331248 -0.578246653
8798930 -0.385377913 -0.576958656
8822630 -0.390000104 -0.575335085
8846330 -0.394834607 -0.574230313
8870030 -0.399080693 -0.57291007
8893830 -0.404187172 -0.571897149
8917530 -0.408985972 -0.570177078
8941230 -0.413615047 -0.568190097
8964930 -0.417756795 -0.566643655
8988630 -0.422020763 -0.565066933
9012330 -0.426553428 -0.563527464
9036030 -0.431271255 -0.562109112
9059730 -0.4355309 -0.559727907
9083430 -0.43965432 -0.557948231
9107130 -0.443662285 -0.556043863
9130930 -0.447772294 -0.554301917
9154630 -0.45220834 -0.552232503
9178330 -0.456239432 -0.55011624
9202030 -0.45990473 -0.548053443
9225730 -0.463649362 -0.545967578
9249430 -0.467379897 -0.543918013
9273130 -0.471473723 -0.541977107
9296830 -0.475240677 -0.539533376
9320530 -0.478772848 -0.537250697
9344230 -0.482364535 -0.535153388
9368030 -0.486048489 -0.53294146
9391730 -0.489673107 -0.530632734
9415430 -0.49289599 -0.528372883
9439130 -0.496264636 -0.526031911
9462830 -0.499598592 -0.523716449
9486530 -0.502960741 -0.521270573
9510230 -0.506272554 -0.519013762
9533930 -0.509613633 -0.516820013
9557630 -0.512703478 -0.514277875
9581330 -0.515872836 -0.51172614
9605130 -0.518760085 -0.509453654
9628840 -0.515248239 -0.50258851
9652540 -0.518206 -0.500234842
9676240 -0.521195054 -0.49764657
9699940 -0.524102449 -0.495154291
9723640 -0.526780962 -0.492723494
9747340 -0.529518485 -0.490397632
9771040 -0.532372057 -0.48794353
9794740 -0.535216033 -0.485589474
9818440 -0.537944555 -0.482990026
9842140 -0.540328502 -0.480367839
9865940 -0.542870461 -0.478023767
9889640 -0.545393228 -0.475735694
9913340 -0.547992825 -0.473033815
9937040 -0.550497651 -0.470278382
9960740 -0.552798032 -0.467822015
9984440 -0.555262088 -0.465465396
10008140 -0.557617485 -0.46284005
10031840 -0.559751451 -0.460221379
10055540 -0.562206923 -0.457966476
10079240 -0.564638853 -0.455417394
10103040 -0.5666911 -0.452690869
10126740 -0.568677365 -0.450148969
10150440 -0.570839822 -0.447664529
10174140 -0.573207557 -0.445295035
10197840 -0.575207531 -0.442502647
10221540 -0.577480077 -0.440206617
10245240 -0.579174876 -0.437476068
10268940 -0.581381022 -0.435010254
10292640 -0.58319354 -0.432441771
10316340 -0.585201859 -0.430000036
10340140 -0.587121605 -0.427460044
10363840 -0.589084804 -0.424871504
10387540 -0.590982198 -0.422306448
10411240 -0.592660307 -0.419779598
10434940 -0.594571828 -0.417508244
10458640 -0.596500813 -0.414804756
10482340 -0.598039269 -0.412198632
10506040 -0.599800407 -0.409649044
10529740 -0.601602137 -0.407051086
10553440 -0.603141069 -0.404626876
10577240 -0.604941844 -0.402006596
10600940 -0.606655001 -0.399572581
10624640 -0.60807079 -0.396981537
10648340 -0.609897971 -0.394465863
10672040 -0.611491858 -0.392201721
10695740 -0.613077282 -0.389475166
10719440 -0.614503681 -0.386821717
10743140 -0.616029739 -0.384347945
10766840 -0.617388427 -0.381766468
10790540 -0.619101107 -0.379100143
10814340 -0.620280444 -0.376726716
10838040 -0.621570646 -0.374158471
10861740 -0.62297815 -0.371593177
10885440 -0.624336063 -0.368982881
10909140 -0.625579059 -0.366507053
10932840 -0.626977026 -0.363855898
10956540 -0.627862334 -0.361663728
10980240 -0.629268348 -0.358849465
11003940 -0.630367934 -0.356265336
11027640 -0.631482243 -0.353738188
11051440 -0.632847011 -0.351314693
11075140 -0.63373512 -0.348730087
11098840 -0.635254383 -0.346351265
11122540 -0.635912001 -0.34365797
11146240 -0.636873126 -0.340926498
11169940 -0.637886404 -0.338546067
11193640 -0.638911545 -0.335912108
11217340 -0.639906406 -0.333629697
11241040 -0.640534162 -0.331061363
11264740 -0.641408801 -0.328475624
11288540 -0.642092347 -0.326066136
11312240 -0.64279735 -0.323581993
11335940 -0.643641471 -0.321134835
11359640 -0.644088923 -0.318761646
11383340 -0.644733071 -0.316348493
11407040 -0.645556867 -0.314101815
11430740 -0.645841836 -0.311912357
11454440 -0.646410167 -0.309758365
11478140 -0.646791577 -0.307391166
11501840 -0.647430539 -0.305558264
11525640 -0.647864699 -0.303510427
11549340 -0.648432433 -0.301499992
11573040 -0.648926436 -0.299419194
11596740 -0.649340093 -0.297637581
11620440 -0.650090396 -0.295668542
11644140 -0.650575697 -0.293932914
11667840 -0.651445686 -0.292138397
11691540 -0.652044773 -0.290362685
11715240 -0.652799069 -0.288337439
11738940 -0.653796374 -0.286769568
11762740 -0.654535531 -0.284922897
11786440 -0.655415296 -0.283079802
11810140 -0.656392574 -0.280944913
11833840 -0.657177329 -0.279159963
11857540 -0.657913923 -0.277151823
11881240 -0.658888876 -0.275144219
11904940 -0.659852206 -0.273043572
11928640 -0.660522878 -0.270869106
11952340 -0.661601245 -0.26894167
11976040 -0.662389636 -0.266728729
11999840 -0.663004577 -0.264579057
