# Hz S RI R 50
50000 0.998896181 -0.044850725
169500 0.971625268 -0.152813062
289000 0.943089604 -0.19530791
408500 0.890835165 -0.269538611
528000 0.922590315 -0.319723039
647500 0.884088039 -0.419051408
767000 0.797836959 -0.489687293
886500 0.815903723 -0.483098149
1006000 0.780932247 -0.580782055
1125500 0.724274814 -0.649046123
1245000 0.64917618 -0.6862365
1364500 0.625364243 -0.712724566
1484000 0.579576134 -0.769087255
1603500 0.517853975 -0.813546717
1723000 0.451152265 -0.834319829
1842500 0.412638187 -0.857388734
1962000 0.356883525 -0.889009594
2081500 0.296357721 -0.909989774
2201000 0.240310534 -0.921738862
2320500 0.185734421 -0.93275696
2440000 0.131036594 -0.939581811
2559500 0.079798348 -0.941900432
2679000 0.02768778 -0.942926764
2798500 -0.021001441 -0.938705027
2918000 -0.066707223 -0.933707952
3037500 -0.113201387 -0.927362799
3157000 -0.156666502 -0.916695713
3276500 -0.198029771 -0.906091392
3396000 -0.237790763 -0.893476188
3515500 -0.276684314 -0.879809379
3635000 -0.313383221 -0.86397773
3754500 -0.348780393 -0.846544027
3874000 -0.38258785 -0.828457176
3993500 -0.414990454 -0.807883977
4113000 -0.444848984 -0.786822974
4232500 -0.472520798 -0.764377832
4352000 -0.499925792 -0.74189949
4471500 -0.523975372 -0.717220783
4591000 -0.548008859 -0.692294895
4710500 -0.569218993 -0.664876461
4830000 -0.58910495 -0.637430548
4949500 -0.605875909 -0.609355568
5069000 -0.619872868 -0.579165697
5188500 -0.630586087 -0.54919523
5308000 -0.639195382 -0.518480598
5427500 -0.644283413 -0.487490266
5547000 -0.646473526 -0.457594633
5666500 -0.644860863 -0.427413463
5786000 -0.639645993 -0.399012595
5905500 -0.629135906 -0.371935933
6025000 -0.615592837 -0.34946841
6144500 -0.599498629 -0.330410033
6264000 -0.580901622 -0.322340279
6383500 -0.565506994 -0.320915997
6503000 -0.555917024 -0.320437818
6622500 -0.547613263 -0.314929693
6742000 -0.53749901 -0.311471641
6861500 -0.52934432 -0.311573058
6981000 -0.524505257 -0.316902458
7100500 -0.522182822 -0.319257855
7220000 -0.524127185 -0.321156948
7339500 -0.527594745 -0.322530329
7459000 -0.531185388 -0.317273408
7578500 -0.533984661 -0.314535528
7698000 -0.534488618 -0.30748409
7817500 -0.533436894 -0.301136583
7937000 -0.53228718 -0.292197734
8056500 -0.528003334 -0.282417148
8176000 -0.512955069 -0.277266442
8295500 -0.500751256 -0.274650096
8415000 -0.483280688 -0.274976253
8534500 -0.464215785 -0.282132148
8654000 -0.4452205 -0.296408385
8773500 -0.43002969 -0.318876057
8893000 -0.421312093 -0.348968535
9012500 -0.422053337 -0.382967174
9132000 -0.431766062 -0.417615771
9251500 -0.452575504 -0.4497177
9371000 -0.480462074 -0.475689232
9490500 -0.513384103 -0.493391722
9610000 -0.548208117 -0.504260003
9729500 -0.582267522 -0.5085541
9849000 -0.615744471 -0.507608354
9968500 -0.646825313 -0.501643061
10088000 -0.674936592 -0.492753475
10207500 -0.700000882 -0.481721132
10327000 -0.723150134 -0.469123899
10446500 -0.744356453 -0.455214589
10566000 -0.763878047 -0.440354913
10685500 -0.780419468 -0.424343079
10805000 -0.795331537 -0.409104734
10924500 -0.80856496 -0.393319368
11044000 -0.820780992 -0.377815783
11163500 -0.831663608 -0.361865788
11283000 -0.841338038 -0.346712142
11402500 -0.850069522 -0.331335783
11522000 -0.857824265 -0.316545099
11641500 -0.864879071 -0.302178382
11761000 -0.871315062 -0.287789702
11880500 -0.877141773 -0.273831963
12000000 -0.882478117 -0.260351508
