# Hz S RI R 50
50000 0.993353724 -0.020892981
73700 0.993932068 -0.03292464
97400 0.992486774 -0.044422138
121100 0.991309642 -0.056268297
144800 0.988963782 -0.068595439
168500 0.98517549 -0.084008559
192200 0.967777073 -0.088924542
215900 0.971977889 -0.100755922
239600 0.953540444 -0.113531947
263300 0.951635777 -0.12052495
287100 0.932939708 -0.056402403
310800 0.975406587 -0.085149392
334500 0.975620329 -0.104650653
358200 0.974987328 -0.116171285
381900 0.974682688 -0.12815006
405600 0.972918808 -0.138805285
429300 0.97022444 -0.144564181
453000 0.973190367 -0.151746213
476700 0.974546253 -0.163087815
500400 0.973475635 -0.174613922
524200 0.971644461 -0.185148522
547900 0.968987762 -0.195817515
571600 0.965729296 -0.206021666
595300 0.962969958 -0.216240048
619000 0.958686888 -0.226673334
642700 0.951973438 -0.235863819
666400 0.946403026 -0.245635122
690100 0.938189148 -0.251017093
713800 0.933346033 -0.256093531
737500 0.924763739 -0.262328445
761300 0.918193697 -0.259304523
785000 0.918172776 -0.252453356
808700 0.927928388 -0.254172146
832400 0.93730396 -0.267294406
856100 0.938180983 -0.280702203
879800 0.936120569 -0.292110055
903500 0.933634877 -0.302012085
927200 0.931171357 -0.313228458
950900 0.926671743 -0.322932004
974600 0.923316419 -0.332437932
998400 0.918846786 -0.341682672
1022100 0.913814425 -0.350961536
1045800 0.90741539 -0.359560906
1069500 0.900309085 -0.365701705
1093200 0.895551621 -0.370864957
1116900 0.890450656 -0.377806574
1140600 0.884876012 -0.382918566
1164300 0.879842221 -0.384942412
1188000 0.877591669 -0.387626141
1211700 0.876906454 -0.390802919
1235500 0.879374921 -0.396233588
1259200 0.88164252 -0.405369788
1282900 0.880410552 -0.416535556
1306600 0.877062022 -0.42669025
1330300 0.871988594 -0.436050176
1354000 0.867468357 -0.444983452
1377700 0.862233459 -0.453938722
1401400 0.857328832 -0.461851269
1425100 0.851404666 -0.469638586
1448800 0.845157921 -0.477509766
1472600 0.839047729 -0.484648823
1496300 0.832069218 -0.491845458
1520000 0.823643624 -0.498465567
1543700 0.815452992 -0.502264022
1567400 0.806179761 -0.502853393
1591100 0.803253173 -0.500527679
1614800 0.806254625 -0.50139147
1638500 0.80833894 -0.509021699
1662200 0.807970643 -0.517459332
1685900 0.805552065 -0.526710331
1709700 0.801429629 -0.536586105
1733400 0.795790672 -0.545536279
1757100 0.789908051 -0.553627014
1780800 0.783433377 -0.561498999
1804500 0.776442885 -0.568674802
1828200 0.769856631 -0.575358569
1851900 0.762021541 -0.581669926
1875600 0.753635823 -0.586599886
1899300 0.745707809 -0.590304553
1923000 0.737896502 -0.59252727
1946800 0.731776416 -0.592974245
1970500 0.730540096 -0.593014717
1994200 0.730238795 -0.596538841
2017900 0.728801608 -0.603095889
2041600 0.725861489 -0.611059486
2065300 0.722156405 -0.619172632
2089000 0.717337071 -0.626488029
2112700 0.711136758 -0.633591055
2136400 0.704843997 -0.639750778
2160100 0.698502361 -0.645857155
2183900 0.690917074 -0.650995373
2207600 0.684190034 -0.655856907
2231300 0.677855491 -0.660424351
2255000 0.671756982 -0.663861989
2278700 0.665519118 -0.667282521
2302400 0.660076141 -0.671153128
2326100 0.655437409 -0.675643563
2349800 0.65070945 -0.680516719
2373500 0.645767629 -0.684810698
2397200 0.640090942 -0.690266847
2421000 0.635020554 -0.695831954
2444710 0.628774821 -0.701019763
2468410 0.622658431 -0.70594263
2492110 0.616105198 -0.71080935
2515810 0.609637379 -0.715378046
2539510 0.602447032 -0.719863414
2563210 0.595786333 -0.723653256
2586910 0.589016318 -0.727321863
2610610 0.582614243 -0.731403589
2634310 0.576446294 -0.734734356
2658010 0.569963395 -0.737853288
2681810 0.564593493 -0.741425573
2705510 0.558542191 -0.746144235
2729210 0.55228722 -0.749152302
2752910 0.545384228 -0.753109991
2776610 0.539548456 -0.756667375
2800310 0.532756865 -0.761107504
2824010 0.526396453 -0.76449126
2847710 0.519534468 -0.768482744
2871410 0.512791037 -0.77178651
2895110 0.506700098 -0.77505654
2918910 0.499254852 -0.778945267
2942610 0.491961389 -0.781654953
2966310 0.484596848 -0.784786045
2990010 0.477641165 -0.787165939
3013710 0.470924049 -0.789450764
3037410 0.464148044 -0.792066752
3061110 0.457869589 -0.794595062
3084810 0.45209816 -0.797435402
3108510 0.445376813 -0.800370812
3132210 0.438285261 -0.803364634
3156010 0.430294871 -0.806091845
3179710 0.422935545 -0.808638095
3203410 0.416082471 -0.810594022
3227110 0.40816316 -0.812093913
3250810 0.400726675 -0.813095211
3274510 0.394901514 -0.814536631
3298210 0.388403415 -0.816594362
3321910 0.382668882 -0.819139957
3345610 0.376171678 -0.821721374
3369310 0.369067877 -0.824131429
3393110 0.360980331 -0.826150655
3416810 0.353784322 -0.827718198
3440510 0.345431178 -0.82839781
3464210 0.338955402 -0.830272138
3487910 0.33248943 -0.83080846
3511610 0.325982481 -0.832296609
3535310 0.319472432 -0.833526372
3559010 0.312231361 -0.83550018
3582710 0.304191499 -0.836590647
3606410 0.296252191 -0.838024675
3630210 0.288713783 -0.839059889
3653910 0.280801028 -0.839152574
3677610 0.273384243 -0.840683758
3701310 0.267413616 -0.84008789
3725010 0.261288404 -0.840623378
3748710 0.254125863 -0.841663777
3772410 0.246385157 -0.841469943
3796110 0.238174155 -0.842751383
3819810 0.230567514 -0.842739701
3843510 0.223892733 -0.842305243
3867310 0.216633528 -0.841958642
3891010 0.208887845 -0.840537846
3914710 0.200813651 -0.840638279
3938410 0.194635301 -0.840049862
3962110 0.186903893 -0.839430928
3985810 0.179814904 -0.838785707
4009510 0.172167673 -0.837572872
4033210 0.165681853 -0.836905419
4056910 0.157968103 -0.83501935
4080610 0.151658535 -0.834384083
4104410 0.144111245 -0.833036065
4128110 0.138586789 -0.831309676
4151810 0.131113931 -0.828712999
4175510 0.125074744 -0.826623141
4199210 0.117827743 -0.824801921
4222910 0.111649706 -0.823970377
4246610 0.104278199 -0.821268856
4270310 0.099223144 -0.819153606
4294010 0.093136668 -0.816304326
4317710 0.085827201 -0.813162326
4341510 0.078425385 -0.811393022
4365210 0.073031194 -0.809991061
4388910 0.067657217 -0.807766735
4412610 0.062309261 -0.806010067
4436310 0.057881008 -0.802167832
4460010 0.050747867 -0.798333704
4483710 0.043762657 -0.795287072
4507410 0.038449361 -0.791374683
4531110 0.032586697 -0.788975298
4554810 0.028082173 -0.786296129
4578610 0.022838564 -0.784677147
4602310 0.0192294 -0.779362082
4626010 0.015422839 -0.774912834
4649710 0.010771975 -0.770616173
4673410 0.004909211 -0.767063796
4697110 -0.000467667 -0.764038085
4720810 -0.002669895 -0.761095702
4744510 -0.008103367 -0.758182287
4768210 -0.012517894 -0.755733907
4791910 -0.015599965 -0.750769436
4815710 -0.017772026 -0.747387409
4839420 -0.020733525 -0.743547797
4863120 -0.025177633 -0.738104283
4886820 -0.027052929 -0.736311197
4910520 -0.030690405 -0.73377192
4934220 -0.033462226 -0.732086956
4957920 -0.035753984 -0.727915585
4981620 -0.037593189 -0.725900232
5005320 -0.038864877 -0.722581684
5029020 -0.042914483 -0.719388782
5052720 -0.045600429 -0.713810205
5076520 -0.050081625 -0.712465286
5100220 -0.052525568 -0.709421813
5123920 -0.053749877 -0.707467555
5147620 -0.052490159 -0.706232905
5171320 -0.055677827 -0.703246593
5195020 -0.05844647 -0.700466096
5218720 -0.060391105 -0.697743952
5242420 -0.06465923 -0.696826934
5266120 -0.064109236 -0.696831822
5289820 -0.065357878 -0.69385457
5313620 -0.066903844 -0.692395091
5337320 -0.071546338 -0.690078079
5361020 -0.073055073 -0.68899697
5384720 -0.075648769 -0.688127458
5408420 -0.07777889 -0.688754498
5432120 -0.081694111 -0.687197744
5455820 -0.082717016 -0.684369564
5479520 -0.082814618 -0.683274805
5503220 -0.085957482 -0.682359158
5526920 -0.089303426 -0.680678844
5550720 -0.092912346 -0.678118765
5574420 -0.09832026 -0.679247796
5598120 -0.100855015 -0.67881596
5621820 -0.102960303 -0.676257967
5645520 -0.106136418 -0.674125969
5669220 -0.108802177 -0.671513795
5692920 -0.113884069 -0.670845329
5716620 -0.117114916 -0.669944822
5740320 -0.119348496 -0.669552326
5764020 -0.121100977 -0.667087554
5787820 -0.1245597 -0.665466368
5811520 -0.128244295 -0.66285634
5835220 -0.13085179 -0.659044742
5858920 -0.135137483 -0.659328281
5882620 -0.139524474 -0.655139505
5906320 -0.142913445 -0.65546298
5930020 -0.149390995 -0.654099941
5953720 -0.152640685 -0.65122503
5977420 -0.154308885 -0.648938715
6001120 -0.155062675 -0.646325111
6024920 -0.159117415 -0.643128633
6048620 -0.164523735 -0.640560567
6072320 -0.167730733 -0.638491809
6096020 -0.170478478 -0.636983335
6119720 -0.172433897 -0.634448289
6143420 -0.175687298 -0.629459619
6167120 -0.181417375 -0.625175416
6190820 -0.184318765 -0.621671378
6214520 -0.187240436 -0.620373964
6238220 -0.191041171 -0.6194489
6262020 -0.192968472 -0.616796433
6285720 -0.194926738 -0.61469686
6309420 -0.19763714 -0.611392498
6333120 -0.198554456 -0.608431935
6356820 -0.201487451 -0.602577805
6380520 -0.207035794 -0.598773062
6404220 -0.211544543 -0.598444163
6427920 -0.210847571 -0.595817625
6451620 -0.210473641 -0.588035285
6475320 -0.214638471 -0.582957565
6499120 -0.219579681 -0.580565869
6522820 -0.222477033 -0.579201042
6546520 -0.220438942 -0.573542416
6570220 -0.219054803 -0.569460213
6593920 -0.223826453 -0.563368201
6617620 -0.228772372 -0.556633889
6641320 -0.231813222 -0.550730168
6665020 -0.233711868 -0.54680854
6688720 -0.23803927 -0.544574558
6712420 -0.239546418 -0.541967093
6736220 -0.238787889 -0.538174033
6759920 -0.23704186 -0.533913135
6783620 -0.236681431 -0.526117384
6807320 -0.239444419 -0.515603661
6831020 -0.244182869 -0.512942254
6854720 -0.245049342 -0.511005938
6878420 -0.24131754 -0.506181538
6902120 -0.239503845 -0.496048688
6925820 -0.242614492 -0.489295899
6949520 -0.244158953 -0.486524194
6973320 -0.241117641 -0.484037846
6997020 -0.237007886 -0.478772222
7020720 -0.23273693 -0.471689105
7044420 -0.231769114 -0.465118467
7068120 -0.231376245 -0.459865242
7091820 -0.232718393 -0.454061359
7115520 -0.232916817 -0.451012492
7139220 -0.230494722 -0.450678646
7162920 -0.225791618 -0.448978722
7186620 -0.219760477 -0.444496989
7210420 -0.21523793 -0.43773216
7234130 -0.217684283 -0.432192683
7257830 -0.218334451 -0.431395083
7281530 -0.212791591 -0.433766961
7305230 -0.204280331 -0.433004051
7328930 -0.199500426 -0.426729261
7352630 -0.202304691 -0.420497953
7376330 -0.203978046 -0.420231878
7400030 -0.201066136 -0.422887563
7423730 -0.19589512 -0.425175726
7447430 -0.192070066 -0.422345608
7471230 -0.188710913 -0.417573451
7494930 -0.187844097 -0.41362822
7518630 -0.189342007 -0.410144716
7542330 -0.18974854 -0.407929182
7566030 -0.189060062 -0.408167392
7589730 -0.189722284 -0.409655272
7613430 -0.188154041 -0.409882813
7637130 -0.18438594 -0.410814553
7660830 -0.181057319 -0.410912245
7684530 -0.179520919 -0.405946075
7708330 -0.17981778 -0.399233102
7732030 -0.183173671 -0.397536307
7755730 -0.185223251 -0.399948954
7779430 -0.180079892 -0.398816198
7803130 -0.178284868 -0.389269292
7826830 -0.183944433 -0.382599085
7850530 -0.185708075 -0.38255468
7874230 -0.180896639 -0.380485206
7897930 -0.176263272 -0.375461667
7921630 -0.174412965 -0.365978151
7945430 -0.171489566 -0.356013059
7969130 -0.16773869 -0.346636772
7992830 -0.163425296 -0.336326628
8016530 -0.154953584 -0.326398551
8040230 -0.146769806 -0.318388223
8063930 -0.13651362 -0.311815112
8087630 -0.125054523 -0.310581624
8111330 -0.110102735 -0.312986701
8135030 -0.092727333 -0.312230199
8158730 -0.075495205 -0.309181392
8182530 -0.064318969 -0.309615314
8206230 -0.0551817 -0.317175626
8229930 -0.043161835 -0.32833141
8253630 -0.027124825 -0.337617427
8277330 -0.012118885 -0.345017433
8301030 -0.003375882 -0.350515127
8324730 0.002094446 -0.359955132
8348430 0.004453656 -0.372808367
8372130 0.006188124 -0.389500737
8395830 0.011423409 -0.405546128
8419630 0.017768312 -0.417679399
8443330 0.022523587 -0.424074769
8467030 0.019289024 -0.430392533
8490730 0.011197905 -0.439482569
8514430 0.005977165 -0.450827926
8538130 0.003778801 -0.463682919
8561830 0.002217533 -0.474758207
8585530 0.00222813 -0.4831402
8609230 0.003033777 -0.48963654
8632930 0.003319148 -0.494153022
8656730 0.000918987 -0.495476543
8680430 -0.005400023 -0.495449095
8704130 -0.016342164 -0.502318859
8727830 -0.021936183 -0.516441345
8751530 -0.017423473 -0.525231838
8775230 -0.018128788 -0.520637571
8798930 -0.031610585 -0.52261871
8822630 -0.038766916 -0.534549117
8846330 -0.037819553 -0.541664779
8870030 -0.03825413 -0.541147768
8893830 -0.043860662 -0.539084196
8917530 -0.050156794 -0.538578629
8941230 -0.057129628 -0.540461778
8964930 -0.064483568 -0.542324483
8988630 -0.070351123 -0.544487178
9012330 -0.076830878 -0.548457503
9036030 -0.080671116 -0.553585112
9059730 -0.081082612 -0.558847784
9083430 -0.079465173 -0.560534596
9107130 -0.079269975 -0.556397199
9130930 -0.085725255 -0.550978481
9154630 -0.09703537 -0.550594747
9178330 -0.104098483 -0.558046698
9202030 -0.101079903 -0.563519299
9225730 -0.098831251 -0.557461738
9249430 -0.108821868 -0.551564097
9273130 -0.116942621 -0.559138357
9296830 -0.112749047 -0.56063503
9320530 -0.115739099 -0.553598344
9344230 -0.124683909 -0.551947295
9368030 -0.129650339 -0.555258929
9391730 -0.130966365 -0.556415617
9415430 -0.132634133 -0.555290758
9439130 -0.134984761 -0.554078876
9462830 -0.138555213 -0.552693486
9486530 -0.142800047 -0.549834847
9510230 -0.145182326 -0.546748042
9533930 -0.146224588 -0.545565009
9557630 -0.145111337 -0.545674204
9581330 -0.141611307 -0.542786896
9605130 -0.140189915 -0.533896684
9628840 -0.149635896 -0.53701502
9652540 -0.144976779 -0.535030007
9676240 -0.142496541 -0.529898285
9699940 -0.142556473 -0.524502992
9723640 -0.143006905 -0.52035427
9747340 -0.14358069 -0.51708889
9771040 -0.144126445 -0.515134871
9794740 -0.144832491 -0.513917446
9818440 -0.14488925 -0.514639377
9842140 -0.143278703 -0.515681862
9865940 -0.140201434 -0.51681298
9889640 -0.13442105 -0.51676464
9913340 -0.129160091 -0.513155817
9937040 -0.127104848 -0.50898528
9960740 -0.128395244 -0.50750333
9984440 -0.12807548 -0.510068356
10008140 -0.123324558 -0.514415025
10031840 -0.116002053 -0.515962541
10055540 -0.109814867 -0.513248026
10079240 -0.107093624 -0.51102364
10103040 -0.106410793 -0.511769294
10126740 -0.106488615 -0.515645921
10150440 -0.104519732 -0.521560609
10174140 -0.098522774 -0.527381658
10197840 -0.091897219 -0.53217858
10221540 -0.085226409 -0.534884393
10245240 -0.079674825 -0.536372005
10268940 -0.077544279 -0.536774516
10292640 -0.077749207 -0.538596093
10316340 -0.07889951 -0.544557988
10340140 -0.079502239 -0.553946912
10363840 -0.077026173 -0.565065145
10387540 -0.072336278 -0.573601722
10411240 -0.066983684 -0.579598903
10434940 -0.064211606 -0.583988904
10458640 -0.063870504 -0.587237656
10482340 -0.065336734 -0.59136939
10506040 -0.068337433 -0.597368478
10529740 -0.071228399 -0.603432536
10553440 -0.075129672 -0.61063677
10577240 -0.07851953 -0.618657827
10600940 -0.08215066 -0.627737581
10624640 -0.084231585 -0.638365685
10648340 -0.082923278 -0.648337841
10672040 -0.07988426 -0.65274465
10695740 -0.083269283 -0.651762068
10719440 -0.094905942 -0.657922327
10743140 -0.098586402 -0.67231661
10766840 -0.095136389 -0.678721547
10790540 -0.099200777 -0.677846312
10814340 -0.109924472 -0.682626962
10838040 -0.118019491 -0.691517353
10861740 -0.123131126 -0.699115991
10885440 -0.12814556 -0.70498526
10909140 -0.133922293 -0.709218859
10932840 -0.140102192 -0.71294099
10956540 -0.145778551 -0.7164191
10980240 -0.15173535 -0.720156371
11003940 -0.157573595 -0.724385976
11027640 -0.163343295 -0.729403257
11051440 -0.167490005 -0.733884215
11075140 -0.170872896 -0.736180424
11098840 -0.176826134 -0.735304534
11122540 -0.187343329 -0.737344563
11146240 -0.193555817 -0.744404911
11169940 -0.196205541 -0.745015799
11193640 -0.205940276 -0.744489967
11217340 -0.21321392 -0.749899208
11241040 -0.216675102 -0.751755893
11264740 -0.223013445 -0.750865519
11288540 -0.231138914 -0.751667976
11312240 -0.238324478 -0.753444492
11335940 -0.244915693 -0.754682719
11359640 -0.250947147 -0.755333364
11383340 -0.25702697 -0.755715668
11407040 -0.262547671 -0.756378531
11430740 -0.26858443 -0.757067441
11454440 -0.274705052 -0.757106304
11478140 -0.281122863 -0.757149159
11501840 -0.287847697 -0.757127344
11525640 -0.29413408 -0.758275091
11549340 -0.298834741 -0.758478701
11573040 -0.30460903 -0.756884813
11596740 -0.31141752 -0.757095456
11620440 -0.315957605 -0.756879627
11644140 -0.322130203 -0.755105853
11667840 -0.328455805 -0.755203068
11691540 -0.333251178 -0.754681766
11715240 -0.338328152 -0.753542959
11738940 -0.343637406 -0.75237137
11762740 -0.348919719 -0.751179873
11786440 -0.354379981 -0.749782085
11810140 -0.359418332 -0.748711764
11833840 -0.364434659 -0.747255146
11857540 -0.369660824 -0.745864152
11881240 -0.3746351 -0.744551301
11904940 -0.379553437 -0.742920756
11928640 -0.384541839 -0.741557121
11952340 -0.389031469 -0.740073442
11976040 -0.393663674 -0.738633513
11999840 -0.398178905 -0.736723661
