# Hz S RI R 50
50000 0.998316407 -0.043514676
169500 0.979193031 -0.153862237
289000 0.931361794 -0.245614126
408500 0.90565443 -0.248584508
528000 0.879401803 -0.355711281
647500 0.86820513 -0.434916138
767000 0.82399559 -0.521702408
886500 0.741734921 -0.577574372
1006000 0.716906368 -0.587766945
1125500 0.688750505 -0.664306819
1245000 0.625306129 -0.738324761
1364500 0.547283411 -0.77344799
1484000 0.489720225 -0.789641857
1603500 0.45335853 -0.822928965
1723000 0.392550617 -0.856437921
1842500 0.321205288 -0.876809179
1962000 0.264713495 -0.874933183
2081500 0.231423065 -0.886783123
2201000 0.177998304 -0.914965629
2320500 0.117124818 -0.919070243
2440000 0.06786067 -0.912851274
2559500 0.026519598 -0.916824638
2679000 -0.024392016 -0.919502615
2798500 -0.0700071 -0.912305176
2918000 -0.113198697 -0.90562874
3037500 -0.157857879 -0.894637405
3157000 -0.196851059 -0.878438115
3276500 -0.228177621 -0.865557968
3396000 -0.2639665 -0.854053676
3515500 -0.294729232 -0.836821317
3635000 -0.322154194 -0.825880527
3754500 -0.348640054 -0.808555066
3874000 -0.370727896 -0.795238316
3993500 -0.399657398 -0.783916413
4113000 -0.426739662 -0.769180417
4232500 -0.448228538 -0.756360948
4352000 -0.471989661 -0.741925597
4471500 -0.494979023 -0.727252423
4591000 -0.515867054 -0.711249947
4710500 -0.539426743 -0.693521916
4830000 -0.561656951 -0.675713956
4949500 -0.581517159 -0.656378626
5069000 -0.599535644 -0.637544155
5188500 -0.617229402 -0.613136827
5308000 -0.630951881 -0.590982854
5427500 -0.646780073 -0.569098949
5547000 -0.659947514 -0.543531596
5666500 -0.671867489 -0.519181489
5786000 -0.681451559 -0.493333816
5905500 -0.687017917 -0.467853605
6025000 -0.693315327 -0.437419503
6144500 -0.69132018 -0.409500002
6264000 -0.690990209 -0.384151041
6383500 -0.685024857 -0.359333425
6503000 -0.673705041 -0.33604443
6622500 -0.66198039 -0.308867335
6742000 -0.645614564 -0.280053496
6861500 -0.624120652 -0.256254255
6981000 -0.596768021 -0.242712929
7100500 -0.565262615 -0.231811195
7220000 -0.532882511 -0.229787051
7339500 -0.503517329 -0.241386473
7459000 -0.472780734 -0.258360505
7578500 -0.453178286 -0.282855659
7698000 -0.441350758 -0.31321153
7817500 -0.43599084 -0.348319441
7937000 -0.438851118 -0.379209697
8056500 -0.454664707 -0.402327775
8176000 -0.473798215 -0.424939602
8295500 -0.498745113 -0.441081762
8415000 -0.524705588 -0.451033234
8534500 -0.548005282 -0.452673733
8654000 -0.566213548 -0.44773069
8773500 -0.583156108 -0.443710863
8893000 -0.599226713 -0.437645733
9012500 -0.609374463 -0.42713508
9132000 -0.617791831 -0.415780484
9251500 -0.62327665 -0.406738698
9371000 -0.626123309 -0.402978956
9490500 -0.627287089 -0.397972315
9610000 -0.627212584 -0.396217793
9729500 -0.628074944 -0.399174153
9849000 -0.630049288 -0.403434962
9968500 -0.635235726 -0.409256309
10088000 -0.641113758 -0.416415721
10207500 -0.652422606 -0.423237115
10327000 -0.666549563 -0.429363489
10446500 -0.681678473 -0.433358967
10566000 -0.69914329 -0.433989971
10685500 -0.715441524 -0.433550298
10805000 -0.732195794 -0.430256605
10924500 -0.74898988 -0.425154864
11044000 -0.765988528 -0.418976187
11163500 -0.781565368 -0.411222457
11283000 -0.795958876 -0.40248093
11402500 -0.809293806 -0.392030239
11522000 -0.821429073 -0.381810933
11641500 -0.832461476 -0.370639622
11761000 -0.842735052 -0.359183341
11880500 -0.852019548 -0.347468584
12000000 -0.860462844 -0.335578978
