# Hz S RI R 50
50000 -0.975809931 0.018272055
73700 -0.975460767 0.028106585
97400 -0.974800646 0.037663668
121100 -0.974103271 0.046979602
144800 -0.973272502 0.055898237
168500 -0.972572147 0.065044753
192200 -0.971905231 0.074119105
215900 -0.971311807 0.082946106
239600 -0.970274448 0.091754928
263300 -0.969150304 0.100668333
287100 -0.967727839 0.109386511
310800 -0.966383814 0.118319496
334500 -0.965358674 0.127404198
358200 -0.964226782 0.135781943
381900 -0.96246308 0.144789725
405600 -0.961010158 0.153739824
429300 -0.95948702 0.162597566
453000 -0.957475781 0.171379029
476700 -0.955451548 0.180270269
500400 -0.953762531 0.188886359
524200 -0.952000737 0.197680234
547900 -0.949673831 0.20667991
571600 -0.947535514 0.215598702
595300 -0.94534105 0.224320113
619000 -0.943052649 0.233085423
642700 -0.940445721 0.241919383
666400 -0.937965571 0.250855714
690100 -0.935043632 0.259524673
713800 -0.93213272 0.268381953
737500 -0.929359614 0.277221024
761300 -0.926403522 0.286124169
785000 -0.923474252 0.294987529
808700 -0.92031008 0.303898841
832400 -0.917208194 0.312841147
856100 -0.913803398 0.321449548
879800 -0.910231649 0.330546498
903500 -0.90651673 0.339448571
927200 -0.902755379 0.34828037
950900 -0.89885199 0.357381463
974600 -0.895058631 0.366481006
998400 -0.890637874 0.375124096
1022100 -0.886526405 0.383864581
1045800 -0.882242441 0.392544627
1069500 -0.877744555 0.401216864
1093200 -0.87329322 0.410277098
1116900 -0.86879307 0.419492691
1140600 -0.863904595 0.428489834
1164300 -0.859118521 0.43722856
1188000 -0.853711843 0.446285039
1211700 -0.848369657 0.455223262
1235500 -0.84300661 0.464362084
1259200 -0.837238311 0.473081767
1282900 -0.831600368 0.481663316
1306600 -0.825936317 0.490227341
1330300 -0.820084512 0.499264568
1354000 -0.814079999 0.508129715
1377700 -0.808101654 0.517181456
1401400 -0.801531612 0.526017248
1425100 -0.794741511 0.534938037
1448800 -0.787587344 0.544012844
1472600 -0.780603349 0.552890241
1496300 -0.77330923 0.561340034
1520000 -0.765952289 0.569911122
1543700 -0.758361339 0.578222811
1567400 -0.750957787 0.586445748
1591100 -0.743528008 0.595555305
1614800 -0.73576045 0.604410588
1638500 -0.727746427 0.613051772
1662200 -0.71920228 0.621837496
1685900 -0.710412204 0.630523562
1709700 -0.701515674 0.639248728
1733400 -0.692262768 0.647394716
1757100 -0.682790458 0.655594348
1780800 -0.673218131 0.663710117
1804500 -0.663691401 0.672204852
1828200 -0.65417391 0.680312573
1851900 -0.644187688 0.688390612
1875600 -0.633598744 0.696797311
1899300 -0.62279725 0.705363154
1923000 -0.61153686 0.713261425
1946800 -0.600288569 0.721182048
1970500 -0.588588416 0.728653252
1994200 -0.576688528 0.735833585
2017900 -0.564473748 0.743175983
2041600 -0.552383959 0.750280022
2065300 -0.540346205 0.757512927
2089000 -0.527284443 0.76416403
2112700 -0.514679014 0.771598517
2136400 -0.501266598 0.778449594
2160100 -0.4874641 0.784672141
2183900 -0.47333914 0.7914716
2207600 -0.458879411 0.797645449
2231300 -0.444161295 0.80319935
2255000 -0.429026275 0.808690369
2278700 -0.413649767 0.814124584
2302400 -0.397691071 0.819191634
2326100 -0.381833553 0.82387042
2349800 -0.365634739 0.828380346
2373500 -0.3485592 0.832171559
2397200 -0.331416219 0.835492551
2421000 -0.314550131 0.839339435
2444710 -0.296186 0.842415988
2468410 -0.279187798 0.844298899
2492110 -0.260753929 0.847240507
2515810 -0.242128789 0.847827613
2539510 -0.224010095 0.849316477
2563210 -0.203985795 0.849061548
2586910 -0.185606852 0.848829805
2610610 -0.165497481 0.84788239
2634310 -0.146246552 0.846141457
2658010 -0.126682847 0.843460619
2681810 -0.107729576 0.841046392
2705510 -0.087516643 0.837810277
2729210 -0.068949811 0.83398509
2752910 -0.048426471 0.830221176
2776610 -0.027037791 0.822633564
2800310 -0.009623276 0.817222237
2824010 0.010490331 0.809952259
2847710 0.03059348 0.802611351
2871410 0.049685813 0.792126536
2895110 0.067656494 0.784161865
2918910 0.088388524 0.772775053
2942610 0.103073872 0.762027621
2966310 0.121974177 0.750317335
2990010 0.140095487 0.739645183
3013710 0.156930431 0.725499689
3037410 0.168718621 0.71299678
3061110 0.186558723 0.698819696
3084810 0.200731143 0.685196816
3108510 0.212903946 0.670539736
3132210 0.226844668 0.656277835
3156010 0.240957677 0.642427325
3179710 0.254770755 0.623435795
3203410 0.260757833 0.612724363
3227110 0.277629435 0.600275576
3250810 0.285010546 0.578319072
3274510 0.292738944 0.568928718
3298210 0.3072187 0.553122758
3321910 0.311411887 0.534527122
3345610 0.322944104 0.523065209
3369310 0.334883064 0.50491178
3393110 0.340644359 0.488087773
3416810 0.348383069 0.471195757
3440510 0.35765323 0.460032641
3464210 0.363935768 0.442242145
3487910 0.369411885 0.427493095
3511610 0.37762475 0.409306138
3535310 0.383011162 0.390799015
3559010 0.388142257 0.37882921
3582710 0.395847976 0.359515011
3606410 0.399752825 0.33800897
3630210 0.403885573 0.323828965
3653910 0.408592194 0.30793479
3677610 0.410740971 0.28781858
3701310 0.415790766 0.269958734
3725010 0.418828427 0.252287536
3748710 0.420335441 0.235849529
3772410 0.42094326 0.215341627
3796110 0.423098564 0.198343157
3819810 0.422802418 0.177959427
3843510 0.420583128 0.157920449
3867310 0.418945848 0.139827311
3891010 0.418252289 0.121522165
3914710 0.413826346 0.100452885
3938410 0.409472674 0.085976585
3962110 0.407799631 0.064299494
3985810 0.403222501 0.049207638
4009510 0.392933249 0.0279999
4033210 0.388038665 0.013818587
4056910 0.383643478 -0.005894263
4080610 0.370231002 -0.017218932
4104410 0.365844994 -0.034836821
4128110 0.35751152 -0.051846761
4151810 0.343428462 -0.068894028
4175510 0.33345437 -0.079113468
4199210 0.323139637 -0.094814121
4222910 0.312655866 -0.110969297
4246610 0.298191606 -0.123270861
4270310 0.284484744 -0.134047791
4294010 0.271370291 -0.142194315
4317710 0.26052457 -0.150229096
4341510 0.244156107 -0.161729067
4365210 0.228621244 -0.172382682
4388910 0.216845825 -0.177653029
4412610 0.200517311 -0.18274872
4436310 0.187640607 -0.185935184
4460010 0.171374663 -0.193373695
4483710 0.156915143 -0.194319501
4507410 0.140698671 -0.201229989
4531110 0.123181641 -0.199823215
4554810 0.114215895 -0.199643492
4578610 0.097982302 -0.20179516
4602310 0.085051566 -0.196413412
4626010 0.076955817 -0.199925884
4649710 0.062262158 -0.193649187
4673410 0.047723494 -0.187114447
4697110 0.037807121 -0.187523394
4720810 0.027370007 -0.1808905
4744510 0.017469886 -0.176719412
4768210 0.008668895 -0.167751431
4791910 0.00040267 -0.163238108
4815710 -0.007522523 -0.156612887
4839420 -0.011104525 -0.151794373
4863120 -0.019781356 -0.14397411
4886820 -0.026260523 -0.134807065
4910520 -0.030630078 -0.12761189
4934220 -0.032576464 -0.11731293
4957920 -0.036633942 -0.11220248
4981620 -0.037580512 -0.106930732
5005320 -0.041909605 -0.096030056
5029020 -0.040302533 -0.091127172
5052720 -0.04187902 -0.081122487
5076520 -0.039835374 -0.070679709
5100220 -0.039649743 -0.068849831
5123920 -0.041178029 -0.064039327
5147620 -0.040211532 -0.055083289
5171320 -0.03885553 -0.047914966
5195020 -0.032441858 -0.043618567
5218720 -0.028418401 -0.037237308
5242420 -0.026702133 -0.029326651
5266120 -0.022342283 -0.026048997
5289820 -0.017310228 -0.019778372
5313620 -0.009991019 -0.013511617
5337320 -0.005482676 -0.011549239
5361020 0.002135538 -0.006266466
5384720 0.009746736 -0.00377093
5408420 0.012571507 0.000110667
5432120 0.024068322 0.000435644
5455820 0.031441576 0.001224297
5479520 0.036390095 0.005016752
5503220 0.045927204 0.003752682
5526920 0.051252294 0.00609949
5550720 0.062463849 0.004592386
5574420 0.071319475 0.001394268
5598120 0.079055018 -0.000497096
5621820 0.085375197 -0.003745751
5645520 0.094953179 -0.003065874
5669220 0.102186091 -0.008840011
5692920 0.110528983 -0.010741142
5716620 0.119076289 -0.018563358
5740320 0.124870039 -0.021030303
5764020 0.133240565 -0.024886529
5787820 0.139840826 -0.034867729
5811520 0.147260099 -0.038143303
5835220 0.153090715 -0.042514543
5858920 0.159138277 -0.051296181
5882620 0.165956869 -0.058307826
5906320 0.171786099 -0.064661644
5930020 0.174237713 -0.073982715
5953720 0.179280802 -0.08025968
5977420 0.18484956 -0.086253099
6001120 0.185799255 -0.095055706
6024920 0.190713241 -0.101743698
6048620 0.19272457 -0.111619994
6072320 0.197388365 -0.119112722
6096020 0.19923909 -0.124472022
6119720 0.201766029 -0.13359797
6143420 0.20304203 -0.142193332
6167120 0.205970048 -0.150590121
6190820 0.205751881 -0.156802311
6214520 0.211847066 -0.164512977
6238220 0.211053267 -0.174143835
6262020 0.213174968 -0.178113609
6285720 0.213881537 -0.186347082
6309420 0.21537888 -0.19223535
6333120 0.217036947 -0.200653284
6356820 0.218419104 -0.208490684
6380520 0.220982089 -0.214483827
6404220 0.22080633 -0.221622377
6427920 0.222864449 -0.227142781
6451620 0.223246753 -0.236019179
6475320 0.224044591 -0.240661323
6499120 0.227578029 -0.247929558
6522820 0.226480737 -0.2558434
6546520 0.228330522 -0.261129558
6570220 0.229207307 -0.268448621
6593920 0.232118427 -0.275036573
6617620 0.232702523 -0.282972782
6641320 0.234303399 -0.288386702
6665020 0.237103894 -0.298001348
6688720 0.237210392 -0.304133534
6712420 0.239931762 -0.311297088
6736220 0.241468623 -0.320033013
6759920 0.244664981 -0.328947186
6783620 0.246158182 -0.337017863
6807320 0.249179288 -0.345406413
6831020 0.251079171 -0.35610786
6854720 0.253830641 -0.363722294
6878420 0.256684243 -0.375012487
6902120 0.257697612 -0.385967195
6925820 0.260101974 -0.395858883
6949520 0.261202067 -0.408182054
6973320 0.262404084 -0.420674681
6997020 0.263595223 -0.433269947
7020720 0.264150023 -0.446191638
7044420 0.264709174 -0.459129124
7068120 0.264080017 -0.47357133
7091820 0.262664169 -0.486914336
7115520 0.261775702 -0.500757157
7139220 0.258155435 -0.516096711
7162920 0.255150318 -0.529684245
7186620 0.252120226 -0.545431613
7210420 0.24713248 -0.559336662
7234130 0.243207976 -0.574148178
7257830 0.236754462 -0.589327991
7281530 0.231277957 -0.603012681
7305230 0.223744213 -0.618164241
7328930 0.216072902 -0.631636023
7352630 0.208103492 -0.64560467
7376330 0.198884531 -0.658999979
7400030 0.189487934 -0.672757089
7423730 0.179422587 -0.685530185
7447430 0.168950647 -0.698003411
7471230 0.157920852 -0.710434019
7494930 0.146454185 -0.721562981
7518630 0.134760677 -0.733226358
7542330 0.122288964 -0.744048357
7566030 0.110054455 -0.75383079
7589730 0.096953183 -0.76345539
7613430 0.083880171 -0.772043466
7637130 0.070716872 -0.780908644
7660830 0.057256314 -0.788931667
7684530 0.043698534 -0.795961737
7708330 0.03015297 -0.802885651
7732030 0.016486614 -0.809167742
7755730 0.002402984 -0.815577864
7779430 -0.011105389 -0.820465147
7803130 -0.025106582 -0.825429558
7826830 -0.038757201 -0.82995975
7850530 -0.052277877 -0.83400464
7874230 -0.066101819 -0.837304711
7897930 -0.079588778 -0.840652883
7921630 -0.092833451 -0.843324244
7945430 -0.106220327 -0.845842719
7969130 -0.119111157 -0.847712099
7992830 -0.132387101 -0.849365293
8016530 -0.145074456 -0.850964248
8040230 -0.158061027 -0.851871848
8063930 -0.170194014 -0.852343678
8087630 -0.182795733 -0.853172719
8111330 -0.194931134 -0.853204429
8135030 -0.206957936 -0.853225231
8158730 -0.218817189 -0.852723836
8182530 -0.230350926 -0.852389335
8206230 -0.241819545 -0.851682722
8229930 -0.253304928 -0.850668013
8253630 -0.264258146 -0.849444687
8277330 -0.275452643 -0.848287642
8301030 -0.286254644 -0.846838414
8324730 -0.296732485 -0.845156013
8348430 -0.307253867 -0.843402862
8372130 -0.317383646 -0.841656267
8395830 -0.327255874 -0.839412808
8419630 -0.337485074 -0.837304472
8443330 -0.346974313 -0.834903895
8467030 -0.356636077 -0.83244878
8490730 -0.366171538 -0.830169081
8514430 -0.375445067 -0.82748121
8538130 -0.384240746 -0.824869155
8561830 -0.393542885 -0.821913242
8585530 -0.402354031 -0.818939387
8609230 -0.410723209 -0.815978527
8632930 -0.419526457 -0.813099384
8656730 -0.427787661 -0.810049891
8680430 -0.436103403 -0.806819498
8704130 -0.444120377 -0.803524434
8727830 -0.452047646 -0.800213038
8751530 -0.459775894 -0.796895027
8775230 -0.467511028 -0.793416321
8798930 -0.47506532 -0.789877533
8822630 -0.482494026 -0.786490738
8846330 -0.489848583 -0.782870173
8870030 -0.496842741 -0.779628574
8893830 -0.503914535 -0.775707423
8917530 -0.510776758 -0.772024869
8941230 -0.51770699 -0.768323123
8964930 -0.524389386 -0.764718353
8988630 -0.530903935 -0.760899662
9012330 -0.537347733 -0.757020652
9036030 -0.543657302 -0.753300011
9059730 -0.550162136 -0.749429047
9083430 -0.556235611 -0.745608985
9107130 -0.562098979 -0.741568982
9130930 -0.568292975 -0.737795174
9154630 -0.574259161 -0.733793795
9178330 -0.579855918 -0.729927599
9202030 -0.585592448 -0.725958168
9225730 -0.591234624 -0.721965968
9249430 -0.596567749 -0.717934608
9273130 -0.602062284 -0.714058339
9296830 -0.607272744 -0.710037589
9320530 -0.612537562 -0.706107079
9344230 -0.61769855 -0.701929867
9368030 -0.622627198 -0.698110282
9391730 -0.6277709 -0.694008409
9415430 -0.632626101 -0.690269947
9439130 -0.637391805 -0.686030387
9462830 -0.641987621 -0.682250559
9486530 -0.646634757 -0.678153991
9510230 -0.651263117 -0.674377024
9533930 -0.655845105 -0.670196473
9557630 -0.660194158 -0.666450262
9581330 -0.66479218 -0.662304759
9605130 -0.668835341 -0.658333361
9628840 -0.672579407 -0.654862284
9652540 -0.676935136 -0.650765419
9676240 -0.681098222 -0.64688003
9699940 -0.684828162 -0.642997205
9723640 -0.689085006 -0.639324069
9747340 -0.69315803 -0.635102868
9771040 -0.696854233 -0.631293654
9794740 -0.700692415 -0.627269625
9818440 -0.704366743 -0.623525261
9842140 -0.70810467 -0.619603931
9865940 -0.711774051 -0.615619659
9889640 -0.715348005 -0.611773073
9913340 -0.718978464 -0.607943952
9937040 -0.722496688 -0.604139864
9960740 -0.725758552 -0.600260078
9984440 -0.729262471 -0.596449673
10008140 -0.732466876 -0.592573046
10031840 -0.735901534 -0.588686287
10055540 -0.738970339 -0.585147678
10079240 -0.742206692 -0.581281602
10103040 -0.745482504 -0.577447414
10126740 -0.748303771 -0.573597013
10150440 -0.751573681 -0.569897294
10174140 -0.754524469 -0.566204965
10197840 -0.757613539 -0.562470018
10221540 -0.760396957 -0.558561146
10245240 -0.763468265 -0.555101811
10268940 -0.766048014 -0.551189899
10292640 -0.768840134 -0.54744172
10316340 -0.771551549 -0.543744206
10340140 -0.774401128 -0.540034592
10363840 -0.777267754 -0.536604225
10387540 -0.779516518 -0.532708287
10411240 -0.782410264 -0.529132783
10434940 -0.784739911 -0.525273978
10458640 -0.787240207 -0.521720349
10482340 -0.789984822 -0.518065571
10506040 -0.792234063 -0.514557182
10529740 -0.794541597 -0.510975956
10553440 -0.797077834 -0.50723648
10577240 -0.79928857 -0.503686189
10600940 -0.801423668 -0.500063657
10624640 -0.803985118 -0.496408164
10648340 -0.806179881 -0.49309346
10672040 -0.808269023 -0.489482581
10695740 -0.810501039 -0.48596245
10719440 -0.812610626 -0.482320815
10743140 -0.814476072 -0.478835046
10766840 -0.816738605 -0.475331693
10790540 -0.818479716 -0.472012847
10814340 -0.820707678 -0.468418329
10838040 -0.822471022 -0.464998513
10861740 -0.82449454 -0.461375474
10885440 -0.82630372 -0.458170861
10909140 -0.828042745 -0.454509973
10932840 -0.829804182 -0.451135486
10956540 -0.831528246 -0.447909504
10980240 -0.833235681 -0.444587856
11003940 -0.834888875 -0.4410685
11027640 -0.836490452 -0.438061475
11051440 -0.83800739 -0.434622168
11075140 -0.839705765 -0.43132925
11098840 -0.841115713 -0.428311854
11122540 -0.842839717 -0.425156265
11146240 -0.844438076 -0.422077238
11169940 -0.845885455 -0.418942958
11193640 -0.847587406 -0.415741354
11217340 -0.848962068 -0.412624806
11241040 -0.850680768 -0.409498363
11264740 -0.852007329 -0.406720906
11288540 -0.853599369 -0.403580158
11312240 -0.85506159 -0.400440841
11335940 -0.856631696 -0.397622466
11359640 -0.858071386 -0.394412726
11383340 -0.859646499 -0.391471505
11407040 -0.860865414 -0.388603806
11430740 -0.862718462 -0.385647267
11454440 -0.864046216 -0.382426112
11478140 -0.865565121 -0.379653155
11501840 -0.866767346 -0.376570343
11525640 -0.86830759 -0.373738318
11549340 -0.869696199 -0.37049216
11573040 -0.871222436 -0.36768049
11596740 -0.872680306 -0.364588528
11620440 -0.873815059 -0.361715614
11644140 -0.875400483 -0.358723998
11667840 -0.876504242 -0.355721086
11691540 -0.877937972 -0.352758616
11715240 -0.879202663 -0.349916547
11738940 -0.880446612 -0.346713244
11762740 -0.881681501 -0.343849033
11786440 -0.88297224 -0.340734571
11810140 -0.884146809 -0.337935924
11833840 -0.885315299 -0.334753185
11857540 -0.886676847 -0.331837743
11881240 -0.887769281 -0.329089969
11904940 -0.888806819 -0.325965821
11928640 -0.889953196 -0.323201268
11952340 -0.890971839 -0.320233643
11976040 -0.892239451 -0.317501097
11999840 -0.89309293 -0.314403176
