# Hz S RI R 50
1000000 -0.536166429 0.665711522
1080000 -0.484788388 0.7010715
1160000 -0.427428722 0.734330117
1240000 -0.36594814 0.760374069
1320000 -0.304029941 0.784931898
1400000 -0.234690934 0.803562104
1480000 -0.161489173 0.812803983
1560000 -0.084369063 0.820140361
1640000 -0.00381507 0.81317383
1720000 0.076035827 0.7974568
1800000 0.160576462 0.770650386
1880000 0.241013213 0.722088515
1960000 0.3108415 0.661457419
2040000 0.382913053 0.585365474
2120000 0.421085089 0.487115889
2200000 0.434886246 0.373330831
2280000 0.409913033 0.285613
2360000 0.350449115 0.186513334
2440000 0.259967416 0.169984176
2520000 0.194567307 0.186252266
2600000 0.178858935 0.24200271
2680000 0.172862127 0.273237049
2760000 0.221900761 0.312906265
2840000 0.261296749 0.316284239
2920000 0.329745382 0.305832356
3000000 0.362797319 0.266995221
3080000 0.429608702 0.214924007
3160000 0.435152649 0.151163116
3240000 0.463141262 0.070582106
3320000 0.450363427 0.013114634
3400000 0.428684622 -0.075695149
3480000 0.390042841 -0.117974445
3560000 0.333528906 -0.16842629
3640000 0.294360935 -0.179025933
3720000 0.241411045 -0.190678596
3800000 0.230102434 -0.164643839
3880000 0.239837601 -0.17426832
3960000 0.265371412 -0.197331279
4040000 0.263416826 -0.259637087
4120000 0.256099969 -0.313585698
4200000 0.21794869 -0.392991513
4280000 0.166224226 -0.456904858
4360000 0.082081303 -0.509863376
4440000 -0.004303377 -0.549574315
4520000 -0.10505785 -0.563809394
4600000 -0.2075015 -0.561546981
4680000 -0.3030321 -0.533738374
4760000 -0.391352117 -0.49396798
4840000 -0.467044085 -0.438659757
4920000 -0.529502153 -0.37677133
5000000 -0.579939603 -0.309497356
5080000 -0.619083166 -0.240925967
5160000 -0.647813677 -0.170587554
5240000 -0.66656059 -0.102510079
5320000 -0.677678108 -0.036162156
5400000 -0.68199402 0.02740697
5480000 -0.680222928 0.088231533
5560000 -0.673808932 0.145392075
5640000 -0.662859201 0.199135258
5720000 -0.64884442 0.249610513
5800000 -0.631978273 0.296683311
5880000 -0.612756788 0.340689122
5960000 -0.591407299 0.381878942
6040000 -0.568264484 0.420464366
6120000 -0.543984055 0.456210285
6200000 -0.518887937 0.488954782
6280000 -0.493588656 0.519346892
6360000 -0.468381583 0.547209382
6440000 -0.442128092 0.572637081
6520000 -0.414109736 0.596276998
6600000 -0.384470492 0.617551088
6680000 -0.355042725 0.636718928
6760000 -0.325774818 0.653886377
6840000 -0.29709351 0.669630885
6920000 -0.268209874 0.683734357
7000000 -0.239743739 0.696764111
7080000 -0.211440771 0.708211839
7160000 -0.183316349 0.718564033
7240000 -0.155179083 0.727448523
7320000 -0.127289578 0.73536086
7400000 -0.099689885 0.741794943
7480000 -0.072366483 0.747434556
7560000 -0.045110121 0.751777648
7640000 -0.01819632 0.755447149
7720000 0.008296819 0.757901728
7800000 0.034474119 0.758963704
7880000 0.060392826 0.759739041
7960000 0.086235709 0.759396612
8040000 0.111520826 0.758401334
8120000 0.136502072 0.756506204
8200000 0.161230012 0.753644585
8280000 0.185389176 0.75019586
8360000 0.209469601 0.745836079
8440000 0.233085408 0.740762412
8520000 0.256456404 0.735056877
8600000 0.279388606 0.728218436
8680000 0.30159223 0.720962285
8760000 0.323834389 0.71296364
8840000 0.345371127 0.704081594
8920000 0.366722434 0.694211542
9000000 0.387050956 0.683798372
