# Hz S RI R 50
1000000 -0.718074798 0.45128113
1080000 -0.696619212 0.477827399
1160000 -0.674259245 0.50379765
1240000 -0.651319682 0.528678238
1320000 -0.627865433 0.552304089
1400000 -0.603841364 0.574767529
1480000 -0.578992903 0.596820294
1560000 -0.553421556 0.617500305
1640000 -0.527336478 0.637226343
1720000 -0.500820755 0.655940234
1800000 -0.473575353 0.674091577
1880000 -0.445312708 0.690960764
1960000 -0.41680926 0.706508994
2040000 -0.387953668 0.721060097
2120000 -0.358090043 0.735345423
2200000 -0.32799226 0.747348368
2280000 -0.296685993 0.758931517
2360000 -0.265598326 0.768739521
2440000 -0.232827529 0.777831912
2520000 -0.200481623 0.78521806
2600000 -0.166961893 0.790673673
2680000 -0.133035629 0.795499682
2760000 -0.09886676 0.798645257
2840000 -0.062913008 0.798992097
2920000 -0.027026588 0.798210084
3000000 0.009364636 0.794097721
3080000 0.045269854 0.786296665
3160000 0.081494525 0.777772128
3240000 0.117512457 0.764682769
3320000 0.149401485 0.747998118
3400000 0.181503668 0.72792685
3480000 0.20587258 0.705536901
3560000 0.23206757 0.680788815
3640000 0.243006095 0.653705954
3720000 0.261822223 0.638647675
3800000 0.27468127 0.613484084
3880000 0.278173416 0.607795655
3960000 0.298204332 0.597365319
4040000 0.307120829 0.582897067
4120000 0.330612272 0.57907474
4200000 0.355320751 0.561256229
4280000 0.379581511 0.548389673
4360000 0.40577495 0.52362585
4440000 0.42895174 0.5017668
4520000 0.455418437 0.466728925
4600000 0.462571561 0.429447948
4680000 0.483411073 0.391038507
4760000 0.49098578 0.338137596
4840000 0.478574544 0.300776988
4920000 0.474119901 0.253633171
5000000 0.443987995 0.205918103
5080000 0.413598835 0.178099825
5160000 0.372430652 0.15167278
5240000 0.332007914 0.14761278
5320000 0.289015769 0.146204143
5400000 0.251662373 0.175386846
5480000 0.237587079 0.194628998
5560000 0.222292721 0.22403194
5640000 0.232115209 0.260024011
5720000 0.245410382 0.27653113
5800000 0.263596326 0.298382759
5880000 0.294700264 0.308434218
5960000 0.323277354 0.310173958
6040000 0.357149839 0.304979801
6120000 0.38827005 0.291265428
6200000 0.42183122 0.27083218
6280000 0.450101435 0.238942921
6360000 0.47329539 0.205037966
6440000 0.49343881 0.160483106
6520000 0.501768887 0.106915675
6600000 0.501283407 0.052982795
6680000 0.491677641 -0.006994286
6760000 0.46777907 -0.068201608
6840000 0.43222779 -0.126927539
6920000 0.382167398 -0.183098405
7000000 0.317827969 -0.230952665
7080000 0.238988727 -0.266829103
7160000 0.14989002 -0.284550219
7240000 0.05536285 -0.283101946
7320000 -0.040443331 -0.258843988
7400000 -0.127985194 -0.211798027
7480000 -0.202999711 -0.147436603
7560000 -0.261580675 -0.068231046
7640000 -0.299612641 0.019274717
7720000 -0.318231612 0.108303822
7800000 -0.319438695 0.194755896
7880000 -0.306167513 0.274679332
7960000 -0.281615078 0.34692052
8040000 -0.248622015 0.409850895
8120000 -0.21012406 0.464274168
8200000 -0.16723515 0.51002115
8280000 -0.122512429 0.547862052
8360000 -0.076843485 0.578643798
8440000 -0.030979199 0.60273087
8520000 0.014110873 0.621392607
8600000 0.058074388 0.634937465
8680000 0.100715786 0.644205093
8760000 0.141729831 0.650178372
8840000 0.180840402 0.652661383
8920000 0.218667119 0.653006672
9000000 0.254439026 0.650562465
