# Hz S RI R 50
1000000 -0.688325762 0.600308179
1007900 -0.68450123 0.604573488
1015800 -0.680972814 0.608662188
1023700 -0.676812052 0.612760007
1031700 -0.673080742 0.616639733
1039600 -0.669061601 0.620272874
1047500 -0.66543436 0.624401032
1055400 -0.661268293 0.628411173
1063400 -0.657129943 0.632274508
1071300 -0.653221726 0.636101245
1079200 -0.649237275 0.639992892
1087200 -0.645013451 0.644017577
1095100 -0.640879929 0.647730052
1103000 -0.636651992 0.65138179
1110900 -0.632691562 0.655016362
1118900 -0.628439843 0.659078717
1126800 -0.624015629 0.662746787
1134700 -0.619903504 0.666497826
1142700 -0.615682303 0.670307636
1150600 -0.611481189 0.673952639
1158500 -0.606950759 0.677587747
1166400 -0.602534353 0.681286215
1174400 -0.598196506 0.684902369
1182300 -0.593740522 0.688634216
1190200 -0.589243412 0.692175328
1198200 -0.58461678 0.695778012
1206100 -0.580171108 0.699200391
1214000 -0.57564342 0.703172922
1221900 -0.570869863 0.706580519
1229900 -0.566285967 0.709891498
1237800 -0.561442434 0.713432312
1245700 -0.556749105 0.717027068
1253600 -0.551881551 0.720327913
1261600 -0.547050893 0.723352789
1269500 -0.542301058 0.726906657
1277400 -0.53752619 0.730252802
1285400 -0.532544314 0.733643829
1293300 -0.52750796 0.736644983
1301200 -0.522665083 0.739939987
1309100 -0.51769042 0.7431764
1317100 -0.51272279 0.746412336
1325000 -0.507460236 0.749550282
1332900 -0.502562701 0.752544343
1340900 -0.497440367 0.755923032
1348800 -0.492046296 0.759079813
1356700 -0.486924707 0.762016713
1364600 -0.481669992 0.764931559
1372600 -0.476347029 0.768235146
1380500 -0.470864117 0.770997464
1388400 -0.465671986 0.773797214
1396400 -0.460162431 0.776911735
1404300 -0.454611808 0.779913902
1412200 -0.449182599 0.782545924
1420100 -0.443629264 0.78527826
1428100 -0.438273191 0.788190364
1436000 -0.432454943 0.790727317
1443900 -0.42681533 0.793658792
1451800 -0.421330869 0.795924425
1459800 -0.415822118 0.798593997
1467700 -0.409911721 0.801332235
1475600 -0.404216855 0.803709149
1483600 -0.398533463 0.806171238
1491500 -0.392931163 0.808955967
1499400 -0.386970371 0.811493158
1507300 -0.38114351 0.813822925
1515300 -0.3752231 0.816170632
1523200 -0.369422614 0.818720757
1531100 -0.363165527 0.821081936
1539100 -0.356998562 0.82349193
1547000 -0.351104944 0.825600683
1554900 -0.344884961 0.827816843
1562800 -0.338563412 0.830051958
1570800 -0.332180231 0.832015812
1578700 -0.326001942 0.834073841
1586600 -0.319780111 0.836017072
1594600 -0.313489794 0.838090837
1602500 -0.306979537 0.840027391
1610400 -0.300654798 0.841729879
1618300 -0.294424831 0.843467116
1626300 -0.287940114 0.845476329
1634200 -0.281427919 0.84717077
1642100 -0.274962365 0.848742783
1650000 -0.268492549 0.850483715
1658000 -0.2619268 0.852179646
1665900 -0.255203574 0.853741884
1673800 -0.248494431 0.855444312
1681800 -0.241736516 0.856916785
1689700 -0.234666198 0.85836184
1697600 -0.227831289 0.859718739
1705500 -0.221089616 0.860987901
1713500 -0.214090988 0.862373828
1721400 -0.207165837 0.86357969
1729300 -0.199932277 0.864730954
1737300 -0.192982897 0.865777909
1745200 -0.18594855 0.866740643
1753100 -0.17853561 0.867800116
1761000 -0.171453073 0.868683636
1769000 -0.163997262 0.869383454
1776900 -0.156766891 0.870342731
1784800 -0.149376228 0.871012091
1792800 -0.141897797 0.871556282
1800728 -0.134565562 0.872108876
1808628 -0.127027884 0.872542321
1816528 -0.119362026 0.872842133
1824428 -0.111853517 0.873203217
1832428 -0.104008674 0.873534321
1840328 -0.096230812 0.873401105
1848228 -0.08863788 0.873472094
1856128 -0.080822981 0.87334454
1864128 -0.072948493 0.873329997
1872028 -0.065229527 0.873166263
1879928 -0.057195715 0.872783124
1887928 -0.049037378 0.872470676
1895828 -0.040973808 0.871730804
1903728 -0.033008504 0.871047198
1911628 -0.024910433 0.870455563
1919628 -0.016685491 0.869589805
1927528 -0.008340551 0.86888957
1935428 -0.000101533 0.867668271
1943428 0.008510199 0.866361796
1951328 0.016541533 0.865171432
1959228 0.025025181 0.863585591
1967128 0.033484455 0.861896932
1975128 0.042088665 0.860258817
1983028 0.050647206 0.858540832
1990928 0.059190124 0.856345117
1998928 0.068085938 0.854136049
2006828 0.076467923 0.851741254
2014728 0.084979355 0.849258482
2022628 0.09373372 0.846654236
2030628 0.102603495 0.843626558
2038528 0.111342616 0.840760231
2046428 0.12028855 0.837425887
2054328 0.128949061 0.833833098
2062328 0.137902766 0.830182909
2070228 0.146496564 0.826472282
2078128 0.155424296 0.822453379
2086128 0.164315432 0.818161308
2094028 0.1729393 0.813756167
2101928 0.181470632 0.809100687
2109828 0.190240457 0.804175198
2117828 0.199019402 0.798987388
2125728 0.207420036 0.793691635
2133628 0.21610774 0.787919878
2141628 0.224568396 0.782177567
2149528 0.233121961 0.776239931
2157428 0.241355672 0.769785583
2165328 0.249710112 0.763029813
2173328 0.258182436 0.756057679
2181228 0.266212791 0.748707711
2189128 0.274087071 0.741207599
2197128 0.282209873 0.733108222
2205028 0.289857774 0.725018322
2212928 0.297239452 0.716398656
2220828 0.304622203 0.707405269
2228828 0.311812222 0.698135256
2236728 0.318583697 0.688509404
2244628 0.325042098 0.678632974
2252528 0.331411182 0.668296515
2260528 0.337551832 0.657571315
2268428 0.343150466 0.646720528
2276328 0.348280489 0.635432839
2284328 0.353151142 0.62374854
2292228 0.357700496 0.611853182
2300128 0.361414223 0.599491477
2308028 0.36494264 0.586780667
2316028 0.367543101 0.573685765
2323928 0.369791328 0.560553193
2331828 0.371144562 0.547102808
2339828 0.371971726 0.533350825
2347728 0.371985167 0.519373655
2355628 0.371002614 0.505610287
2363528 0.369289934 0.491678029
2371528 0.366678655 0.477433949
2379428 0.363163471 0.463436424
2387328 0.358549386 0.449592441
2395328 0.353123635 0.435877203
2403228 0.346344858 0.422638297
2411128 0.339105218 0.409810394
2419028 0.330382317 0.397407382
2427028 0.320636719 0.385590583
2434928 0.310111135 0.374692082
2442828 0.298480629 0.364492863
2450728 0.285928964 0.355235606
2458728 0.27215299 0.346959471
2466628 0.25803411 0.340070039
2474528 0.24317719 0.334601372
2482528 0.227506667 0.330387502
2490428 0.211477234 0.327914386
2498328 0.19525735 0.326858907
2506228 0.179106622 0.327936232
2514228 0.162684947 0.330214798
2522128 0.146675691 0.334474921
2530028 0.131239458 0.340501546
2538028 0.116324663 0.348112493
2545928 0.102428987 0.357372045
2553828 0.089766904 0.36813575
2561728 0.078086979 0.380076646
2569728 0.0678173 0.393563747
2577628 0.059140697 0.407897979
2585528 0.052017711 0.42295596
2593528 0.046604167 0.438918799
2601456 0.042836129 0.454978913
2609356 0.040830928 0.471750557
2617256 0.040412344 0.48816207
2625156 0.041693389 0.504597783
2633156 0.04456482 0.520824611
2641056 0.048650495 0.536624848
2648956 0.054472051 0.551749765
2656856 0.06114922 0.566034495
2664856 0.069270461 0.580112338
2672756 0.078288376 0.593087494
2680656 0.088241539 0.60521841
2688656 0.099017813 0.616474926
2696556 0.110331609 0.626695573
2704456 0.122172482 0.636316955
2712356 0.134717047 0.644893467
2720356 0.147813439 0.65236473
2728256 0.160693168 0.659177422
2736156 0.174211874 0.664928257
2744156 0.188023015 0.670141339
2752056 0.201659679 0.674314379
2759956 0.215305745 0.678064048
2767856 0.228911757 0.680763602
2775856 0.242946103 0.682975172
2783756 0.256651937 0.684488773
2791656 0.270219296 0.685551702
2799656 0.283908426 0.685965716
2807556 0.297576755 0.685660243
2815456 0.310778349 0.684974849
2823356 0.324049621 0.68389362
2831356 0.337281584 0.682253003
2839256 0.350238919 0.680117309
2847156 0.363387972 0.677733361
2855056 0.37599647 0.674786984
2863056 0.388861 0.671597301
2870956 0.40138331 0.667882978
2878856 0.413492858 0.663956522
2886856 0.426045924 0.659238278
2894756 0.43795529 0.654494643
2902656 0.449931114 0.649344205
2910556 0.46157962 0.643691062
2918556 0.47322601 0.63777399
2926456 0.484602391 0.631688892
2934356 0.49554345 0.625155687
2942356 0.506606876 0.618193268
2950256 0.517407536 0.611224412
2958156 0.527572214 0.603918373
2966056 0.53787589 0.596236646
2974056 0.547943294 0.588353335
2981956 0.557430505 0.580617368
2989856 0.566915094 0.572211921
2997856 0.576237261 0.563725829
3005756 0.585232138 0.555264055
3013656 0.594089567 0.546494483
3021556 0.602481186 0.537779033
3029556 0.611118078 0.528748631
3037456 0.61954081 0.519939541
3045356 0.627551674 0.510939896
3053256 0.63566327 0.501538634
3061256 0.643822193 0.49211198
3069156 0.651735365 0.482591181
3077056 0.659530818 0.472750216
3085056 0.667484581 0.462625652
3092956 0.674993336 0.45235297
3100856 0.682428658 0.441808491
3108756 0.689827382 0.431015998
3116756 0.697248697 0.419613003
3124656 0.704155802 0.408332616
3132556 0.710932075 0.396787047
3140556 0.717711567 0.384659379
3148456 0.723959982 0.37230885
3156356 0.729829549 0.359772294
3164256 0.735476076 0.347072839
3172256 0.741034209 0.333890676
3180156 0.746169805 0.320626169
3188056 0.750701487 0.307306826
3196056 0.755152702 0.293453842
3203956 0.759236454 0.279586553
3211856 0.762895345 0.265474915
3219756 0.765904128 0.251190781
3227756 0.768736422 0.236707791
3235656 0.771010875 0.222483381
3243556 0.773130416 0.207699641
3251456 0.774462342 0.192832112
3259456 0.775487542 0.178081691
3267356 0.776124894 0.163401827
3275256 0.776211202 0.148459464
3283256 0.775606632 0.13350673
3291156 0.774810552 0.118819773
3299056 0.773510098 0.10414116
3306956 0.771603643 0.089449368
3314956 0.769165396 0.07525701
3322856 0.76622194 0.061403375
3330756 0.76305443 0.047705404
3338756 0.759517192 0.034193813
3346656 0.755797266 0.021506777
3354556 0.752034544 0.009014462
3362456 0.748495638 -0.003172037
3370456 0.744930505 -0.01503484
3378356 0.74146384 -0.026906274
3386256 0.738383829 -0.038831382
3394256 0.7356081 -0.051447704
3402184 0.732281565 -0.063908971
3410084 0.729135632 -0.076844893
3417984 0.725756645 -0.090286739
3425884 0.721942245 -0.104013741
3433884 0.717225134 -0.118102997
3441784 0.712527751 -0.13218072
3449684 0.706941485 -0.146402508
3457584 0.700913548 -0.160976499
3465584 0.693865597 -0.175361514
3473484 0.686364531 -0.189638763
3481384 0.678440213 -0.203571289
3489384 0.669587731 -0.217793658
3497284 0.660536825 -0.231281623
3505184 0.650893986 -0.245061904
3513084 0.640466451 -0.258225828
3521084 0.629828572 -0.271271556
3528984 0.618585646 -0.283834189
3536884 0.60685867 -0.296105951
3544884 0.594814777 -0.308405697
3552784 0.582303822 -0.320316255
3560684 0.568927526 -0.33170399
3568584 0.555594742 -0.342881202
3576584 0.541145622 -0.35378468
3584484 0.526459991 -0.364070445
3592384 0.511130452 -0.373957484
3600384 0.495287895 -0.383546203
3608284 0.478997319 -0.392391085
3616184 0.462360858 -0.400713026
3624084 0.445080667 -0.408241599
3632084 0.427463173 -0.41534844
3639984 0.409188568 -0.421473354
3647884 0.390626341 -0.426782548
3655784 0.371865004 -0.431859135
3663784 0.352622687 -0.435713708
3671684 0.333352565 -0.438902348
3679584 0.313758224 -0.441100269
3687584 0.293718755 -0.442457437
3695484 0.273846447 -0.442931652
3703384 0.253977954 -0.442346394
3711284 0.234113693 -0.440984666
3719284 0.213826611 -0.438738793
3727184 0.193968683 -0.435357242
3735084 0.174300968 -0.431524068
3743084 0.154365897 -0.426147609
3750984 0.134932607 -0.420082658
3758884 0.115849316 -0.413068443
3766784 0.097188346 -0.404944539
3774784 0.078542731 -0.395979136
3782684 0.060609921 -0.386014997
3790584 0.043048404 -0.375293225
3798584 0.026040436 -0.363699883
3806484 0.009693757 -0.351069986
3814384 -0.005973276 -0.337832897
3822284 -0.02100579 -0.32370606
3830284 -0.035247031 -0.308716952
3838184 -0.048773299 -0.293127119
3846084 -0.061218626 -0.276764273
3853984 -0.072971343 -0.259794026
3861984 -0.083719633 -0.242158859
3869884 -0.093259736 -0.223926216
3877784 -0.102078907 -0.205563142
3885784 -0.109852828 -0.186470896
3893684 -0.116155862 -0.16709353
3901584 -0.12169189 -0.147459015
3909484 -0.126044929 -0.128042966
3917484 -0.129151657 -0.107706949
3925384 -0.13127698 -0.087975233
3933284 -0.132145717 -0.068198963
3941284 -0.132010012 -0.048111334
3949184 -0.130983561 -0.028647998
3957084 -0.128551587 -0.009206575
3964984 -0.125149682 0.009833839
3972984 -0.120773769 0.02881601
3980884 -0.115445166 0.04707263
3988784 -0.109306789 0.064876765
3996784 -0.1021161 0.082590863
4004684 -0.094141341 0.0995346
4012584 -0.085336491 0.115704931
4020484 -0.0756815 0.131498947
4028484 -0.065309233 0.146576032
4036384 -0.054105151 0.161011815
4044284 -0.042547259 0.174551695
4052184 -0.03021619 0.187344759
4060184 -0.017206512 0.199593454
4068084 -0.003907209 0.211057201
4075984 0.009903738 0.221524834
4083984 0.024119326 0.23131822
4091884 0.038686159 0.240432187
4099784 0.053462125 0.248537212
4107684 0.06854707 0.255727559
4115684 0.084053225 0.262556225
4123584 0.099331073 0.267908871
4131484 0.114807315 0.272747129
4139484 0.130681991 0.27693054
4147384 0.14618878 0.280210286
4155284 0.16197969 0.282701641
4163184 0.177612617 0.28452
4171184 0.193192899 0.285579025
4179084 0.208573251 0.285867124
4186984 0.223660513 0.285123616
4194984 0.238935708 0.283966124
4202912 0.253664135 0.282061815
4210812 0.268089592 0.279612809
4218712 0.282261967 0.276434063
4226612 0.296201139 0.272802054
4234612 0.309927046 0.268523126
4242512 0.323045611 0.263816565
4250412 0.335726112 0.258615434
4258312 0.348001897 0.252750605
4266312 0.360127508 0.246631428
4274212 0.371731728 0.24011296
4282112 0.382533431 0.233226388
4290112 0.393488854 0.225676223
4298012 0.403569459 0.218156546
4305912 0.413327127 0.210403099
4313812 0.422528117 0.202426448
4321812 0.431412637 0.194216907
4329712 0.439919501 0.185848817
4337612 0.447632551 0.177238896
4345612 0.455108731 0.168534606
4353512 0.462154537 0.159625649
4361412 0.468640595 0.150879412
4369312 0.474746048 0.142021402
4377312 0.480515152 0.133028984
4385212 0.48581773 0.124365165
4393112 0.490532457 0.115615501
4401112 0.495297014 0.106737576
4409012 0.499370902 0.098261296
4416912 0.503318667 0.089786499
4424812 0.506645441 0.081718079
4432812 0.510005712 0.073429271
4440712 0.513213694 0.065731838
4448612 0.516092896 0.057906813
4456512 0.519066691 0.050414446
4464512 0.521652102 0.042982168
4472412 0.524264335 0.035941407
4480312 0.526654839 0.029016463
4488312 0.529353618 0.022282244
4496212 0.531628906 0.015726888
4504112 0.534426748 0.009049894
4512012 0.536981463 0.002776504
4520012 0.53996402 -0.003803007
4527912 0.542567968 -0.010151167
4535812 0.545470416 -0.01629848
4543812 0.548546433 -0.022796964
4551712 0.551704287 -0.029296705
4559612 0.554793357 -0.036073468
4567512 0.558314979 -0.042897216
4575512 0.561563253 -0.049955502
4583412 0.564886152 -0.057029902
4591312 0.568098723 -0.064560838
4599312 0.57124722 -0.072265416
4607212 0.574356853 -0.080210335
4615112 0.577363073 -0.088139407
4623012 0.57995212 -0.096534766
4631012 0.582673132 -0.105316534
4638912 0.584689259 -0.113908283
4646812 0.586711943 -0.122806727
4654712 0.588267862 -0.13153322
4662712 0.58994311 -0.140504971
4670612 0.590952336 -0.149608656
4678512 0.592023074 -0.158415451
4686512 0.592563331 -0.167691245
4694412 0.593002915 -0.176452279
4702312 0.592991232 -0.185314446
4710212 0.593087553 -0.193964436
4718212 0.592874765 -0.202807754
4726112 0.592540383 -0.211411982
4734012 0.591892719 -0.219948336
4742012 0.591386198 -0.228575438
4749912 0.590305745 -0.236706942
4757812 0.58926475 -0.244693651
4765712 0.588173806 -0.252836227
4773712 0.587252795 -0.260811567
4781612 0.586078286 -0.268523097
4789512 0.585003852 -0.276089519
4797512 0.583808779 -0.283881992
4805412 0.582682073 -0.291529506
4813312 0.581616222 -0.299096971
4821212 0.58042699 -0.306357443
4829212 0.579350769 -0.313830316
4837112 0.578377366 -0.32171595
4845012 0.577441692 -0.329302012
4852912 0.576537728 -0.337086319
4860912 0.575623035 -0.344874262
4868812 0.574739813 -0.352989554
4876712 0.573571622 -0.361191749
4884712 0.572364151 -0.369651496
4892612 0.57115662 -0.378390669
4900512 0.569750607 -0.387284487
4908412 0.567836403 -0.396187245
4916412 0.565799891 -0.405166238
4924312 0.563545763 -0.414117217
4932212 0.561085462 -0.423301517
4940212 0.558324277 -0.432589679
4948112 0.555278837 -0.44196847
4956012 0.551841497 -0.451322108
4963912 0.548100888 -0.460528761
4971912 0.544204235 -0.469604253
4979812 0.539791047 -0.47849977
4987712 0.535421192 -0.487478703
4995712 0.530733942 -0.496657043
5003640 0.525394022 -0.505287408
5011540 0.520196437 -0.514059245
5019440 0.514771163 -0.522346794
5027340 0.509246945 -0.530660629
5035340 0.503258407 -0.539066076
5043240 0.496978014 -0.547030806
5051140 0.490853369 -0.554781198
5059040 0.484472006 -0.56235224
5067040 0.477664768 -0.569867908
5074940 0.470881134 -0.577100932
5082840 0.463786572 -0.584204375
5090840 0.456433892 -0.591085076
5098740 0.449178963 -0.597376286
5106640 0.441824793 -0.603643119
5114540 0.434399694 -0.609764277
5122540 0.426309823 -0.615782618
5130440 0.418731153 -0.621121048
5138340 0.410896003 -0.626297831
5146340 0.402731239 -0.631458461
5154240 0.394787967 -0.635880589
5162140 0.387100368 -0.640262067
5170040 0.379118859 -0.644818663
5178040 0.370912849 -0.648511648
5185940 0.363116145 -0.651803135
5193840 0.355500876 -0.654991328
5201840 0.347887217 -0.657808542
5209740 0.34033069 -0.660635411
5217640 0.333001375 -0.663037836
5225540 0.325749725 -0.665378808
5233540 0.31875652 -0.667376995
5241440 0.312060207 -0.669299066
5249340 0.305340558 -0.671150743
5257240 0.299070447 -0.672873854
5265240 0.292504668 -0.674601614
5273140 0.286731272 -0.676191449
5281040 0.280700325 -0.677683174
5289040 0.274943619 -0.679225385
5296940 0.269569873 -0.680961608
5304840 0.2640374 -0.68244028
5312740 0.258669227 -0.683812618
5320740 0.253662616 -0.685228586
5328640 0.248845204 -0.686609089
5336540 0.24403949 -0.688164055
5344540 0.239561885 -0.689870119
5352440 0.235085874 -0.691523492
5360340 0.230741441 -0.69337362
5368240 0.226749017 -0.695465981
5376240 0.222357079 -0.697378396
5384140 0.218272864 -0.699782729
5392040 0.214253589 -0.702542901
5400040 0.210481494 -0.705071628
5407940 0.206337615 -0.708229303
5415840 0.20205982 -0.711397826
5423740 0.197664394 -0.714562892
5431740 0.193177357 -0.718095839
5439640 0.188485339 -0.721623897
5447540 0.183567166 -0.725110769
5455440 0.17827624 -0.728836059
5463440 0.172839522 -0.732620954
5471340 0.167454615 -0.736131846
5479240 0.161576211 -0.739478111
5487240 0.155499085 -0.743035674
5495140 0.149451136 -0.746195673
5503040 0.14320825 -0.749428808
5510940 0.136716455 -0.752170324
5518940 0.130262613 -0.755108475
5526840 0.123784534 -0.757650971
5534740 0.117161035 -0.760505497
5542740 0.110387928 -0.762699127
5550640 0.103640727 -0.764960169
5558540 0.096973128 -0.767114579
5566440 0.09029255 -0.76871699
5574440 0.083459764 -0.770538985
5582340 0.076839298 -0.77232176
5590240 0.070336021 -0.773839056
5598240 0.063619859 -0.774959862
5606140 0.057263296 -0.776380836
5614040 0.050710223 -0.777702331
5621940 0.044412322 -0.77889198
5629940 0.038190647 -0.779948711
5637840 0.031955029 -0.781118452
5645740 0.025694625 -0.782058119
5653640 0.019408229 -0.783096015
5661640 0.013213176 -0.784154176
5669540 0.00697988 -0.784973859
5677440 0.000771552 -0.786162316
5685440 -0.00549966 -0.787164688
5693340 -0.011742849 -0.788048028
5701240 -0.017885241 -0.78895694
5709140 -0.024047901 -0.789829969
5717140 -0.03022872 -0.790714442
5725040 -0.036732494 -0.791498064
5732940 -0.042899433 -0.79243648
5740940 -0.049360416 -0.793133616
5748840 -0.055745173 -0.793993413
5756740 -0.062063414 -0.794421672
5764640 -0.068421944 -0.795107722
5772640 -0.075081437 -0.795939803
5780540 -0.081667579 -0.796407699
5788440 -0.088182657 -0.796881675
5796440 -0.09471257 -0.797276377
5804368 -0.101274572 -0.79730463
5812268 -0.108137518 -0.797533392
5820168 -0.114628493 -0.797927737
5828068 -0.121204167 -0.797748684
5836068 -0.127983942 -0.797740399
5843968 -0.134726867 -0.797605037
5851868 -0.141514077 -0.797536432
5859768 -0.148259162 -0.797180533
5867768 -0.154994651 -0.796675741
