# Hz S RI R 50
1000000 0.124151669 -0.925529122
1180000 -0.054200273 -0.920445144
1360000 -0.203830599 -0.884368777
1540000 -0.33296895 -0.840376496
1720000 -0.441366225 -0.780018031
1900000 -0.527809023 -0.717255175
2080000 -0.601644933 -0.647713482
2260000 -0.655450046 -0.581059813
2440000 -0.70784074 -0.51340568
2620000 -0.746890127 -0.442718654
2800000 -0.777820885 -0.383635461
2980000 -0.800920367 -0.32246524
3160000 -0.815636456 -0.266323864
3340000 -0.831020832 -0.208102822
3520000 -0.835039734 -0.154896005
3700000 -0.843855977 -0.102859459
3880000 -0.845075428 -0.047971092
4060000 -0.845347285 -0.005454143
4240000 -0.841150939 0.042462654
4420000 -0.83210057 0.081965535
4600000 -0.824345469 0.126675054
4780000 -0.808601617 0.161387264
4960000 -0.799280643 0.200692698
5140000 -0.780757367 0.238000646
5320000 -0.769439458 0.266686379
5500000 -0.751682937 0.298982024
5680000 -0.737139105 0.323839426
5860000 -0.720074534 0.353934288
6040000 -0.703948378 0.375829279
6220000 -0.689681887 0.404167413
6400000 -0.673612534 0.426162034
6580000 -0.65789318 0.451720505
6760000 -0.63435626 0.476495355
6940000 -0.614499866 0.500827252
7120000 -0.58932507 0.525273263
7300000 -0.565718472 0.546087741
7480000 -0.538307905 0.569272637
7660000 -0.507878601 0.587895572
7840000 -0.475129872 0.606938838
8020000 -0.437661141 0.621525347
8200000 -0.397117525 0.633449494
8380000 -0.349818438 0.638700664
8560000 -0.299910664 0.633537888
8740000 -0.246382936 0.617659747
8920000 -0.193474307 0.583058655
9100000 -0.148779436 0.527943789
9280000 -0.126834288 0.447081327
9460000 -0.145271137 0.357627123
9640000 -0.211457327 0.280817419
9820000 -0.31206867 0.249892547
10000000 -0.411994487 0.271959066
10180000 -0.484614402 0.336146712
10360000 -0.518436968 0.413405537
10540000 -0.523591458 0.485500723
10720000 -0.511811733 0.546360373
10900000 -0.491728603 0.59662503
11080000 -0.466577351 0.637438476
11260000 -0.439396113 0.671462416
11440000 -0.41110596 0.699823379
11620000 -0.382682532 0.724067032
11800000 -0.354174613 0.744104385
11980000 -0.326197564 0.761373758
12160000 -0.298479974 0.77613914
12340000 -0.271275192 0.789013743
12520000 -0.244370341 0.799883067
12700000 -0.218130275 0.808997154
12880000 -0.192349568 0.817027449
13060000 -0.166852414 0.823558926
13240000 -0.142113074 0.828825473
13420000 -0.118227839 0.832937836
13600000 -0.095212228 0.836336374
13780000 -0.072697363 0.839283466
13960000 -0.050459317 0.842327892
14140000 -0.028560109 0.845347583
14320000 -0.006154531 0.848007678
14500000 0.016317412 0.85009396
14680000 0.039504323 0.851382493
14860000 0.062587209 0.852024197
15040000 0.085035562 0.851589202
15220000 0.108167752 0.850586771
15400000 0.130642354 0.848860621
15580000 0.153348445 0.846222639
15760000 0.175583198 0.842552661
15940000 0.197562441 0.838406622
16120000 0.219733983 0.833569526
16300000 0.241029828 0.827961623
16480000 0.262249499 0.821296334
16660000 0.282386362 0.814029157
16840000 0.301873832 0.806132256
17020000 0.320621222 0.798420667
17200000 0.339290469 0.790078997
17380000 0.357785493 0.781421065
17560000 0.375279277 0.771858751
17740000 0.392540931 0.76207453
17920000 0.408423095 0.751308679
18100000 0.422656089 0.741223216
18280000 0.435584068 0.732002079
18460000 0.448604583 0.725470244
18640000 0.463833242 0.719616711
18820000 0.480882734 0.713260889
19000000 0.498762965 0.704890429
