# Hz S RI R 50
50000 -0.958018064 0.009964853
67700 -0.959099888 0.015664087
85500 -0.958534836 0.020136944
103200 -0.95794177 0.024714425
121000 -0.957550585 0.028924325
138700 -0.957273602 0.03320343
156500 -0.956712186 0.037390109
174200 -0.956398844 0.041395217
192000 -0.956172227 0.045273307
209800 -0.955650031 0.049194332
227500 -0.955318689 0.053383652
245300 -0.954827606 0.057309277
263000 -0.95437467 0.061344671
280800 -0.953963041 0.065235733
298500 -0.953472375 0.069179512
316300 -0.952922105 0.073172263
334100 -0.952366292 0.076949246
351800 -0.951897919 0.081004336
369600 -0.951436102 0.08509124
387300 -0.950855731 0.088891945
405100 -0.950253546 0.092799559
422800 -0.949656128 0.096741378
440600 -0.948992609 0.100908264
458400 -0.948175966 0.10481441
476100 -0.947579503 0.108862541
493900 -0.947195351 0.113013178
511600 -0.946434974 0.116842262
529400 -0.945807814 0.120880775
547100 -0.94512248 0.125012308
564900 -0.94451642 0.12896578
582700 -0.943822801 0.132918417
600400 -0.942955136 0.136894404
618200 -0.942152678 0.141084939
635900 -0.941182971 0.145019516
653700 -0.940357863 0.149234116
671400 -0.939457833 0.15332365
689200 -0.938670396 0.157680854
707000 -0.93762046 0.161793559
724700 -0.936710596 0.165741086
742500 -0.935678124 0.169939905
760200 -0.934782266 0.174296572
778000 -0.933957636 0.178298979
795700 -0.932904303 0.182525739
813500 -0.931857526 0.186799049
831300 -0.930583894 0.190889388
849000 -0.92947638 0.195238664
866800 -0.928260266 0.199438288
884500 -0.926854491 0.203668862
902300 -0.925591886 0.207962289
920000 -0.924461603 0.212364897
937800 -0.922988057 0.21689561
955600 -0.921562194 0.221217617
973300 -0.920202255 0.225749731
991100 -0.918767154 0.230230882
1008800 -0.917107999 0.234574735
1026600 -0.915566742 0.239083737
1044300 -0.914051711 0.24349755
1062100 -0.912542462 0.248096421
1079900 -0.910832822 0.2524921
1097600 -0.909030318 0.257002502
1115400 -0.907384514 0.261759877
1133100 -0.905589103 0.266103863
1150900 -0.903617084 0.270772963
1168600 -0.901677727 0.275562494
1186400 -0.899934113 0.28043121
1204200 -0.89800775 0.285112231
1221900 -0.896105825 0.289787411
1239700 -0.893788397 0.29465726
1257400 -0.891562223 0.299341768
1275200 -0.889525353 0.304255545
1292900 -0.887242496 0.30918473
1310700 -0.885170817 0.314146399
1328500 -0.882735311 0.319003343
1346200 -0.880210697 0.324153244
1364000 -0.877917289 0.329030185
1381700 -0.875153064 0.333966612
1399500 -0.872466087 0.339107155
1417200 -0.869514644 0.344390988
1435000 -0.866890132 0.349624544
1452800 -0.864152669 0.354951918
1470500 -0.861128926 0.360069662
1488300 -0.858380377 0.365309238
1506000 -0.855046629 0.370660215
1523800 -0.852064251 0.376154959
1541500 -0.849182367 0.381504476
1559300 -0.845726311 0.386650174
1577100 -0.842103481 0.392040103
1594800 -0.838240683 0.397793561
1612600 -0.834747314 0.403494596
1630300 -0.83119589 0.409049034
1648100 -0.827525019 0.414503425
1665800 -0.823457539 0.41988179
1683600 -0.819334864 0.425769507
1701400 -0.815327346 0.431568562
1719100 -0.811006426 0.437230974
1736900 -0.806738197 0.442929118
1754600 -0.801865041 0.448319375
1772400 -0.79733473 0.454452246
1790100 -0.793046653 0.460319817
1807900 -0.788279891 0.466314822
1825700 -0.783413469 0.471932888
1843457 -0.777720093 0.477843791
1861157 -0.772808313 0.484302043
1878957 -0.767475187 0.490424811
1896657 -0.762210071 0.496273905
1914457 -0.756189763 0.502496242
1932157 -0.74998033 0.508462131
1949957 -0.743860423 0.515273988
1967657 -0.737715065 0.521443545
1985457 -0.731307625 0.527572512
2003257 -0.724415361 0.533425092
2020957 -0.716526746 0.539626777
2038757 -0.709419906 0.546888887
2056457 -0.702755033 0.553008556
2074257 -0.695387005 0.558617711
2091957 -0.687151432 0.564045488
2109757 -0.677740395 0.570888936
2127557 -0.67001599 0.578205466
2145257 -0.662320673 0.583649337
2163057 -0.653804659 0.589090228
2180757 -0.643887817 0.59394598
2198557 -0.633438408 0.600967586
2216257 -0.624103009 0.60787779
2234057 -0.615253567 0.613855719
2251857 -0.605924606 0.618614494
2269557 -0.593625366 0.623060166
2287357 -0.581448614 0.629751205
2305057 -0.570666551 0.637067914
2322857 -0.561368227 0.642898797
2340557 -0.549718379 0.645287036
2358357 -0.535046577 0.650723993
2376157 -0.521239876 0.6571334
2393857 -0.509262859 0.664699137
2411657 -0.498849809 0.667987883
2429357 -0.483100771 0.669602751
2447157 -0.467709392 0.674490809
2464857 -0.450277924 0.679196596
2482657 -0.436355471 0.687091112
2500457 -0.425419896 0.688786804
2518157 -0.406850963 0.688440859
2535957 -0.389193892 0.691404938
2553657 -0.368767589 0.695136189
2571457 -0.354035556 0.701594054
2589157 -0.338579773 0.69860965
2606957 -0.318051576 0.699048042
2624757 -0.29720813 0.697293102
2642457 -0.274027645 0.701464414
2660257 -0.260075986 0.702228367
2677957 -0.237887829 0.695798099
2695757 -0.217612594 0.693666517
2713457 -0.191347062 0.686807453
2731257 -0.168538823 0.690471827
2749057 -0.153064653 0.681187868
2766757 -0.126364916 0.673819363
2784557 -0.106457524 0.664347887
2802257 -0.075302846 0.65315026
2820057 -0.056460428 0.651271045
2837757 -0.035822995 0.631629109
2855557 -0.008816552 0.621345818
2873357 0.008645409 0.602829813
2891057 0.040854781 0.5867967
2908857 0.054771568 0.574035763
2926557 0.078708201 0.546402513
2944357 0.100511714 0.531588912
2962057 0.117348559 0.501372396
2979857 0.142517507 0.482950538
2997657 0.149046421 0.455265581
3015357 0.172694191 0.421429365
3033157 0.183543786 0.399382114
3050857 0.197646349 0.361569583
3068657 0.205378666 0.340685278
3086357 0.207403928 0.296497404
3104157 0.220927804 0.26653558
3121957 0.218551531 0.232022583
3139657 0.223583251 0.202915534
3157457 0.209625408 0.170070603
3175157 0.205955684 0.130560547
3192957 0.199709475 0.098657719
3210657 0.192724525 0.070012874
3228457 0.175310656 0.048518523
3246257 0.153847798 0.015419752
3263957 0.138408079 -0.008828248
3281757 0.11456608 -0.039159279
3299457 0.110076047 -0.055991362
3317257 0.07261876 -0.0622138
3334957 0.052352521 -0.089690215
3352757 0.024057026 -0.092103585
3370557 -0.000600718 -0.119546674
3388257 -0.007478885 -0.113039642
3406057 -0.044762052 -0.116196729
3423757 -0.054283779 -0.123086795
3441557 -0.083898678 -0.115331061
3459257 -0.102326363 -0.134037286
3477057 -0.112216234 -0.124126337
3494857 -0.136492013 -0.126886904
3512557 -0.144347801 -0.119492724
3530357 -0.173420131 -0.110600233
3548057 -0.182760134 -0.113447457
3565857 -0.205464407 -0.104729302
3583557 -0.207499012 -0.105776883
3601357 -0.222385987 -0.083601735
3619157 -0.239421233 -0.079470649
3636914 -0.263228178 -0.05419318
3654614 -0.268944084 -0.075206622
3672414 -0.260482758 -0.049900531
3690114 -0.267911344 -0.038999259
3707914 -0.272938638 -0.004773452
3725614 -0.303615897 -0.004556652
3743414 -0.285394251 -0.002556892
3761114 -0.285067647 0.018416868
3778914 -0.278449803 0.042649619
3796714 -0.292291104 0.069293111
3814414 -0.303986757 0.067079447
3832214 -0.283686041 0.072400711
3849914 -0.26879543 0.094139479
3867714 -0.255250126 0.120695002
3885414 -0.253317713 0.148587867
3903214 -0.257980972 0.150710955
3921014 -0.2289339 0.155827865
3938714 -0.205915302 0.173437118
3956514 -0.179802238 0.19669564
3974214 -0.179552957 0.210286319
3992014 -0.149398118 0.201192498
4009714 -0.122757248 0.214017987
4027514 -0.094875156 0.206878378
4045314 -0.053860865 0.221259713
4063014 -0.046880502 0.226199105
4080814 -0.017638267 0.20542021
4098514 0.010525765 0.207632243
4116314 0.033610399 0.179119899
4134014 0.07837814 0.183229207
4151814 0.085978999 0.165059864
4169614 0.118436992 0.154860705
4187314 0.125073343 0.124607853
4205114 0.167206868 0.101876474
4222814 0.17980878 0.087729044
4240614 0.202576532 0.061533536
4258314 0.212766647 0.046102575
4276114 0.219440877 0.005004261
4293914 0.246438458 -0.022509915
4311614 0.253698617 -0.046381901
4329414 0.268447875 -0.076484374
4347114 0.265490919 -0.097820751
4364914 0.272853583 -0.141594916
4382614 0.279856652 -0.167561516
4400414 0.283150136 -0.197890207
4418214 0.279368698 -0.220585808
4435914 0.272939801 -0.258458226
4453714 0.27383688 -0.286938756
4471414 0.26830241 -0.314546793
4489214 0.263162076 -0.33997634
4506914 0.248269915 -0.36706689
4524714 0.241476714 -0.399369299
4542514 0.233114242 -0.421687066
4560214 0.219279468 -0.447057902
4578014 0.205107912 -0.467534154
4595714 0.187984421 -0.49718365
4613514 0.17882727 -0.517003238
4631214 0.160420939 -0.535279572
4649014 0.141502141 -0.552777945
4666814 0.120719246 -0.578217267
4684514 0.109661415 -0.596819221
4702314 0.091877631 -0.608640968
4720014 0.071576029 -0.621809303
4737814 0.046088118 -0.635882139
4755514 0.026749022 -0.656003236
4773314 0.012798273 -0.668339967
4791114 -0.005490592 -0.67518866
4808814 -0.027529627 -0.681166648
4826614 -0.053315285 -0.691960871
4844314 -0.070962913 -0.706491291
4862114 -0.085361264 -0.711770117
4879814 -0.10475371 -0.712320327
4897614 -0.130368724 -0.717502772
4915414 -0.149115234 -0.728225231
4933114 -0.162869617 -0.732301414
4950914 -0.178956806 -0.731765389
4968614 -0.199883073 -0.730098903
4986414 -0.222115367 -0.733971953
5004114 -0.237827673 -0.73985821
5021914 -0.250994235 -0.740751922
5039714 -0.265158653 -0.737163305
5057414 -0.285033285 -0.733967065
5075214 -0.302933156 -0.737712919
5092914 -0.314593225 -0.738300919
5110714 -0.326724976 -0.735278367
5128414 -0.34290871 -0.72982645
5146214 -0.359863638 -0.730445623
5164014 -0.371644705 -0.730198025
5181714 -0.382475584 -0.727940917
5199514 -0.393966257 -0.723521471
5217214 -0.408234834 -0.7189731
5235014 -0.421871423 -0.71821022
5252714 -0.432154446 -0.716573774
5270514 -0.442138016 -0.713205456
5288314 -0.452889323 -0.707999885
5306014 -0.465835273 -0.705180704
5323814 -0.47546035 -0.703746318
5341514 -0.483998477 -0.700551152
5359314 -0.494173437 -0.695287108
5377014 -0.505901992 -0.692193388
5394814 -0.515331804 -0.689903199
5412614 -0.523607611 -0.686955213
5430371 -0.534485042 -0.682413876
5448071 -0.542745113 -0.679633855
5465871 -0.550867557 -0.675745427
5483571 -0.558783173 -0.670783162
5501371 -0.56858313 -0.666261494
5519071 -0.577239274 -0.663279712
5536871 -0.584618091 -0.659742593
5554571 -0.591689944 -0.655376851
5572371 -0.599430441 -0.650281429
5590171 -0.607833385 -0.646463692
5607871 -0.6148777 -0.642861187
5625671 -0.621335089 -0.638661324
5643371 -0.628017067 -0.633639931
5661171 -0.635887801 -0.629460692
5678871 -0.64203006 -0.625516891
5696671 -0.648172855 -0.621556699
5714471 -0.653920948 -0.616814613
5732171 -0.660880625 -0.6121369
5749971 -0.666885614 -0.608115434
5767671 -0.672591388 -0.603980422
5785471 -0.677453339 -0.599786162
5803171 -0.683454811 -0.594811499
5820971 -0.688962042 -0.590976595
5838771 -0.69420737 -0.586584508
5856471 -0.699177205 -0.582651793
5874271 -0.70391345 -0.578081369
5891971 -0.70929563 -0.573919713
5909771 -0.713949203 -0.569784283
5927471 -0.71867758 -0.565770626
5945271 -0.722706198 -0.561431288
5963071 -0.727538764 -0.557036697
5980771 -0.731845915 -0.553393959
5998571 -0.736264944 -0.549033403
6016271 -0.740048527 -0.545121908
6034071 -0.744541525 -0.540767729
6051771 -0.748417615 -0.536953568
6069571 -0.752472937 -0.532898366
6087371 -0.756117343 -0.528828263
6105071 -0.759901702 -0.52479881
6122871 -0.76368761 -0.521065533
6140571 -0.767377853 -0.517137587
6158371 -0.770988047 -0.513418197
6176071 -0.77433139 -0.509619772
6193871 -0.777880191 -0.505990564
6211671 -0.781188428 -0.502385377
6229371 -0.784645497 -0.498963415
6247171 -0.787654995 -0.495426982
6264871 -0.791107773 -0.492030441
6282671 -0.794105231 -0.488968342
6300371 -0.797023952 -0.485647678
6318171 -0.799975454 -0.482408255
6335971 -0.803267717 -0.479305326
6353671 -0.805995166 -0.476487904
6371471 -0.808713674 -0.473493486
6389171 -0.811359107 -0.470694631
6406971 -0.814149677 -0.467422276
6424671 -0.816956996 -0.46454361
6442471 -0.819282531 -0.461666524
6460271 -0.82195723 -0.458519339
6477971 -0.824457526 -0.455047756
6495771 -0.827008903 -0.451855331
6513471 -0.829259693 -0.448843717
6531271 -0.831860423 -0.44494614
6548971 -0.834133267 -0.441476851
6566771 -0.836231946 -0.438211917
6584571 -0.838381707 -0.434641331
6602271 -0.840230345 -0.430981993
6620071 -0.842145025 -0.427439421
6637771 -0.844236731 -0.423920124
6655571 -0.846040427 -0.420702368
6673271 -0.847661912 -0.417022049
6691071 -0.849489927 -0.413707017
6708871 -0.851220548 -0.410317331
6726571 -0.852935016 -0.407221108
6744371 -0.854661226 -0.404005199
6762071 -0.856237471 -0.40054804
6779871 -0.857907354 -0.39762628
6797571 -0.859478294 -0.394450634
6815371 -0.861131787 -0.391545593
6833171 -0.86260426 -0.38832423
6850871 -0.864158689 -0.38555628
6868671 -0.865854263 -0.382299751
6886371 -0.867218554 -0.379579365
6904171 -0.868652582 -0.376554191
6921871 -0.870289027 -0.373733609
6939671 -0.871378183 -0.37083745
6957471 -0.872822463 -0.368340522
6975171 -0.874165236 -0.365225672
6992971 -0.875650286 -0.362600505
7010671 -0.876895785 -0.359799772
7028471 -0.878298044 -0.357107162
7046171 -0.879338324 -0.354429543
7063971 -0.880791127 -0.35182169
7081771 -0.881996333 -0.349063575
7099471 -0.883476495 -0.346440225
7117271 -0.884575843 -0.343949496
7134971 -0.885737419 -0.341487735
7152771 -0.886988401 -0.338741272
7170471 -0.888166964 -0.336316674
7188271 -0.889143466 -0.333725005
7206071 -0.890361249 -0.331311762
7223828 -0.891389489 -0.32877025
7241528 -0.892649888 -0.326228231
7259328 -0.893990278 -0.323848664
7277028 -0.894799411 -0.321570694
7294828 -0.895948946 -0.319069355
7312528 -0.896906793 -0.31677103
7330328 -0.897922992 -0.314440995
7348028 -0.898971557 -0.312018692
7365828 -0.899823367 -0.309531807
7383628 -0.900832951 -0.307083457
7401328 -0.901996374 -0.305005639
7419128 -0.902645051 -0.302662432
7436828 -0.903714954 -0.300238132
7454628 -0.904509305 -0.298164486
7472328 -0.905568718 -0.295684337
7490128 -0.906465709 -0.293670028
7507928 -0.907355904 -0.291269063
7525628 -0.908193826 -0.289081156
7543428 -0.908964633 -0.286802351
7561128 -0.909781932 -0.284612596
7578928 -0.910628199 -0.282634168
7596628 -0.911467015 -0.280463963
7614428 -0.912325143 -0.278316825
7632228 -0.913064658 -0.276222616
7649928 -0.913644313 -0.274051457
7667728 -0.914628088 -0.271834194
7685428 -0.915258169 -0.269903331
7703228 -0.915950775 -0.267746597
7720928 -0.916784405 -0.265482425
7738728 -0.917584002 -0.263574242
7756528 -0.918143153 -0.26156634
7774228 -0.918822526 -0.259516507
7792028 -0.919635236 -0.257543087
7809728 -0.920257985 -0.255481898
7827528 -0.92072004 -0.253446668
7845228 -0.921676158 -0.251380413
7863028 -0.922053933 -0.249466538
7880828 -0.922591388 -0.247393354
7898528 -0.923365831 -0.245545178
7916328 -0.92392677 -0.243687808
7934028 -0.924505114 -0.241598129
7951828 -0.925036907 -0.239892691
7969528 -0.925735235 -0.237772122
7987328 -0.926359891 -0.235938102
8005128 -0.926836371 -0.234204024
8022828 -0.92737627 -0.232149496
8040628 -0.928174257 -0.230332434
8058328 -0.928520083 -0.228456124
8076128 -0.929202377 -0.226457938
8093828 -0.929530024 -0.224872946
8111628 -0.930155277 -0.223005786
8129428 -0.93078649 -0.221139967
8147128 -0.931063532 -0.219385236
8164928 -0.931683003 -0.217428117
8182628 -0.932358145 -0.215615466
8200428 -0.932606399 -0.213901296
8218128 -0.933271586 -0.212014794
8235928 -0.933761358 -0.21033585
8253728 -0.933994412 -0.208549574
8271428 -0.934577286 -0.206921458
8289228 -0.934924125 -0.204999119
8306928 -0.935547411 -0.203301042
8324728 -0.935796618 -0.201691657
8342428 -0.936318993 -0.199993297
8360228 -0.936739444 -0.198148682
8378028 -0.937365889 -0.196434453
8395728 -0.937383294 -0.19477491
8413528 -0.937907457 -0.193036243
8431228 -0.938513278 -0.19127427
8449028 -0.938774526 -0.190055072
8466728 -0.939085662 -0.188217416
8484528 -0.939728915 -0.186415836
8502328 -0.939945876 -0.184951573
8520028 -0.9403041 -0.183084174
8537828 -0.940869212 -0.181600153
8555528 -0.941191434 -0.179995611
8573328 -0.941228747 -0.178397312
8591028 -0.941893577 -0.176539346
8608828 -0.9419986 -0.175192043
8626628 -0.942487776 -0.173564359
8644328 -0.942751407 -0.172072827
8662128 -0.943168699 -0.170354336
8679828 -0.94344753 -0.169066935
8697628 -0.943930089 -0.167405724
8715328 -0.94403094 -0.165850639
8733128 -0.944469571 -0.164159476
8750928 -0.944785475 -0.162627846
8768628 -0.94500178 -0.161196157
8786428 -0.945377707 -0.159511998
8804128 -0.945744156 -0.158180296
8821928 -0.945930838 -0.156658172
8839628 -0.946372807 -0.15520507
8857428 -0.946518361 -0.153701245
8875228 -0.946930229 -0.152275681
8892928 -0.947153627 -0.150711297
8910728 -0.947518289 -0.149262964
8928428 -0.947827696 -0.147921711
8946228 -0.948141634 -0.146379232
8963928 -0.948493301 -0.144785955
8981728 -0.948638319 -0.14347139
8999528 -0.949019372 -0.141883671
