# Hz S RI R 50
50000 -0.956558287 0.021440207
67700 -0.954837679 0.029984937
85500 -0.954319775 0.038617063
103200 -0.953537225 0.046900615
121000 -0.952786624 0.055061642
138700 -0.952211499 0.063250988
156500 -0.951419413 0.071255154
174200 -0.950445055 0.079220667
192000 -0.949370205 0.086894974
209800 -0.948428988 0.094802305
227500 -0.947067618 0.10256958
245300 -0.946117997 0.110456153
263000 -0.945037066 0.117946587
280800 -0.943690478 0.125841423
298500 -0.942276775 0.13359791
316300 -0.940930306 0.141058832
334100 -0.939544022 0.148769706
351800 -0.938266634 0.156299352
369600 -0.936656832 0.163980528
387300 -0.935021281 0.17175953
405100 -0.933309137 0.179075479
422800 -0.93157649 0.186774238
440600 -0.929995119 0.194329351
458400 -0.928013026 0.2019082
476100 -0.926181197 0.209675759
493900 -0.924046158 0.217238515
511600 -0.921789765 0.224462494
529400 -0.919402897 0.232204377
547100 -0.917064666 0.239507481
564900 -0.914500892 0.246875345
582700 -0.912214934 0.253831475
600400 -0.909984648 0.260799497
618200 -0.907882571 0.268523752
635900 -0.905462741 0.2758511
653700 -0.902984559 0.282962888
671400 -0.900506615 0.290397107
689200 -0.897951126 0.297830939
707000 -0.895255029 0.305206865
724700 -0.892302453 0.312765866
742500 -0.889483988 0.31983304
760200 -0.886460363 0.327294617
778000 -0.883530378 0.334569692
795700 -0.880508661 0.34173122
813500 -0.87708199 0.349209189
831300 -0.873554229 0.356507569
849000 -0.8701815 0.363598436
866800 -0.866422355 0.37071821
884500 -0.862727642 0.377695709
902300 -0.858902394 0.38454777
920000 -0.855261385 0.390502244
937800 -0.852127313 0.397364258
955600 -0.849064111 0.404445528
973300 -0.845580875 0.411451339
991100 -0.841939508 0.41868624
1008800 -0.838301777 0.425856143
1026600 -0.834436953 0.433040022
1044300 -0.830372273 0.440092772
1062100 -0.826135277 0.447120249
1079900 -0.822013258 0.454229354
1097600 -0.817683458 0.461012423
1115400 -0.813365876 0.467947572
1133100 -0.808885872 0.474922925
1150900 -0.804217219 0.481672823
1168600 -0.79949367 0.488476961
1186400 -0.794678807 0.495457381
1204200 -0.789691388 0.50215727
1221900 -0.784443199 0.508311212
1239700 -0.779434382 0.513958156
1257400 -0.775111317 0.519770801
1275200 -0.771003365 0.526348769
1292900 -0.766733467 0.532962381
1310700 -0.761825859 0.539934933
1328500 -0.756804347 0.546640098
1346200 -0.751553416 0.553412675
1364000 -0.746445596 0.559982299
1381700 -0.740773499 0.566707074
1399500 -0.735309123 0.573246777
1417200 -0.72961378 0.579981446
1435000 -0.723932743 0.586237907
1452800 -0.717899382 0.59264487
1470500 -0.712004601 0.599063515
1488300 -0.705403208 0.604995667
1506000 -0.699270009 0.610607028
1523800 -0.693518042 0.615947544
1541500 -0.68793106 0.622013449
1559300 -0.68193823 0.627909123
1577100 -0.676051199 0.633984386
1594800 -0.670046925 0.640326559
1612600 -0.663892447 0.646470546
1630300 -0.6573264 0.652559459
1648100 -0.650641441 0.658907413
1665800 -0.643866956 0.664656579
1683600 -0.637090146 0.670697152
1701400 -0.630216181 0.676481068
1719100 -0.622909247 0.682235777
1736900 -0.615586459 0.687841236
1754600 -0.608416259 0.693304121
1772400 -0.601040422 0.698600947
1790100 -0.593824565 0.703721523
1807900 -0.586559236 0.708846986
1825700 -0.579502582 0.714307785
1843457 -0.572036743 0.719556629
1861157 -0.56440711 0.725275814
1878957 -0.556902289 0.730285584
1896657 -0.549266934 0.735555231
1914457 -0.541310787 0.740968644
1932157 -0.532943248 0.745947062
1949957 -0.525136411 0.751190364
1967657 -0.516830563 0.756456971
1985457 -0.508621573 0.76128143
2003257 -0.499825686 0.766169607
2020957 -0.491046786 0.770782828
2038757 -0.482356429 0.775377988
2056457 -0.473615348 0.779901862
2074257 -0.464889287 0.784532964
2091957 -0.456112593 0.789078772
2109757 -0.44716984 0.7937572
2127557 -0.438322901 0.798147499
2145257 -0.428940504 0.802280604
2163057 -0.419561117 0.806745052
2180757 -0.409877061 0.811054468
2198557 -0.399823069 0.814864218
2216257 -0.390044301 0.818702459
2234057 -0.379746705 0.822776854
2251857 -0.36977753 0.826228022
2269557 -0.359282493 0.829692363
2287357 -0.348813533 0.833279609
2305057 -0.338495254 0.836578488
2322857 -0.327784657 0.840055167
2340557 -0.317017883 0.842923283
2358357 -0.306014239 0.845662236
2376157 -0.294887542 0.848600566
2393857 -0.28378275 0.851504325
2411657 -0.272376894 0.854100048
2429357 -0.260853528 0.856312394
2447157 -0.249350234 0.858796179
2464857 -0.23779039 0.860863983
2482657 -0.22540456 0.862654268
2500457 -0.213169023 0.864532709
2518157 -0.200995519 0.865937829
2535957 -0.188771158 0.867344558
2553657 -0.176090463 0.868595361
2571457 -0.163468077 0.869308471
2589157 -0.150547966 0.870047688
2606957 -0.137650907 0.870622694
2624757 -0.124536998 0.870989203
2642457 -0.11128062 0.870828688
2660257 -0.097913227 0.870593011
2677957 -0.084393106 0.870220601
2695757 -0.07056792 0.86966294
2713457 -0.056708689 0.868620336
2731257 -0.042368926 0.866938471
2749057 -0.028278335 0.865122079
2766757 -0.013967937 0.863118827
2784557 0.000421936 0.860751569
2802257 0.01507843 0.85804212
2820057 0.029512943 0.854855835
2837757 0.043975755 0.851508975
2855557 0.059172049 0.84750998
2873357 0.074300691 0.843257963
2891057 0.089240491 0.838436067
2908857 0.104504361 0.833179295
2926557 0.119607485 0.827655613
2944357 0.135006457 0.821097195
2962057 0.150219917 0.813970148
2979857 0.165445804 0.806690156
2997657 0.180485069 0.798951923
3015357 0.195817843 0.790554046
3033157 0.210872322 0.781309783
3050857 0.225738495 0.771615326
3068657 0.240671053 0.761515438
3086357 0.255696058 0.750552833
3104157 0.270576268 0.738692522
3121957 0.284874796 0.725834548
3139657 0.298429161 0.712697923
3157457 0.312387734 0.698939502
3175157 0.325548827 0.683839976
3192957 0.338226795 0.668313801
3210657 0.349671095 0.652316153
3228457 0.361408412 0.635840535
3246257 0.372618824 0.618140995
3263957 0.382552057 0.599508404
3281757 0.391346722 0.580778896
3299457 0.400171548 0.56192857
3317257 0.40819326 0.541789352
3334957 0.415014892 0.52067995
3352757 0.419662863 0.499178498
3370557 0.423631101 0.478056252
3388257 0.426890283 0.456558585
3406057 0.428235024 0.433999925
3423757 0.42826882 0.412117421
3441557 0.426906377 0.390627533
3459257 0.425248295 0.369032979
3477057 0.422019064 0.346651941
3494857 0.416173279 0.324699044
3512557 0.409251511 0.304231464
3530357 0.401428878 0.28348264
3548057 0.391862332 0.263229042
3565857 0.379561841 0.244366049
3583557 0.365994215 0.22807157
3601357 0.35270968 0.213442116
3619157 0.339347213 0.198862954
3636914 0.324180245 0.186124563
3654614 0.308454245 0.174895316
3672414 0.293079704 0.165257468
3690114 0.277168393 0.156516179
3707914 0.259816557 0.149314686
3725614 0.242486193 0.144643098
3743414 0.226253926 0.14232169
3761114 0.210913851 0.140438586
3778914 0.195072293 0.139835759
3796714 0.179638281 0.141629502
3814414 0.166219055 0.145021766
3832214 0.154337421 0.14829263
3849914 0.142265126 0.152182623
3867714 0.130512014 0.157792836
3885414 0.120549015 0.164692506
3903214 0.112516164 0.171559587
3921014 0.104534208 0.178703516
3938714 0.097012482 0.187140867
3956514 0.09188129 0.19665724
3974214 0.088748432 0.205787464
3992014 0.086444541 0.214331001
4009714 0.084967195 0.223056107
4027514 0.08499138 0.232017025
4045314 0.086705021 0.240012481
4063014 0.088572829 0.246648773
4080814 0.090364173 0.253312706
4098514 0.093036919 0.260445982
4116314 0.097329288 0.267334967
4134014 0.101606696 0.273162782
4151814 0.106708958 0.27907586
4169614 0.112966395 0.284629076
4187314 0.12038917 0.289357572
4205114 0.128301426 0.292490512
4222814 0.136406004 0.294802844
4240614 0.144392281 0.296560198
4258314 0.152722522 0.297377467
4276114 0.161302387 0.297423154
4293914 0.169395655 0.296749174
4311614 0.177323073 0.295939445
4329414 0.185888856 0.294870316
4347114 0.194725006 0.292853385
4364914 0.203512832 0.290147572
4382614 0.212397456 0.286756724
4400414 0.22092621 0.28250429
4418214 0.229717195 0.277428984
4435914 0.237826362 0.271659433
4453714 0.245264053 0.265179991
4471414 0.252323925 0.258791685
4489214 0.259102344 0.25198692
4506914 0.265752941 0.245083466
4524714 0.272204488 0.237520769
4542514 0.278743654 0.2299892
4560214 0.284967541 0.221795216
4578014 0.291383266 0.212721303
4595714 0.296639353 0.203067928
4613514 0.301335811 0.19313842
4631214 0.30556485 0.183031141
4649014 0.309521079 0.172686174
4666814 0.312658429 0.162176057
4684514 0.315223217 0.15182878
4702314 0.317905217 0.14121586
4720014 0.320308357 0.130547523
4737814 0.322383493 0.119520291
4755514 0.323905676 0.108313798
4773314 0.325130224 0.096866987
4791114 0.32577756 0.085221685
4808814 0.325923442 0.073098137
4826614 0.325346529 0.060916893
4844314 0.324371516 0.048948407
4862114 0.322734981 0.036703851
4879814 0.320761561 0.024635056
4897614 0.31787014 0.012492023
4915414 0.314434647 0.000367798
4933114 0.310739338 -0.011623068
4950914 0.306399673 -0.023516651
4968614 0.301349371 -0.035276349
4986414 0.295476317 -0.046883776
5004114 0.289290249 -0.057963378
5021914 0.282509028 -0.069149062
5039714 0.275086879 -0.079758226
5057414 0.267330288 -0.08972276
5075214 0.259035348 -0.0995934
5092914 0.250562191 -0.108825296
5110714 0.241679176 -0.11805506
5128414 0.232199877 -0.126708194
5146214 0.222562983 -0.134868443
5164014 0.212380379 -0.142625078
5181714 0.202095791 -0.149967297
5199514 0.191563591 -0.156782075
5217214 0.180446311 -0.163082465
5235014 0.169246003 -0.168898388
5252714 0.157662078 -0.174096196
5270514 0.145981103 -0.179020598
5288314 0.134014084 -0.183139428
5306014 0.121949248 -0.186677485
5323814 0.109641388 -0.189703077
5341514 0.097347356 -0.192080706
5359314 0.08484824 -0.193839877
5377014 0.072296112 -0.194912537
5394814 0.060055159 -0.195605576
5412614 0.047530453 -0.19521518
5430371 0.035245645 -0.194516658
5448071 0.023053687 -0.193140372
5465871 0.010775325 -0.191650331
5483571 -0.000997313 -0.189005196
5501371 -0.012837358 -0.186139568
5519071 -0.024791928 -0.182399839
5536871 -0.036178119 -0.177947863
5554571 -0.047307297 -0.172990217
5572371 -0.058142021 -0.167319327
5590171 -0.068421967 -0.161250576
5607871 -0.078388974 -0.154732108
5625671 -0.088011421 -0.147779092
5643371 -0.097308039 -0.140483945
5661171 -0.106221139 -0.132603317
5678871 -0.114725477 -0.123934723
5696671 -0.123031862 -0.115004993
5714471 -0.130768269 -0.105662457
5732171 -0.13781996 -0.095603249
5749971 -0.144202068 -0.084771946
5767671 -0.149781703 -0.07399778
5785471 -0.154707357 -0.062853962
5803171 -0.159218981 -0.051540795
5820971 -0.163109764 -0.039740383
5838771 -0.166445642 -0.027565898
5856471 -0.168724358 -0.015468107
5874271 -0.17045477 -0.002603667
5891971 -0.171438381 0.010070956
5909771 -0.17142409 0.023187534
5927471 -0.170729786 0.036310311
5945271 -0.169090494 0.049459788
5963071 -0.166577666 0.063127703
5980771 -0.163135752 0.076332084
5998571 -0.158656314 0.089735239
6016271 -0.153412967 0.102768629
6034071 -0.146933257 0.11573106
6051771 -0.1398018 0.128900468
6069571 -0.131028145 0.141339391
6087371 -0.121482647 0.153126806
6105071 -0.110642589 0.164950042
6122871 -0.099119409 0.175765588
6140571 -0.08666937 0.1858377
6158371 -0.07298468 0.195154771
6176071 -0.058831389 0.20360887
6193871 -0.043619267 0.211309641
6211671 -0.027631144 0.217692166
6229371 -0.011272855 0.223360046
6247171 0.005924148 0.227541446
6264871 0.023284055 0.230878442
6282671 0.04129916 0.232884734
6300371 0.059394035 0.233459115
6318171 0.07807786 0.232948571
6335971 0.096526727 0.230997636
6353671 0.114957131 0.22795917
6371471 0.133498266 0.223622828
6389171 0.151611506 0.218053385
6406971 0.16976726 0.211533278
6424671 0.187580034 0.203879401
6442471 0.205139577 0.194794923
6460271 0.222399979 0.184817388
6477971 0.239049643 0.173674851
6495771 0.255118638 0.161373406
6513471 0.270875871 0.148029133
6531271 0.285941332 0.133489027
6548971 0.300375938 0.118301533
6566771 0.314201146 0.101581625
6584571 0.327120751 0.084177777
6602271 0.339023858 0.065646596
6620071 0.350045382 0.046118419
6637771 0.3595739 0.025797447
6655571 0.367927581 0.00499777
6673271 0.375403314 -0.016248209
6691071 0.381272077 -0.038217715
6708871 0.385906338 -0.060210339
6726571 0.389820605 -0.082434065
6744371 0.392411321 -0.104693681
6762071 0.393825292 -0.127330556
6779871 0.394445717 -0.150203779
6797571 0.393856793 -0.173027247
6815371 0.392126113 -0.196284532
6833171 0.388993412 -0.219218283
6850871 0.384669512 -0.242288589
6868671 0.379108607 -0.265187352
6886371 0.372359961 -0.287546575
6904171 0.364410072 -0.309473305
6921871 0.355506628 -0.331140398
6939671 0.345484375 -0.352355778
6957471 0.334476888 -0.3732239
6975171 0.322038531 -0.393249034
6992971 0.308686554 -0.412710785
7010671 0.294367045 -0.430870056
7028471 0.279496699 -0.448508083
7046171 0.26404196 -0.464751452
7063971 0.247663497 -0.480312168
7081771 0.23124592 -0.494885623
7099471 0.214845985 -0.50873357
7117271 0.197681531 -0.521840333
7134971 0.17995119 -0.534258484
7152771 0.162360295 -0.546154081
7170471 0.144160479 -0.557071626
7188271 0.125732377 -0.567069888
7206071 0.106808543 -0.576481342
7223828 0.087901547 -0.585065245
7241528 0.068666659 -0.592725872
7259328 0.049264755 -0.599537909
7277028 0.029887469 -0.605718612
7294828 0.010307513 -0.610672771
7312528 -0.008964295 -0.61478126
7330328 -0.028174551 -0.618628621
7348028 -0.047083668 -0.621214926
7365828 -0.066137887 -0.623393893
7383628 -0.084421426 -0.624645888
7401328 -0.102870203 -0.625554084
7419128 -0.12108656 -0.625791251
7436828 -0.139006271 -0.625272154
7454628 -0.156631559 -0.624913692
7472328 -0.173874586 -0.623750686
7490128 -0.191238626 -0.621992409
7507928 -0.207958817 -0.619955599
7525628 -0.224521547 -0.617296934
7543428 -0.240975737 -0.61418122
7561128 -0.257061392 -0.610546946
7578928 -0.272838443 -0.606534361
7596628 -0.288230359 -0.6020087
7614428 -0.303239077 -0.59761101
7632228 -0.317822337 -0.592556476
7649928 -0.332405686 -0.587225973
7667728 -0.346395283 -0.581837594
7685428 -0.360028445 -0.576195955
7703228 -0.373382836 -0.570031225
7720928 -0.386516273 -0.563768386
7738728 -0.399399846 -0.557092666
7756528 -0.41193521 -0.550290763
7774228 -0.423958152 -0.543461799
7792028 -0.435729473 -0.536108314
7809728 -0.4469994 -0.528739631
7827528 -0.457834541 -0.521243929
7845228 -0.468254446 -0.513899922
7863028 -0.478553205 -0.506744563
7880828 -0.488659948 -0.499396145
7898528 -0.498574763 -0.492094725
7916328 -0.5085361 -0.484776586
7934028 -0.518152952 -0.47713527
7951828 -0.527875483 -0.469600379
7969528 -0.537226021 -0.461390405
7987328 -0.546263098 -0.453208386
8005128 -0.555207252 -0.444641441
8022828 -0.563793778 -0.436358213
8040628 -0.571662545 -0.427612334
8058328 -0.579174518 -0.419113814
8076128 -0.586718857 -0.410643249
8093828 -0.593726277 -0.402237445
8111628 -0.600768685 -0.393975734
8129428 -0.607605874 -0.385703325
8147128 -0.614302039 -0.377641439
8164928 -0.621022105 -0.369560778
8182628 -0.627594709 -0.361427426
8200428 -0.633960366 -0.352954179
8218128 -0.640336334 -0.34454447
8235928 -0.646563589 -0.335884302
8253728 -0.652329564 -0.326901584
8271428 -0.657817065 -0.318175941
8289228 -0.662986576 -0.309478312
8306928 -0.667903184 -0.300629913
8324728 -0.672457575 -0.292155027
8342428 -0.677229225 -0.283750385
8360228 -0.681616485 -0.275550335
8378028 -0.686282277 -0.267174452
8395728 -0.690450429 -0.258923739
8413528 -0.69483143 -0.250252515
8431228 -0.698722898 -0.241937965
8449028 -0.703055262 -0.233305051
8466728 -0.706749141 -0.224609449
8484528 -0.710197329 -0.216023087
8502328 -0.713540256 -0.20753239
8520028 -0.716611325 -0.198989704
8537828 -0.719317495 -0.190337091
8555528 -0.721987068 -0.182397276
8573328 -0.724540948 -0.17412284
8591028 -0.726864874 -0.166022583
8608828 -0.729353189 -0.157889261
8626628 -0.731902122 -0.150017559
8644328 -0.734118163 -0.141976118
8662128 -0.736122786 -0.133879184
8679828 -0.73817408 -0.125823169
8697628 -0.739926338 -0.117515034
8715328 -0.741739869 -0.109563916
8733128 -0.742664098 -0.101699307
8750928 -0.743789911 -0.093851216
8768628 -0.744801402 -0.086361318
8786428 -0.74571675 -0.078597463
8804128 -0.746541023 -0.07112427
8821928 -0.747151911 -0.063842087
8839628 -0.747799038 -0.056552879
8857428 -0.748405039 -0.04954306
8875228 -0.748902082 -0.042472809
8892928 -0.749066889 -0.035611733
8910728 -0.749400377 -0.02885903
8928428 -0.7496441 -0.022256821
8946228 -0.749845385 -0.015903552
8963928 -0.750263512 -0.009762948
8981728 -0.750327408 -0.00351053
8999528 -0.750446915 0.002508705
