# Hz S RI R 50
50000 0.994209766 -0.032099194
139500 0.989640355 -0.09205126
229000 0.972352027 -0.139759674
318500 0.968460679 -0.190862983
408000 0.955730736 -0.24145542
497500 0.940217852 -0.292065173
587000 0.920628249 -0.338951766
676500 0.899511098 -0.386554747
766000 0.87479937 -0.430849105
855500 0.848632276 -0.471226483
945000 0.822739064 -0.512364029
1034500 0.792856574 -0.551169395
1124000 0.761783003 -0.587306022
1213500 0.728703975 -0.621555984
1303000 0.694795429 -0.652532696
1392500 0.66029632 -0.681973278
1482000 0.625652313 -0.709579646
1571500 0.587816715 -0.73578
1661000 0.549610674 -0.757757246
1750500 0.512534201 -0.776427865
1840000 0.476075619 -0.794868946
1929500 0.438414961 -0.811527788
2019000 0.400248795 -0.825922667
2108500 0.362144172 -0.837844848
2198000 0.324828416 -0.847336351
2287500 0.288127064 -0.855009078
2377000 0.251729279 -0.8618083
2466500 0.214927285 -0.867340862
2556000 0.17833203 -0.870256066
2645500 0.143177464 -0.870990872
2735000 0.109200224 -0.870751678
2824500 0.074990801 -0.87005037
2914000 0.041281208 -0.866751909
3003500 0.008442786 -0.862410247
3093000 -0.023815143 -0.857111334
3182500 -0.055534929 -0.849994063
3272000 -0.086029939 -0.841759145
3361500 -0.116073533 -0.832010984
3451000 -0.145447939 -0.820842802
3540500 -0.17296867 -0.808282852
3630000 -0.199685752 -0.795018911
3719500 -0.225331932 -0.780670583
3809000 -0.249846771 -0.765360236
3898500 -0.273391038 -0.749395012
3988000 -0.295731902 -0.732158422
4077500 -0.317248851 -0.7139678
4167000 -0.336883932 -0.694115638
4256500 -0.355706244 -0.674274146
4346000 -0.372702062 -0.653134226
4435500 -0.387565732 -0.630517542
4525000 -0.401469975 -0.60836327
4614500 -0.413438022 -0.585215449
4704000 -0.423174858 -0.560955762
4793500 -0.430950641 -0.536824584
4883000 -0.436288297 -0.51326996
4972500 -0.440946698 -0.489001333
5062000 -0.442404359 -0.463945209
5151500 -0.440249592 -0.439688324
5241000 -0.436431884 -0.417657583
5330500 -0.431451946 -0.396236836
5420000 -0.423750936 -0.375190585
5509500 -0.413445413 -0.355676501
5599000 -0.402030378 -0.338238984
5688500 -0.3890208 -0.323373347
5778000 -0.374267637 -0.309993267
5867500 -0.358119279 -0.299216806
5957000 -0.341065973 -0.291631847
6046500 -0.323770374 -0.286555528
6136000 -0.306254267 -0.283627837
6225500 -0.288731873 -0.284312665
6315000 -0.27251622 -0.289132237
6404500 -0.257266879 -0.295121639
6494000 -0.242356106 -0.30166471
6583500 -0.228769004 -0.309298217
6673000 -0.216339394 -0.318613767
6762500 -0.204447329 -0.329662442
6852000 -0.193996369 -0.343253582
6941500 -0.185815766 -0.358615338
7031000 -0.178300514 -0.375670522
7120500 -0.1734941 -0.395661622
7210000 -0.172444477 -0.415636062
7299500 -0.172862514 -0.436033904
7389000 -0.176990166 -0.458181321
7478500 -0.184836015 -0.478229641
7568000 -0.194144204 -0.497540146
7657500 -0.206819623 -0.516028404
7747000 -0.22146137 -0.532271444
7836500 -0.236896321 -0.547553956
7926000 -0.254442095 -0.561357915
8015500 -0.273048728 -0.572657763
8105000 -0.292214781 -0.582617461
8194500 -0.312307357 -0.591090321
8284000 -0.332619905 -0.597167134
8373500 -0.353085249 -0.602036595
8463000 -0.373917579 -0.604757428
8552500 -0.393850684 -0.605837106
8642000 -0.413566499 -0.60593909
8731500 -0.433420121 -0.60453099
8821000 -0.452321559 -0.601819932
8910500 -0.470929741 -0.598448991
9000000 -0.488455891 -0.593702256
