# Hz S RI R 50
50000 0.992886364 -0.047963492
139500 0.914109826 -0.054963722
229000 0.969618678 -0.1299773
318500 0.960428178 -0.223949953
408000 0.938804686 -0.227880731
497500 0.934226453 -0.31581214
587000 0.894609034 -0.383121669
676500 0.865386307 -0.400602787
766000 0.852614462 -0.476588487
855500 0.800831079 -0.509524285
945000 0.787320315 -0.559631109
1034500 0.734167993 -0.608779072
1124000 0.701906025 -0.639253199
1213500 0.654886543 -0.688074469
1303000 0.607954025 -0.713532984
1392500 0.557146191 -0.745925903
1482000 0.51236391 -0.766106903
1571500 0.461913615 -0.788290798
1661000 0.412737727 -0.805664956
1750500 0.369914054 -0.826095581
1840000 0.308094322 -0.845385909
1929500 0.248713836 -0.853846728
2019000 0.193808555 -0.857239484
2108500 0.131200939 -0.858253419
2198000 0.070746116 -0.848810136
2287500 0.009000054 -0.839142143
2377000 -0.054492134 -0.81782633
2466500 -0.119069382 -0.784229218
2556000 -0.171452224 -0.741513609
2645500 -0.22228448 -0.689828395
2735000 -0.267679274 -0.615520477
2824500 -0.292627871 -0.526761472
2914000 -0.270592331 -0.437335848
3003500 -0.210260018 -0.369599699
3093000 -0.142917394 -0.348524898
3182500 -0.098431326 -0.356614649
3272000 -0.065769739 -0.370752483
3361500 -0.048109259 -0.400212109
3451000 -0.053439192 -0.427931994
3540500 -0.061970211 -0.437085479
3630000 -0.070441648 -0.433863073
3719500 -0.074325174 -0.436707347
3809000 -0.075240366 -0.444740355
3898500 -0.080167546 -0.447431683
3988000 -0.086746543 -0.450603336
4077500 -0.092861868 -0.455223262
4167000 -0.099159166 -0.455567121
4256500 -0.109395667 -0.452699214
4346000 -0.114319115 -0.449716031
4435500 -0.112655363 -0.44495064
4525000 -0.109073549 -0.438287347
4614500 -0.09822753 -0.432364493
4704000 -0.07239636 -0.43553397
4793500 -0.040605768 -0.455998152
4883000 -0.016096379 -0.499871522
4972500 -0.008665756 -0.559773743
5062000 -0.025852825 -0.626298487
5151500 -0.069018319 -0.687263071
5241000 -0.128751024 -0.729810178
5330500 -0.192038044 -0.752518415
5420000 -0.253038555 -0.761870741
5509500 -0.311480164 -0.762703955
5599000 -0.365183919 -0.755774199
5688500 -0.415230244 -0.744121193
5778000 -0.461622565 -0.728073
5867500 -0.504218578 -0.709170639
5957000 -0.543741166 -0.687398493
6046500 -0.58007574 -0.664078295
6136000 -0.613610684 -0.639770567
6225500 -0.64507389 -0.614827394
6315000 -0.673551023 -0.590370655
6404500 -0.699741482 -0.565030097
6494000 -0.72360742 -0.537521004
6583500 -0.745485186 -0.507447719
6673000 -0.764400899 -0.477196991
6762500 -0.781524717 -0.447605431
6852000 -0.796999633 -0.418300479
6941500 -0.810992121 -0.389655411
7031000 -0.824000239 -0.361563414
7120500 -0.835961103 -0.333743363
7210000 -0.846893548 -0.305507212
7299500 -0.856587469 -0.277781069
7389000 -0.864979445 -0.250084906
7478500 -0.87261337 -0.222582578
7568000 -0.879321038 -0.195309668
7657500 -0.884942114 -0.167890399
7747000 -0.889166295 -0.140918225
7836500 -0.8928653 -0.114003099
7926000 -0.895280122 -0.087822668
8015500 -0.897232294 -0.061878144
8105000 -0.898346602 -0.036068592
8194500 -0.898891448 -0.010835703
8284000 -0.898292005 0.014281294
8373500 -0.897583782 0.039231982
8463000 -0.895577609 0.063311986
8552500 -0.893122434 0.087065212
8642000 -0.890290617 0.110362
8731500 -0.887268245 0.133641853
8821000 -0.883627235 0.156726032
8910500 -0.879410862 0.17988564
9000000 -0.87434858 0.202206835
