# Hz S RI R 50
50000 0.996177971 -0.044894739
169500 0.971221387 -0.155935719
289000 0.930304884 -0.207362189
408500 0.878870785 -0.254204481
528000 0.922537088 -0.318526566
647500 0.884399294 -0.41850087
767000 0.795943856 -0.488617837
886500 0.812516152 -0.482455134
1006000 0.780520856 -0.579935789
1125500 0.724743068 -0.649431765
1245000 0.648934483 -0.688549816
1364500 0.62594664 -0.711445391
1484000 0.580519974 -0.76906383
1603500 0.517921745 -0.813683927
1723000 0.451900601 -0.835327088
1842500 0.412077873 -0.858008027
1962000 0.356072336 -0.888646304
2081500 0.29695326 -0.910336911
2201000 0.239490792 -0.921837449
2320500 0.18579176 -0.932788968
2440000 0.131612613 -0.939878463
2559500 0.080308325 -0.942777216
2679000 0.027008203 -0.944405138
2798500 -0.021436493 -0.938319265
2918000 -0.06707672 -0.934287905
3037500 -0.112748444 -0.927768111
3157000 -0.156628206 -0.917556047
3276500 -0.198101952 -0.906792521
3396000 -0.237986117 -0.894352197
3515500 -0.277350872 -0.880286514
3635000 -0.313876003 -0.864292562
3754500 -0.348763495 -0.847599864
3874000 -0.382796138 -0.829440951
3993500 -0.415170162 -0.808875679
4113000 -0.445344001 -0.787559747
4232500 -0.473124563 -0.765261352
4352000 -0.499852746 -0.742566645
4471500 -0.524642229 -0.718356549
4591000 -0.548046171 -0.693017125
4710500 -0.569688916 -0.667376279
4830000 -0.589194774 -0.639931499
4949500 -0.606691598 -0.609986186
5069000 -0.620371162 -0.580422341
5188500 -0.631495594 -0.551040172
5308000 -0.639594197 -0.522080361
5427500 -0.646387636 -0.491163939
5547000 -0.648298442 -0.459648549
5666500 -0.647135496 -0.430710881
5786000 -0.642620265 -0.401804506
5905500 -0.631545364 -0.375408679
6025000 -0.617787718 -0.352594673
6144500 -0.600838005 -0.335915982
6264000 -0.586435616 -0.325376659
6383500 -0.571646749 -0.320914298
6503000 -0.566307365 -0.321555614
6622500 -0.55804497 -0.314333707
6742000 -0.547789812 -0.308548152
6861500 -0.537233889 -0.308109879
6981000 -0.529686689 -0.3119798
7100500 -0.530808448 -0.313704669
7220000 -0.531710326 -0.314436972
7339500 -0.533542871 -0.313783496
7459000 -0.532028377 -0.312641113
7578500 -0.538486182 -0.304085046
7698000 -0.536100268 -0.299346566
7817500 -0.534971654 -0.289843738
7937000 -0.531278252 -0.282455265
8056500 -0.525021433 -0.277028113
8176000 -0.50789231 -0.270101785
8295500 -0.495676964 -0.265073955
8415000 -0.47184664 -0.267579615
8534500 -0.454371333 -0.276076197
8654000 -0.43520683 -0.294892549
8773500 -0.420857429 -0.319753885
8893000 -0.411936789 -0.351802766
9012500 -0.413291454 -0.388128846
9132000 -0.425955146 -0.421857804
9251500 -0.449341177 -0.452004373
9371000 -0.476963341 -0.480498552
9490500 -0.513839602 -0.49742487
9610000 -0.550187408 -0.508176207
9729500 -0.585062801 -0.511666119
9849000 -0.616910696 -0.509611666
9968500 -0.647622048 -0.503531098
10088000 -0.67604506 -0.493610113
10207500 -0.701018273 -0.482309848
10327000 -0.724524319 -0.470412373
10446500 -0.745676219 -0.455596596
10566000 -0.764801681 -0.441192001
10685500 -0.781227648 -0.425544857
10805000 -0.79570353 -0.409422814
10924500 -0.808805763 -0.393733233
11044000 -0.82080543 -0.377875685
11163500 -0.831992506 -0.36219415
11283000 -0.841813504 -0.347075939
11402500 -0.850408971 -0.3320674
11522000 -0.85809946 -0.316695868
11641500 -0.865258276 -0.302241593
11761000 -0.871807634 -0.287835597
11880500 -0.877523481 -0.274108499
12000000 -0.882944941 -0.260485619
