# Hz S RI R 50
50000 -0.946064233 0.020514508
67700 -0.948327064 0.029989792
85500 -0.947588145 0.038341823
103200 -0.947188079 0.046683155
121000 -0.946066141 0.054706081
138700 -0.945538759 0.062690638
156500 -0.944865882 0.070606343
174200 -0.943826973 0.078600011
192000 -0.942855536 0.086371041
209800 -0.941563546 0.094136379
227500 -0.940894842 0.101803801
245300 -0.939777731 0.109780907
263000 -0.938445091 0.117115326
280800 -0.937390863 0.124751821
298500 -0.936321675 0.132470324
316300 -0.934747576 0.1401591
334100 -0.933464884 0.14769122
351800 -0.931966245 0.155008241
369600 -0.930295169 0.162644326
387300 -0.928677201 0.170368611
405100 -0.926940917 0.177851259
422800 -0.925159752 0.185248002
440600 -0.923552513 0.192755326
458400 -0.921711087 0.200375199
476100 -0.919623613 0.207766056
493900 -0.917367935 0.215232461
511600 -0.913824558 0.222297504
529400 -0.909160912 0.229420006
547100 -0.907191276 0.236747696
564900 -0.904271602 0.243895485
582700 -0.901678264 0.250719636
600400 -0.899538934 0.257599741
618200 -0.896853089 0.26473838
635900 -0.893659234 0.271843254
653700 -0.891805589 0.279337614
671400 -0.889178812 0.286557108
689200 -0.886736154 0.293774515
707000 -0.884291827 0.301155537
724700 -0.881696701 0.308354765
742500 -0.87891972 0.315778493
760200 -0.875803589 0.323055684
778000 -0.872719347 0.330166906
795700 -0.869502842 0.337249487
813500 -0.866238176 0.344185411
831300 -0.862815499 0.351536273
849000 -0.859708428 0.358860343
866800 -0.856590569 0.366158425
884500 -0.853353679 0.373269855
902300 -0.847616374 0.379115402
920000 -0.845854699 0.385802328
937800 -0.841964006 0.391884207
955600 -0.83905363 0.399047374
973300 -0.835679888 0.406095862
991100 -0.831902921 0.413548648
1008800 -0.828347325 0.420296013
1026600 -0.824510097 0.427155762
1044300 -0.820667028 0.434458881
1062100 -0.816886246 0.441385596
1079900 -0.813596308 0.448690235
1097600 -0.809414207 0.455745488
1115400 -0.80524367 0.462840557
1133100 -0.801366567 0.470187693
1150900 -0.796882927 0.476885586
1168600 -0.792054772 0.483498722
1186400 -0.787347435 0.490184247
1204200 -0.782062292 0.496750503
1221900 -0.777121365 0.502730548
1239700 -0.772927403 0.508829236
1257400 -0.768608212 0.514556288
1275200 -0.764714837 0.520935893
1292900 -0.760409474 0.527901053
1310700 -0.755613386 0.534623563
1328500 -0.750482439 0.541435301
1346200 -0.745100259 0.548066198
1364000 -0.739896953 0.554416239
1381700 -0.734573483 0.561206459
1399500 -0.729341864 0.567756235
1417200 -0.723862528 0.57414931
1435000 -0.718172073 0.580773949
1452800 -0.712187349 0.587396919
1470500 -0.706143915 0.593333661
1488300 -0.699929952 0.599457502
1506000 -0.693957567 0.604810655
1523800 -0.688417077 0.610500752
1541500 -0.683012425 0.616488754
1559300 -0.677170991 0.622747778
1577100 -0.670932173 0.628229498
1594800 -0.664226472 0.633972525
1612600 -0.657883465 0.639919102
1630300 -0.651749134 0.646210134
1648100 -0.645295381 0.652248561
1665800 -0.63877207 0.658033847
1683600 -0.631937026 0.663996338
1701400 -0.625122249 0.669538676
1719100 -0.617894172 0.675540924
1736900 -0.610830545 0.681338548
1754600 -0.603598892 0.686727046
1772400 -0.596157491 0.69204545
1790100 -0.588981449 0.696956276
1807900 -0.582014501 0.702017426
1825700 -0.575006008 0.707352399
1843457 -0.568262279 0.713315665
1861157 -0.56043893 0.718662202
1878957 -0.552983105 0.723904609
1896657 -0.545363128 0.729275405
1914457 -0.537646532 0.734513461
1932157 -0.529688775 0.739206016
1949957 -0.521683871 0.744474351
1967657 -0.513661742 0.749770402
1985457 -0.505206704 0.754762649
2003257 -0.496184766 0.758992552
2020957 -0.48795396 0.764009058
2038757 -0.479406028 0.768781423
2056457 -0.470700711 0.773145377
2074257 -0.462003141 0.777312755
2091957 -0.453174829 0.782081365
2109757 -0.444493412 0.786658287
2127557 -0.435530334 0.791396617
2145257 -0.426493138 0.795704722
2163057 -0.417202442 0.799938499
2180757 -0.407479673 0.804093897
2198557 -0.397541821 0.808018028
2216257 -0.387702494 0.811866402
2234057 -0.377469778 0.815424203
2251857 -0.367819398 0.819492161
2269557 -0.356898695 0.821666777
2287357 -0.346297115 0.824711263
2305057 -0.33566302 0.82782346
2322857 -0.324921488 0.830410599
2340557 -0.313904702 0.832673966
2358357 -0.303136974 0.835934877
2376157 -0.292467594 0.838922679
2393857 -0.281537234 0.841854453
2411657 -0.270164847 0.8447299
2429357 -0.259058058 0.84729433
2447157 -0.247322335 0.849713623
2464857 -0.235897928 0.852298796
2482657 -0.2239618 0.853592813
2500457 -0.211716502 0.855118811
2518157 -0.199826017 0.856893002
2535957 -0.187183156 0.858239233
2553657 -0.174914106 0.859696388
2571457 -0.16245149 0.860726118
2589157 -0.149828553 0.861543834
2606957 -0.136911183 0.861913025
2624757 -0.123812206 0.862379968
2642457 -0.110821068 0.862740159
2660257 -0.097526527 0.862340331
2677957 -0.084134638 0.861757338
2695757 -0.070314049 0.861334621
2713457 -0.056427069 0.860632002
2731257 -0.042528305 0.859197318
2749057 -0.028458572 0.85759592
2766757 -0.014388271 0.855443656
2784557 -5.55e-07 0.853036344
2802257 0.014581377 0.850171148
2820057 0.029149657 0.847198367
2837757 0.043559513 0.844183087
2855557 0.058365143 0.840314507
2873357 0.073352158 0.836190223
2891057 0.088432058 0.831543385
2908857 0.103442803 0.826307892
2926557 0.118531771 0.821013092
2944357 0.133780509 0.814909517
2962057 0.149001523 0.808258175
2979857 0.164160117 0.800739228
2997657 0.179330602 0.79303956
3015357 0.194454997 0.785037517
3033157 0.209461465 0.776079654
3050857 0.224371597 0.766768038
3068657 0.239355385 0.756271123
3086357 0.254248231 0.744840264
3104157 0.269097268 0.733206331
3121957 0.283353924 0.720976889
3139657 0.297272801 0.707384049
3157457 0.310745805 0.693636
3175157 0.323814213 0.679133057
3192957 0.336392551 0.664147734
3210657 0.348505795 0.648424208
3228457 0.360019207 0.631859302
3246257 0.371125221 0.614305913
3263957 0.381107062 0.596401154
3281757 0.39041987 0.577601492
3299457 0.399181216 0.558491408
3317257 0.406794369 0.53831911
3334957 0.413526505 0.51785624
3352757 0.418730705 0.496422767
3370557 0.422814458 0.474945783
3388257 0.425701051 0.45330125
3406057 0.427247405 0.431234776
3423757 0.42741692 0.409666568
3441557 0.426593601 0.38796994
3459257 0.424275338 0.366185277
3477057 0.420976847 0.344386935
3494857 0.415690779 0.322903931
3512557 0.409153997 0.301930069
3530357 0.400977462 0.281186044
3548057 0.39073348 0.261377125
3565857 0.378874778 0.242883011
3583557 0.366028934 0.226287946
3601357 0.352458029 0.211436972
3619157 0.338783919 0.197535291
3636914 0.323644489 0.185512155
3654614 0.308538705 0.173929542
3672414 0.29270035 0.163640484
3690114 0.276278346 0.15531069
3707914 0.259453445 0.148578837
3725614 0.24286431 0.14376308
3743414 0.226161241 0.140822649
3761114 0.210354313 0.139278531
3778914 0.194910928 0.139557421
3796714 0.180242046 0.141026645
3814414 0.166901558 0.143750041
3832214 0.154349699 0.147271797
3849914 0.142622485 0.151697218
3867714 0.13158226 0.156800061
3885414 0.12134663 0.163243502
3903214 0.112631924 0.170224636
3921014 0.104942023 0.177868098
3938714 0.098262473 0.186110377
3956514 0.092729166 0.19522649
3974214 0.089298307 0.204444855
3992014 0.087076462 0.213449731
4009714 0.086177915 0.221981719
4027514 0.086170427 0.230097517
4045314 0.087364636 0.237923488
4063014 0.088956572 0.244950041
4080814 0.091108851 0.251888543
4098514 0.093917243 0.258547425
4116314 0.097323007 0.265014916
4134014 0.101805128 0.271488368
4151814 0.107376381 0.27737531
4169614 0.113782308 0.282710522
4187314 0.121104001 0.287129372
4205114 0.128815367 0.290443897
4222814 0.136843875 0.292930305
4240614 0.144970208 0.294480651
4258314 0.152917563 0.295215964
4276114 0.161275684 0.295387744
4293914 0.169420436 0.295058369
4311614 0.177607327 0.294135838
4329414 0.186134591 0.292773753
4347114 0.194722145 0.290983885
4364914 0.203577607 0.288495332
4382614 0.212649956 0.28496623
4400414 0.221395373 0.280459731
4418214 0.22969897 0.275508195
4435914 0.237725824 0.269522547
4453714 0.245249971 0.26329413
4471414 0.252272069 0.256867587
4489214 0.258976638 0.250071704
4506914 0.265318483 0.243098676
4524714 0.272064775 0.236023947
4542514 0.278458714 0.228411898
4560214 0.284791916 0.219967663
4578014 0.290880054 0.210998415
4595714 0.29646787 0.201384976
4613514 0.301291584 0.191229119
4631214 0.305320084 0.181145071
4649014 0.308915555 0.170991033
4666814 0.311970412 0.160598307
4684514 0.314940422 0.150275528
4702314 0.317546606 0.139728128
4720014 0.319884479 0.129116609
4737814 0.321855604 0.117939673
4755514 0.323632508 0.106819897
4773314 0.324779599 0.095421202
4791114 0.3255831 0.083557859
4808814 0.32599458 0.071605987
4826614 0.325361162 0.059453044
4844314 0.324126422 0.04746757
4862114 0.322547644 0.035351522
4879814 0.320265799 0.023157803
4897614 0.317584186 0.011095498
4915414 0.314391255 -0.000789402
4933114 0.310374826 -0.012725304
4950914 0.306028276 -0.024565832
4968614 0.301114916 -0.036544404
4986414 0.295200884 -0.047952968
5004114 0.288785248 -0.059110391
5021914 0.281986176 -0.069993153
5039714 0.27449423 -0.080613993
5057414 0.266851067 -0.09062083
5075214 0.258639216 -0.100405357
5092914 0.250059634 -0.109780952
5110714 0.241215825 -0.118838012
5128414 0.231775417 -0.127250358
5146214 0.222163334 -0.135652199
5164014 0.212021529 -0.143216863
5181714 0.201739549 -0.150387808
5199514 0.191062763 -0.157309681
5217214 0.180131837 -0.163626298
5235014 0.169059157 -0.169232398
5252714 0.157405808 -0.174387276
5270514 0.145688995 -0.179265588
5288314 0.133999124 -0.183502092
5306014 0.121698215 -0.186794534
5323814 0.109515376 -0.189946889
5341514 0.097333878 -0.192317843
5359314 0.084827475 -0.193869292
5377014 0.072457768 -0.195118039
5394814 0.05997461 -0.195727691
5412614 0.047765139 -0.195491001
5430371 0.035603784 -0.194728717
5448071 0.023575494 -0.193650171
5465871 0.011703193 -0.191739872
5483571 -0.000202243 -0.189288228
5501371 -0.012069517 -0.186242699
5519071 -0.023832503 -0.182561263
5536871 -0.035273324 -0.178114876
5554571 -0.046206299 -0.173147663
5572371 -0.056977752 -0.167437717
5590171 -0.0672421 -0.161516025
5607871 -0.077246949 -0.155113324
5625671 -0.086783356 -0.148050218
5643371 -0.096085235 -0.140764966
5661171 -0.105024851 -0.132916659
5678871 -0.113572612 -0.124251686
5696671 -0.121714815 -0.115387909
5714471 -0.129351228 -0.10587722
5732171 -0.136187747 -0.095923259
5749971 -0.142648413 -0.08519008
5767671 -0.148279577 -0.074458345
5785471 -0.15300779 -0.063549295
5803171 -0.157443121 -0.052017699
5820971 -0.161321654 -0.040441285
5838771 -0.164603069 -0.028387347
5856471 -0.166817873 -0.0160834
5874271 -0.168634206 -0.003226471
5891971 -0.169727668 0.009323893
5909771 -0.169566854 0.022357823
5927471 -0.16898331 0.035378154
5945271 -0.167293399 0.048675511
5963071 -0.164690762 0.06204098
5980771 -0.161330997 0.075193643
5998571 -0.15690346 0.088511236
6016271 -0.151765674 0.101629406
6034071 -0.145217433 0.114681936
6051771 -0.137940511 0.12738353
6069571 -0.129359468 0.139848336
6087371 -0.119751825 0.152040705
6105071 -0.109285153 0.163537576
6122871 -0.097556143 0.174358904
6140571 -0.085119821 0.184215635
6158371 -0.071698188 0.193605735
6176071 -0.057431429 0.202206999
6193871 -0.042338974 0.209600031
6211671 -0.026546601 0.216353893
6229371 -0.010242632 0.221728563
6247171 0.0069563 0.22600013
6264871 0.02443275 0.229197263
6282671 0.042417477 0.231288149
6300371 0.060469791 0.231914475
6318171 0.07887528 0.231432601
6335971 0.097679249 0.229304134
6353671 0.116046123 0.226397126
6371471 0.134686306 0.222169369
6389171 0.152608662 0.216538578
6406971 0.170669943 0.209941953
6424671 0.188219457 0.202483654
6442471 0.205848723 0.193785279
6460271 0.223028615 0.183700561
6477971 0.239769786 0.172675549
6495771 0.255733311 0.160378605
6513471 0.271614909 0.147137135
6531271 0.286639362 0.132962182
6548971 0.301003545 0.117531657
6566771 0.314676135 0.101084098
6584571 0.327712625 0.083767436
6602271 0.339726328 0.065126091
6620071 0.350522428 0.045823212
6637771 0.36027202 0.025736596
6655571 0.368710905 0.004666674
6673271 0.376032948 -0.016531428
6691071 0.382017195 -0.038378171
6708871 0.386790454 -0.060259789
6726571 0.390645503 -0.082400113
6744371 0.393116593 -0.104863762
6762071 0.394582033 -0.127348914
6779871 0.395494729 -0.150300651
6797571 0.394883304 -0.173059239
6815371 0.39308685 -0.196122139
6833171 0.390084087 -0.219307288
6850871 0.385851949 -0.242222726
6868671 0.380428493 -0.265034288
6886371 0.373801887 -0.287306398
6904171 0.365985572 -0.309413403
6921871 0.357071012 -0.330896168
6939671 0.346998125 -0.352188616
6957471 0.335942238 -0.37282744
6975171 0.323700278 -0.392804801
6992971 0.310398787 -0.412353932
7010671 0.296296238 -0.430738717
7028471 0.281290769 -0.447910338
7046171 0.26556912 -0.464319378
7063971 0.249695733 -0.479797422
7081771 0.233388423 -0.494424372
7099471 0.216581463 -0.508224666
7117271 0.199769407 -0.521446406
7134971 0.182319566 -0.533907532
7152771 0.164511755 -0.545541882
7170471 0.14638175 -0.556222319
7188271 0.127916663 -0.566595435
7206071 0.109323583 -0.575947821
7223828 0.089982613 -0.58482331
7241528 0.07096751 -0.592739582
7259328 0.051598489 -0.599610805
7277028 0.032231867 -0.605359673
7294828 0.013070581 -0.610580861
7312528 -0.006210779 -0.614706993
7330328 -0.025549782 -0.618364453
7348028 -0.044401045 -0.621044337
7365828 -0.063066579 -0.623094081
7383628 -0.08142212 -0.624517083
7401328 -0.099808894 -0.625268578
7419128 -0.11782892 -0.625727772
7436828 -0.135593503 -0.625431895
7454628 -0.153067961 -0.624653756
7472328 -0.170246839 -0.623670041
7490128 -0.18758811 -0.622033774
7507928 -0.204165235 -0.620018124
7525628 -0.221002921 -0.617255389
7543428 -0.237306147 -0.614367067
7561128 -0.253359377 -0.610749363
7578928 -0.268951624 -0.606811344
7596628 -0.284409284 -0.6025303
7614428 -0.299360603 -0.597901105
7632228 -0.313952714 -0.592898249
7649928 -0.328239858 -0.587802529
7667728 -0.342224627 -0.582390427
7685428 -0.355751901 -0.576581656
7703228 -0.369147211 -0.570763707
7720928 -0.382364034 -0.564620435
7738728 -0.395002126 -0.558089315
7756528 -0.407393574 -0.551224231
7774228 -0.419454008 -0.544399917
7792028 -0.431223243 -0.537162244
7809728 -0.442246407 -0.529881656
7827528 -0.453192681 -0.522675812
7845228 -0.463765621 -0.515408515
7863028 -0.473774999 -0.508153557
7880828 -0.483997941 -0.500944852
7898528 -0.49371761 -0.493678152
7916328 -0.50369817 -0.486380845
7934028 -0.513277709 -0.478845983
7951828 -0.522956728 -0.471219182
7969528 -0.532413601 -0.463501602
7987328 -0.541490077 -0.455349415
8005128 -0.550268769 -0.447048336
8022828 -0.558587849 -0.438664525
8040628 -0.566683471 -0.430019974
8058328 -0.574185967 -0.421652555
8076128 -0.581592321 -0.413254499
8093828 -0.588626503 -0.404782354
8111628 -0.59563589 -0.396868467
8129428 -0.602502763 -0.38873738
8147128 -0.60908854 -0.380533993
8164928 -0.616018116 -0.372627049
8182628 -0.622370898 -0.364526599
8200428 -0.628772795 -0.356207311
8218128 -0.635198414 -0.347683846
8235928 -0.641300201 -0.339152425
8253728 -0.647299289 -0.33034709
8271428 -0.652740657 -0.321696817
8289228 -0.657756388 -0.312993735
8306928 -0.662836551 -0.304534167
8324728 -0.667757332 -0.296055018
8342428 -0.672441899 -0.287768751
8360228 -0.676784396 -0.279397279
8378028 -0.681319236 -0.27131012
8395728 -0.68533039 -0.263032048
8413528 -0.689677536 -0.254492759
8431228 -0.69386816 -0.245923116
8449028 -0.69796729 -0.237606734
8466728 -0.701857507 -0.229164525
8484528 -0.705392181 -0.220443725
8502328 -0.708664178 -0.211943551
8520028 -0.711626589 -0.203663781
8537828 -0.714594364 -0.195433124
8555528 -0.717108428 -0.187045812
8573328 -0.719812691 -0.178980186
8591028 -0.722221851 -0.171075984
8608828 -0.72466582 -0.162967845
8626628 -0.727326273 -0.155058488
8644328 -0.729516267 -0.147378608
8662128 -0.731627643 -0.139140084
8679828 -0.733573794 -0.130947083
8697628 -0.735321581 -0.123067162
8715328 -0.737098097 -0.11518678
8733128 -0.738274037 -0.107086978
8750928 -0.739728748 -0.099596507
8768628 -0.740561723 -0.091912999
8786428 -0.741604208 -0.084253244
8804128 -0.742515325 -0.077009543
8821928 -0.743354916 -0.069631576
8839628 -0.743976294 -0.062497872
8857428 -0.744666874 -0.05540654
8875228 -0.74495989 -0.048484522
8892928 -0.745335102 -0.041671399
8910728 -0.745743632 -0.035113975
8928428 -0.746015071 -0.028767388
8946228 -0.746174871 -0.022454101
8963928 -0.746753692 -0.016329163
8981728 -0.746795654 -0.010257056
8999528 -0.747025191 -0.004203615
