# Hz S RI R 50
50000 0.994283974 -0.044561836
169500 0.973187208 -0.153358846
289000 0.948928415 -0.186001345
408500 0.901247918 -0.280497699
528000 0.92323482 -0.318068116
647500 0.885441243 -0.419157117
767000 0.798342645 -0.498441904
886500 0.817535042 -0.483674913
1006000 0.78280121 -0.580431401
1125500 0.725766837 -0.650388479
1245000 0.648418426 -0.686728179
1364500 0.623547077 -0.712726473
1484000 0.58015567 -0.768986403
1603500 0.519356667 -0.815463244
1723000 0.45026344 -0.834165692
1842500 0.414896249 -0.859434962
1962000 0.35777387 -0.89104247
2081500 0.297107756 -0.913549542
2201000 0.2399562 -0.924046754
2320500 0.185501053 -0.935679435
2440000 0.131797671 -0.942873597
2559500 0.079042382 -0.94717276
2679000 0.026313334 -0.947167038
2798500 -0.022462423 -0.942687988
2918000 -0.068896122 -0.939818084
3037500 -0.116902694 -0.933279633
3157000 -0.159905701 -0.921637058
3276500 -0.201129838 -0.912431299
3396000 -0.242602065 -0.901662349
3515500 -0.283740609 -0.887710154
3635000 -0.322026342 -0.871036291
3754500 -0.358822375 -0.854637324
3874000 -0.394935488 -0.835713207
3993500 -0.428681075 -0.814562916
4113000 -0.460050225 -0.792424857
4232500 -0.489963233 -0.77078849
4352000 -0.520087301 -0.747318744
4471500 -0.548551321 -0.722169876
4591000 -0.576374173 -0.695135831
4710500 -0.603082418 -0.666272342
4830000 -0.628428161 -0.634056448
4949500 -0.651051104 -0.597890317
5069000 -0.669702827 -0.559420406
5188500 -0.683472156 -0.520714819
5308000 -0.697902262 -0.481952756
5427500 -0.714302003 -0.436838656
5547000 -0.726168334 -0.380931258
5666500 -0.729795038 -0.312471568
5786000 -0.715925633 -0.227412045
5905500 -0.667148172 -0.128296956
6025000 -0.559772193 -0.032527249
6144500 -0.373515903 0.005974296
6264000 -0.176616802 -0.102921098
6383500 -0.109600737 -0.303157389
6503000 -0.157918751 -0.461250931
6622500 -0.240660175 -0.549307107
6742000 -0.320967704 -0.598002731
6861500 -0.403306603 -0.621890485
6981000 -0.476438045 -0.620006322
7100500 -0.53822422 -0.606954872
7220000 -0.591889858 -0.583126187
7339500 -0.634614765 -0.551882922
7459000 -0.665477335 -0.518353879
7578500 -0.693886518 -0.489389061
7698000 -0.721307218 -0.451619118
7817500 -0.737918734 -0.410498052
7937000 -0.7513116 -0.373004525
8056500 -0.765800654 -0.328279614
8176000 -0.769182205 -0.276492148
8295500 -0.765657186 -0.21971552
8415000 -0.746963322 -0.153498113
8534500 -0.703168153 -0.083768062
8654000 -0.628847479 -0.021862663
8773500 -0.518368721 0.018311647
8893000 -0.3744753 0.003970012
9012500 -0.242458224 -0.094782195
9132000 -0.183504521 -0.252222627
9251500 -0.212328612 -0.402549773
9371000 -0.290638238 -0.50372219
9490500 -0.380819737 -0.555825352
9610000 -0.460796445 -0.573646366
9729500 -0.526261866 -0.574835777
9849000 -0.582255303 -0.566452801
9968500 -0.627610027 -0.55092144
10088000 -0.665000081 -0.533872783
10207500 -0.695922136 -0.515493094
10327000 -0.722994267 -0.496975749
10446500 -0.746638298 -0.477786242
10566000 -0.766867101 -0.458812028
10685500 -0.784523427 -0.439511299
10805000 -0.799250304 -0.421369194
10924500 -0.812607944 -0.403381407
11044000 -0.824113786 -0.386271148
11163500 -0.835071265 -0.369639217
11283000 -0.844800353 -0.353338599
11402500 -0.853415906 -0.337282598
11522000 -0.860738933 -0.321770936
11641500 -0.867924094 -0.306521236
11761000 -0.874179065 -0.29181534
11880500 -0.8798303 -0.277410984
12000000 -0.885282218 -0.263521313
