# Hz S RI R 50
50000 0.992029786 -0.050369214
139500 0.939590334 -0.07785134
229000 0.972412824 -0.13732703
318500 0.955910027 -0.23918502
408000 0.932469785 -0.252539962
497500 0.924174547 -0.341491729
587000 0.878947913 -0.413981974
676500 0.860650956 -0.424435108
766000 0.830711662 -0.509660422
855500 0.775073707 -0.528668463
945000 0.757085442 -0.594065308
1034500 0.698469698 -0.629338979
1124000 0.667934834 -0.668430089
1213500 0.61421585 -0.716355681
1303000 0.560773193 -0.741975843
1392500 0.511148214 -0.771208107
1482000 0.464011192 -0.793298482
1571500 0.408605992 -0.815674364
1661000 0.356232345 -0.826452672
1750500 0.314016073 -0.849246561
1840000 0.243252068 -0.862790822
1929500 0.190590918 -0.857688665
2019000 0.127766266 -0.860512852
2108500 0.069329351 -0.855942308
2198000 0.019472587 -0.839449644
2287500 -0.046546883 -0.819817185
2377000 -0.099622957 -0.801139712
2466500 -0.14277026 -0.769025146
2556000 -0.196253821 -0.725069046
2645500 -0.242108881 -0.678504526
2735000 -0.27170515 -0.612083435
2824500 -0.273013025 -0.532718837
2914000 -0.230763286 -0.474271655
3003500 -0.181623145 -0.465099006
3093000 -0.162059217 -0.482161998
3182500 -0.163557365 -0.494536668
3272000 -0.172139883 -0.50531274
3361500 -0.190348759 -0.508906006
3451000 -0.214882418 -0.503668308
3540500 -0.235323056 -0.491039514
3630000 -0.251030892 -0.474751174
3719500 -0.264779657 -0.450837612
3809000 -0.266260504 -0.43054229
3898500 -0.270415037 -0.420181691
3988000 -0.280749827 -0.398672312
4077500 -0.281894057 -0.373994708
4167000 -0.281069666 -0.352048277
4256500 -0.271108746 -0.320742547
4346000 -0.25001493 -0.290340363
4435500 -0.21316795 -0.271191924
4525000 -0.171918421 -0.263637363
4614500 -0.124143384 -0.263671934
4704000 -0.057461675 -0.278691232
4793500 0.013256772 -0.337995648
4883000 0.054049327 -0.443171858
4972500 0.036432478 -0.560127139
5062000 -0.027156541 -0.653877317
5151500 -0.112319104 -0.714405775
5241000 -0.198917165 -0.739185452
5330500 -0.274695903 -0.74486792
5420000 -0.340892016 -0.742344439
5509500 -0.402697205 -0.732943832
5599000 -0.460678607 -0.71629703
5688500 -0.511063635 -0.693745076
5778000 -0.5555197 -0.669378995
5867500 -0.595968008 -0.643947362
5957000 -0.633434474 -0.616735219
6046500 -0.667870044 -0.587848067
6136000 -0.699347853 -0.55802524
6225500 -0.728043913 -0.528133451
6315000 -0.753513932 -0.498863995
6404500 -0.776598155 -0.469019949
6494000 -0.797226488 -0.437839001
6583500 -0.81454432 -0.404217809
6673000 -0.829606175 -0.371124774
6762500 -0.842286467 -0.339068055
6852000 -0.853626668 -0.307600826
6941500 -0.863950848 -0.277213543
7031000 -0.872830331 -0.247043788
7120500 -0.880899012 -0.217171981
7210000 -0.887312471 -0.187750935
7299500 -0.893010854 -0.159074589
7389000 -0.897575378 -0.130461424
7478500 -0.901606619 -0.10243082
7568000 -0.904365718 -0.07490684
7657500 -0.906248688 -0.047265898
7747000 -0.907399773 -0.02015054
7836500 -0.907833337 0.006499999
7926000 -0.907143115 0.03294181
8015500 -0.905827641 0.059185869
8105000 -0.903720617 0.084457188
8194500 -0.900713026 0.109718009
8284000 -0.897447288 0.134220644
8373500 -0.893227815 0.158504113
8463000 -0.888554692 0.182206109
8552500 -0.883233368 0.205944582
8642000 -0.877711534 0.228954106
8731500 -0.871271252 0.25172618
8821000 -0.864708006 0.273949176
8910500 -0.857429385 0.295821458
9000000 -0.849739789 0.317465186
