# Hz S RI R 50
50000 -0.94048047 0.042573388
139500 -0.935413479 0.122553266
229000 -0.920783996 0.199553608
318500 -0.899994552 0.275118649
408000 -0.872547447 0.349955648
497500 -0.838193714 0.423707216
587000 -0.796169221 0.496802568
676500 -0.746107876 0.567673325
766000 -0.686774492 0.636389613
855500 -0.61775279 0.701585412
945000 -0.538143992 0.762469649
1034500 -0.446714162 0.816304087
1124000 -0.341902256 0.862622976
1213500 -0.22487308 0.895947396
1303000 -0.092577114 0.914191007
1392500 0.050320319 0.909240067
1482000 0.20532073 0.876711308
1571500 0.361518681 0.808490157
1661000 0.512708425 0.697255134
1750500 0.640577077 0.541786134
1840000 0.726564943 0.34369269
1929500 0.751417875 0.117905423
2019000 0.700873136 -0.108716741
2108500 0.577492594 -0.301750391
2198000 0.402320921 -0.43246591
2287500 0.20913434 -0.48615539
2377000 0.033293627 -0.469973117
2466500 -0.103942595 -0.404256165
2556000 -0.192891761 -0.312928915
2645500 -0.236723616 -0.217267841
2735000 -0.243464067 -0.131971597
2824500 -0.223682835 -0.066095836
2914000 -0.187362536 -0.025165259
3003500 -0.147571384 -0.010624687
3093000 -0.116544522 -0.019221605
3182500 -0.102239131 -0.040078643
3272000 -0.105838403 -0.062265705
3361500 -0.12418697 -0.07821206
3451000 -0.153307929 -0.08159697
3540500 -0.186120003 -0.068193048
3630000 -0.212419673 -0.036719575
3719500 -0.224442526 0.008078635
3809000 -0.218089774 0.060948424
3898500 -0.190446257 0.112033136
3988000 -0.145004212 0.155251368
4077500 -0.085383206 0.187727496
4167000 -0.01148084 0.206953078
4256500 0.075856857 0.207793578
4346000 0.173265829 0.182106524
4435500 0.271194636 0.123672202
4525000 0.356503605 0.02969185
4614500 0.414611607 -0.094124704
4704000 0.434826344 -0.235897168
4793500 0.413177669 -0.379989564
4883000 0.353787362 -0.51133573
4972500 0.266717493 -0.619424283
5062000 0.162349492 -0.700043678
5151500 0.050645351 -0.754309296
5241000 -0.062030736 -0.783890843
5330500 -0.169307351 -0.792834401
5420000 -0.269183665 -0.785284161
5509500 -0.359493702 -0.765477299
5599000 -0.440658092 -0.73655796
5688500 -0.512224614 -0.700986087
5778000 -0.575194895 -0.660852551
5867500 -0.630640447 -0.617606937
5957000 -0.677411139 -0.571603655
6046500 -0.717569708 -0.525335967
6136000 -0.752331733 -0.479824751
6225500 -0.781828701 -0.433772623
6315000 -0.803128957 -0.391838133
6404500 -0.82433772 -0.357009261
6494000 -0.847416341 -0.317687541
6583500 -0.865109264 -0.274192094
6673000 -0.878447592 -0.231235966
6762500 -0.88860166 -0.190158247
6852000 -0.896897614 -0.150111734
6941500 -0.902913212 -0.111170031
7031000 -0.906970739 -0.07324656
7120500 -0.909118592 -0.035991262
7210000 -0.909255027 -0.000298851
7299500 -0.907910823 0.034663744
7389000 -0.904658734 0.06892389
7478500 -0.899346411 0.101745672
7568000 -0.893087029 0.132640317
7657500 -0.885603666 0.163362652
7747000 -0.8765527 0.193075329
7836500 -0.864619493 0.220882087
7926000 -0.851299822 0.24424985
8015500 -0.841158986 0.264687001
8105000 -0.833359479 0.287820011
8194500 -0.822388052 0.313117563
8284000 -0.807995796 0.337335705
8373500 -0.791329503 0.360152959
8463000 -0.769284546 0.380853772
8552500 -0.743053495 0.394942462
8642000 -0.716018736 0.397890508
8731500 -0.695157706 0.388325273
8821000 -0.69048047 0.370660781
8910500 -0.706070542 0.359306633
9000000 -0.730411887 0.366888344
