# Hz S RI R 50
50000 -0.983068823 0.019545827
61800 -0.981290221 0.024591289
73600 -0.980770468 0.029952928
85500 -0.980833411 0.035241518
97300 -0.980497479 0.040242619
109200 -0.980063557 0.045158278
121000 -0.979742467 0.050261855
132900 -0.979272246 0.055330876
144700 -0.978980302 0.060378331
156500 -0.978558957 0.064991429
168400 -0.977907359 0.069988302
180200 -0.977822303 0.074904255
192100 -0.976937651 0.079677261
203900 -0.976282596 0.084538854
215800 -0.975718796 0.089129649
227600 -0.975057482 0.094052031
239400 -0.974548578 0.098759949
251300 -0.973869442 0.103414893
263100 -0.973214745 0.108156256
275000 -0.972636997 0.112947478
286800 -0.971856594 0.117311179
298700 -0.971141576 0.122213877
310500 -0.970220148 0.126984924
322300 -0.969672858 0.131525203
334200 -0.968777477 0.136084541
346000 -0.967961192 0.140793934
357900 -0.966957986 0.145571589
369700 -0.966633677 0.150065168
381600 -0.965249001 0.154432803
393400 -0.964549005 0.159027382
405200 -0.963484168 0.16381292
417100 -0.962726712 0.168318867
428900 -0.961684882 0.172800377
440800 -0.960771858 0.177348688
452600 -0.959712386 0.182049214
464500 -0.958770751 0.186416923
476300 -0.957666575 0.191060051
488100 -0.956585407 0.195709854
500000 -0.955554664 0.199931785
511800 -0.954718112 0.204502686
523700 -0.953264296 0.209069192
535500 -0.952135443 0.213367581
547400 -0.951057493 0.218048244
559200 -0.949880242 0.222353607
571000 -0.948690474 0.226733162
582900 -0.947244107 0.231373354
594700 -0.946320772 0.235705897
606600 -0.944986939 0.240039154
618400 -0.9437505 0.244498625
630300 -0.942398786 0.249070569
642100 -0.941226363 0.253225266
653900 -0.939607381 0.257834821
665800 -0.938467144 0.262176334
677600 -0.937149941 0.266658395
689500 -0.935772359 0.270820915
701300 -0.934332966 0.275334268
713200 -0.932812213 0.279633849
725000 -0.931633532 0.283988058
736800 -0.929970979 0.288309901
748700 -0.928484082 0.292752087
760500 -0.9269014 0.296932995
772400 -0.925435841 0.301222264
784200 -0.92389065 0.305657416
796100 -0.922070622 0.309974044
807900 -0.920863509 0.314220935
819700 -0.919110059 0.31823942
831600 -0.917540192 0.322578459
843400 -0.91599363 0.327083855
855300 -0.914315104 0.331187248
867100 -0.912588715 0.335432648
879000 -0.910935997 0.339857935
890800 -0.909403324 0.343720942
902600 -0.907457947 0.347962409
914500 -0.905743241 0.352203071
926300 -0.904183268 0.356487274
938200 -0.902190923 0.360618293
950000 -0.900301277 0.364731311
961900 -0.898557364 0.369049787
973700 -0.896898567 0.373025029
985500 -0.894744575 0.37721458
997400 -0.8928954 0.381386518
1009200 -0.891346096 0.385467737
1021100 -0.889199674 0.389666914
1032900 -0.887167572 0.393767237
1044800 -0.885242938 0.397922754
1056600 -0.883253157 0.401720821
1068400 -0.881471097 0.405948996
1080300 -0.879356086 0.410040259
1092100 -0.877532839 0.413978427
1104000 -0.875345289 0.418113529
1115800 -0.873220622 0.422108292
1127700 -0.871215641 0.426264464
1139500 -0.869064211 0.430029183
1151300 -0.866964101 0.434211462
1163200 -0.864706575 0.438120216
1175000 -0.862729668 0.442064106
1186900 -0.860442399 0.445990294
1198700 -0.858431816 0.44998151
1210600 -0.856275677 0.454207569
1222400 -0.853977739 0.457853585
1234300 -0.851712167 0.461874276
1246143 -0.849503338 0.465643048
1257943 -0.847068786 0.469487041
1269743 -0.845173418 0.473613798
1281643 -0.842520534 0.477446109
1293443 -0.840201318 0.481180965
1305343 -0.838072121 0.484982699
1317143 -0.835495114 0.48888117
1329043 -0.833114385 0.492924869
1340843 -0.830787181 0.496455371
1352643 -0.828325927 0.500310242
1364543 -0.826095402 0.503958404
1376343 -0.823489606 0.507895171
1388243 -0.821049273 0.511974036
1400043 -0.818577527 0.515425801
1411943 -0.815916836 0.519242703
1423743 -0.813583493 0.522939562
1435543 -0.811074733 0.526656031
1447443 -0.808279693 0.530415534
1459243 -0.805882036 0.533966004
1471143 -0.80334115 0.537635147
1482943 -0.800804734 0.541553556
1494843 -0.797872066 0.545206844
1506643 -0.795371413 0.548618495
1518443 -0.792851209 0.55219388
1530343 -0.790068924 0.555955886
1542143 -0.787317633 0.559729158
1554043 -0.784581303 0.563136637
1565843 -0.781966984 0.566650569
1577743 -0.779553472 0.570303142
1589543 -0.776429533 0.573868274
1601343 -0.77370125 0.577531695
1613243 -0.770728051 0.580902397
1625043 -0.76810193 0.584285795
1636943 -0.765363454 0.588047146
1648743 -0.762412965 0.591520726
1660643 -0.759627997 0.594832539
1672443 -0.75695455 0.598172128
1684243 -0.753750741 0.601782619
1696143 -0.750905573 0.605335295
1707943 -0.747929036 0.608570992
1719843 -0.745007872 0.612004101
1731643 -0.742252886 0.615319907
1743543 -0.739128172 0.61888355
1755343 -0.736132502 0.622190892
1767143 -0.732973515 0.625392615
1779043 -0.7301144 0.628819465
1790843 -0.727232456 0.63227874
1802743 -0.724168717 0.635446131
1814543 -0.720932126 0.63890928
1826443 -0.717931091 0.641928493
1838243 -0.714916229 0.645167171
1850043 -0.711841464 0.648644924
1861943 -0.708455443 0.651823699
1873743 -0.70544064 0.654819965
1885643 -0.702556669 0.658275723
1897443 -0.699051916 0.66149491
1909343 -0.696007788 0.664729893
1921143 -0.692619085 0.667642235
1932943 -0.6895262 0.670726954
1944843 -0.68650645 0.67397058
1956643 -0.682959914 0.677169978
1968543 -0.679830312 0.68046385
1980343 -0.676497757 0.683150589
1992243 -0.673262059 0.686477303
2004043 -0.670069992 0.689556658
2015843 -0.66654253 0.69258809
2027743 -0.663170039 0.695860028
2039543 -0.659636735 0.698583424
2051443 -0.656427204 0.701715171
2063243 -0.653360784 0.704643309
2075143 -0.649542748 0.707720994
2086943 -0.6460675 0.71059221
2098743 -0.642851948 0.713215172
2110643 -0.639335811 0.716225385
2122443 -0.635974645 0.71931976
2134343 -0.632285058 0.722223401
2146143 -0.629110336 0.724998891
2158043 -0.625734746 0.727775394
2169843 -0.622018098 0.730753362
2181643 -0.61862719 0.733640789
2193543 -0.614767313 0.736308276
2205343 -0.611155867 0.739135026
2217243 -0.607729017 0.741615056
2229043 -0.60399425 0.74459207
2240943 -0.600409924 0.747380852
2252743 -0.596654593 0.750019073
2264543 -0.59294331 0.752480685
2276443 -0.589381217 0.755259752
2288243 -0.585496783 0.758095085
2300143 -0.581942439 0.76081705
2311943 -0.577951908 0.763328611
2323843 -0.574334919 0.765806794
2335643 -0.570574522 0.768299818
2347443 -0.566841125 0.770998179
2359343 -0.563121438 0.773694515
2371143 -0.559146821 0.775925934
2383043 -0.555399775 0.778697133
2394843 -0.551641702 0.780950427
2406743 -0.547842204 0.783694982
2418543 -0.543766021 0.786137044
2430443 -0.539682209 0.788605034
2442286 -0.536066353 0.790790677
2454086 -0.532114803 0.793576896
2465886 -0.528036177 0.79571253
2477786 -0.524022638 0.798199892
2489586 -0.520489215 0.800330042
2501486 -0.516343116 0.802958011
2513286 -0.51221323 0.805278778
2525186 -0.50803411 0.807320892
2536986 -0.504035294 0.809543609
2548786 -0.500290572 0.812043368
2560686 -0.495947301 0.814120948
2572486 -0.491845011 0.816333353
2584386 -0.487606853 0.818508148
2596186 -0.483682364 0.820871293
2608086 -0.4793998 0.82310301
2619886 -0.475121468 0.82507795
2631686 -0.47115767 0.826848268
2643586 -0.467060923 0.82911235
2655386 -0.462898641 0.831197202
2667286 -0.458563029 0.83318001
2679086 -0.454459935 0.835146546
2690986 -0.450088769 0.837351083
2702786 -0.445848107 0.839377462
2714586 -0.441567927 0.841006278
2726486 -0.43728587 0.843236863
2738286 -0.433198243 0.844975531
2750186 -0.428579151 0.846967041
2761986 -0.424229294 0.848851561
2773886 -0.419841945 0.850664734
2785686 -0.41552934 0.85234344
2797486 -0.411307483 0.854393124
2809386 -0.406459122 0.855920076
2821186 -0.402060925 0.858076095
2833086 -0.397683024 0.85930252
2844886 -0.393190562 0.861307561
2856786 -0.388831526 0.862935245
2868586 -0.38414824 0.86469233
2880386 -0.379599004 0.866165459
2892286 -0.375036686 0.86784625
2904086 -0.370580732 0.869296967
2915986 -0.366056114 0.870866537
2927786 -0.361419051 0.872556865
2939686 -0.356727361 0.874216258
2951486 -0.352196544 0.875166535
2963286 -0.347541779 0.87675625
2975186 -0.342992842 0.878309309
2986986 -0.338261067 0.87977761
2998886 -0.333385497 0.88101691
3010686 -0.32874003 0.882222592
3022586 -0.32384622 0.883491516
3034386 -0.319174885 0.88490802
3046186 -0.314320445 0.886094868
3058086 -0.309441864 0.887477278
3069886 -0.304790765 0.88850516
3081786 -0.299926221 0.889852941
3093586 -0.294863551 0.890604555
3105486 -0.289960175 0.891790449
3117286 -0.285075545 0.89273113
3129086 -0.280346035 0.894018292
3140986 -0.27503395 0.894706904
3152786 -0.270170301 0.895813643
3164686 -0.265233993 0.896364748
3176486 -0.260239958 0.897555589
3188386 -0.255283474 0.898238241
3200186 -0.25011903 0.899224162
3211986 -0.24506472 0.89973551
3223886 -0.239917501 0.900786995
3235686 -0.234717398 0.901194036
3247586 -0.229901731 0.901910781
3259386 -0.224532052 0.902371287
3271286 -0.219225779 0.903277754
3283086 -0.214390635 0.903019785
3294886 -0.209288984 0.904379129
3306786 -0.203792259 0.904442429
3318586 -0.198621511 0.905048847
3330486 -0.193076059 0.905299901
3342286 -0.188028261 0.905789911
3354186 -0.182631984 0.905519545
3365986 -0.177544772 0.906497895
3377786 -0.171781688 0.90610224
3389686 -0.166562423 0.906404554
3401486 -0.161073714 0.90624684
3413386 -0.155833572 0.906739532
3425186 -0.15039809 0.906093299
3437086 -0.145063236 0.906796455
3448886 -0.139159068 0.906106948
3460686 -0.134163245 0.906116962
3472586 -0.128395438 0.905459463
3484386 -0.122968591 0.905630826
3496286 -0.11721298 0.904404342
3508086 -0.112271405 0.904965639
3519986 -0.106049582 0.903978347
3531786 -0.101034745 0.903572678
3543586 -0.0952266 0.902827858
3555486 -0.089916743 0.902610838
3567286 -0.083893865 0.901273369
3579186 -0.079216174 0.901192963
3590986 -0.072435133 0.899872779
3602886 -0.067496158 0.899124383
3614686 -0.061480913 0.897885918
3626586 -0.056207016 0.897363841
3638429 -0.049733132 0.895629644
3650229 -0.045340798 0.895024359
3662029 -0.038253977 0.893768072
3673929 -0.033526651 0.89196664
3685729 -0.027256123 0.890845775
3697629 -0.022423926 0.88963443
3709429 -0.015260314 0.887592554
3721329 -0.011495528 0.886324822
3733129 -0.00360939 0.884984731
3744929 0.000569986 0.882467329
3756829 0.007549175 0.88082391
3768629 0.012049508 0.878963589
3780529 0.01950884 0.876767516
3792329 0.023050418 0.874482274
3804229 0.030931487 0.873106062
3816029 0.034780018 0.869345903
3827829 0.042174249 0.868103623
3839729 0.046229917 0.864879965
3851529 0.053893938 0.862734913
3863429 0.057033568 0.859331429
3875229 0.065533488 0.857856631
3887129 0.06858354 0.853305041
3898929 0.076299808 0.851691365
3910729 0.079578213 0.847422361
3922629 0.087655656 0.845276236
3934429 0.090086266 0.840645194
3946329 0.099070362 0.839442312
3958129 0.102043673 0.833262085
3970029 0.10953477 0.831887781
3981829 0.112562522 0.826205611
3993629 0.120492406 0.824254631
4005529 0.122860416 0.818242013
4017329 0.131340041 0.816940784
4029229 0.133937552 0.809340238
4041029 0.140870943 0.808066844
4052929 0.144097343 0.801159143
4064729 0.151144742 0.798962652
4076529 0.153633221 0.791805028
4088429 0.161383628 0.790295839
4100229 0.164098858 0.781443834
4112129 0.17010118 0.780402183
4123929 0.173296406 0.771602392
4135829 0.179530128 0.769907355
4147629 0.181759208 0.761163949
4159429 0.188677668 0.759866416
4171329 0.191179662 0.749070882
4183129 0.196163311 0.7483204
4195029 0.199032917 0.73830676
4206829 0.203976809 0.736506402
4218729 0.206758305 0.726513683
4230529 0.212124586 0.724603414
4242329 0.214180216 0.713094353
4254229 0.217710182 0.712407648
4266029 0.220899611 0.700942635
4277929 0.223920613 0.698982119
4289729 0.226693361 0.688105583
4301629 0.230342701 0.685999631
4313429 0.231897026 0.673281252
4325229 0.233413428 0.672922372
4337129 0.237153172 0.660593271
4348929 0.237450197 0.658636391
4360829 0.24068512 0.646986007
4372629 0.241909816 0.64472866
4384529 0.243538856 0.631411731
4396329 0.242902636 0.631183922
4408129 0.246964186 0.618036329
4420029 0.244825989 0.615751743
4431829 0.247623518 0.604199588
4443729 0.246817544 0.60155189
4455529 0.248168915 0.587946057
4467429 0.244649276 0.588294565
4479229 0.249366581 0.574899315
4491029 0.243470042 0.572042047
4502929 0.247067347 0.561437189
4514729 0.24310027 0.55906248
4526629 0.244691208 0.545499205
4538429 0.238279491 0.546115875
4550329 0.243972033 0.532506048
4562129 0.234638124 0.53033477
4573929 0.238045588 0.520743608
4585829 0.232278883 0.518719017
4597629 0.233976528 0.505512773
4609529 0.224825128 0.506836771
4621329 0.230933189 0.493963152
4633229 0.218425586 0.491615831
4645029 0.222279652 0.483824193
4656829 0.214278399 0.481561392
4668729 0.215881183 0.469718426
4680529 0.204396903 0.471176981
4692429 0.210186123 0.460355192
4704229 0.195555239 0.457904011
4716129 0.199646577 0.452930241
4727929 0.189756482 0.45017746
4739729 0.19149214 0.440587908
4751629 0.17793329 0.441801518
4763429 0.184082031 0.433627963
4775329 0.168121099 0.431684046
4787129 0.172120094 0.428801864
4799029 0.161309733 0.426153212
4810829 0.1629799 0.418828159
4822729 0.148297831 0.420156866
4834572 0.153729081 0.413616895
4846372 0.13774234 0.413826048
4858172 0.141793131 0.411420017
4870072 0.130742654 0.410302042
4881872 0.13139227 0.404208421
4893772 0.117301732 0.40734601
4905572 0.122917942 0.403069019
4917472 0.106061376 0.402610749
4929272 0.111143343 0.403504133
4941072 0.098500251 0.401993662
4952972 0.101382605 0.398982614
4964772 0.085704289 0.401105642
4976672 0.092305578 0.400456964
4988472 0.076222695 0.399251043
5000372 0.081452451 0.402403533
5012172 0.068491108 0.400800079
5023972 0.073012508 0.400898069
5035872 0.056820597 0.401631593
5047672 0.064348116 0.405261635
5059572 0.049221057 0.402688443
5071372 0.054330829 0.407624244
5083272 0.041941132 0.406377792
5095072 0.047393068 0.408860504
5106872 0.031643912 0.408465176
5118772 0.039833061 0.415059298
5130572 0.026326572 0.411077022
5142472 0.031302891 0.418093979
5154272 0.01984323 0.416579365
5166172 0.026017177 0.420999675
5177972 0.011141978 0.419869333
5189772 0.019716737 0.429002225
5201672 0.007793674 0.423508852
5213472 0.012548736 0.432386845
5225372 0.002332046 0.43020007
5237172 0.009048436 0.436793267
5249072 -0.004167558 0.434205472
5260872 0.003546152 0.444746077
5272672 -0.005387194 0.439108937
5284572 -0.001841199 0.448624432
5296372 -0.009619315 0.445908784
5308272 -0.003459313 0.454204499
5320072 -0.014149759 0.450039237
5331972 -0.007615053 0.462232798
5343772 -0.014304472 0.455557525
5355572 -0.011324713 0.466163486
5367472 -0.0176071 0.462634116
5379272 -0.012034715 0.472353518
5391172 -0.020021976 0.46671015
5402972 -0.014798247 0.479791551
5414872 -0.019165774 0.472350388
5426672 -0.016603169 0.483580201
5438472 -0.021504832 0.479572236
5450372 -0.016315843 0.4901506
5462172 -0.02185525 0.483910262
5474072 -0.017913965 0.496849864
5485872 -0.019979193 0.489459723
5497772 -0.018721386 0.500904738
5509572 -0.021444657 0.49610573
5521372 -0.017652342 0.507216095
5533272 -0.020657071 0.500483095
5545072 -0.017990019 0.513284921
5556972 -0.018387898 0.505919098
5568772 -0.017942486 0.517382204
5580672 -0.018029673 0.512083947
5592472 -0.015682291 0.523136913
5604272 -0.016303196 0.516522169
5616172 -0.014290923 0.528015077
5627972 -0.013740826 0.52126193
5639872 -0.013611259 0.532257437
5651672 -0.012079701 0.526987433
5663572 -0.011346499 0.536853253
5675372 -0.009395728 0.531664252
5687172 -0.009100788 0.541329622
5699072 -0.006912219 0.535522043
5710872 -0.007476143 0.545658886
5722772 -0.003729649 0.540383756
5734572 -0.005032728 0.549309432
5746472 -0.000644134 0.545142054
5758272 -0.001707374 0.553129851
5770072 0.002122642 0.548393547
5781972 0.000491946 0.557789683
5793772 0.006151797 0.55255568
5805672 0.002996576 0.56060481
5817472 0.009833818 0.557546019
5829372 0.007642265 0.56365025
5841172 0.012562373 0.559870004
5852972 0.009832262 0.567858099
5864872 0.017697742 0.563458144
5876672 0.012818821 0.569788277
5888572 0.021229984 0.567944526
5900372 0.018209284 0.572453379
5912272 0.024412631 0.569416165
5924072 0.020829182 0.576115012
5935872 0.029994044 0.572822451
5947772 0.024242576 0.577459573
5959572 0.033550538 0.57696253
5971472 0.029863454 0.57979685
5983272 0.037378486 0.577833533
5995172 0.032471191 0.582849621
6006972 0.042957324 0.580840766
6018872 0.036553308 0.58352065
6030715 0.046440668 0.584342122
6042515 0.042600497 0.585371017
6054315 0.051015559 0.584650039
6066215 0.045222342 0.587675154
6078015 0.056664809 0.58767879
6089915 0.049810193 0.587602019
6101715 0.060042254 0.590474128
6113615 0.055748 0.589891552
6125415 0.064829595 0.590204656
6137215 0.058413423 0.591165065
6149115 0.070624306 0.593135654
6160915 0.063750527 0.590345442
6172815 0.073991104 0.595155715
6184615 0.06963063 0.592269182
6196515 0.078859314 0.594708919
6208315 0.072657033 0.593692421
6220115 0.084242463 0.597016036
6232015 0.077519953 0.592951893
6243815 0.087457492 0.597916245
6255715 0.082996338 0.594337284
6267515 0.092320628 0.597549855
6279415 0.086197867 0.594580411
6291215 0.097060337 0.599278271
6303015 0.09135288 0.593945205
6314915 0.100259475 0.599700272
6326715 0.09607812 0.595178127
6338615 0.1048325 0.599165141
6350415 0.099666871 0.594803512
6362315 0.109084226 0.600631475
6374115 0.104715138 0.59416449
6385915 0.112220361 0.600340366
6397815 0.10945405 0.59458667
6409615 0.117359735 0.599755167
6421515 0.113279961 0.593714416
6433315 0.121134176 0.600337684
6445215 0.118774294 0.592928528
6457015 0.1249253 0.599291801
6468815 0.12381789 0.592821419
6480715 0.129951447 0.598208904
6492515 0.128085434 0.59076333
6504415 0.133920937 0.59804356
6516215 0.13360688 0.589580833
6528115 0.138190895 0.596613287
6539915 0.138562053 0.588886201
6551715 0.143228977 0.59487307
6563615 0.142844974 0.586309313
6575415 0.146898522 0.593923151
6587315 0.148493215 0.584536254
6599115 0.150801181 0.592085301
6611015 0.153191581 0.583404004
6622815 0.155878722 0.589970946
6634615 0.15743722 0.580821454
6646515 0.159821555 0.588384151
6658315 0.162753865 0.579002737
6670215 0.163491681 0.586019814
6682015 0.167490825 0.577108204
6693915 0.168207138 0.58376789
6705715 0.171828418 0.574672102
6717515 0.171923175 0.581893444
6729415 0.176728874 0.572467029
6741215 0.175674676 0.579487442
6753115 0.181311577 0.570617258
6764915 0.179962158 0.576809287
6776815 0.185528874 0.567945003
6788615 0.183791428 0.574188768
6800415 0.190131768 0.565506517
6812315 0.187720954 0.571368396
6824115 0.194816634 0.563226282
6836015 0.191908836 0.568554639
6847815 0.199137419 0.560592114
6859715 0.196045801 0.565384268
6871515 0.20328249 0.557759881
6883315 0.199361085 0.562413632
6895215 0.20790717 0.554935812
6907015 0.203393891 0.558740019
6918915 0.212011381 0.552030563
6930715 0.207590758 0.555110991
6942615 0.215762943 0.548803448
6954415 0.211221456 0.552084803
6966215 0.220721155 0.546168506
6978115 0.214903622 0.547784268
6989915 0.224714756 0.542702972
7001815 0.218597665 0.543732881
7013615 0.228322118 0.539049804
7025515 0.222174555 0.540290117
7037315 0.232954323 0.535906136
7049115 0.226293101 0.53528124
7061015 0.236285716 0.532135128
7072815 0.229696065 0.531043887
7084715 0.239946559 0.527932167
7096515 0.23306486 0.52688378
7108415 0.244343176 0.523873925
7120215 0.236561924 0.521023094
7132015 0.247099131 0.519964456
7143915 0.240374565 0.516499161
7155715 0.25065571 0.515202105
7167615 0.24317485 0.511788547
7179415 0.25418511 0.510921061
7191315 0.246401563 0.505626142
7203115 0.256985187 0.506427586
7215015 0.250116646 0.500707805
7226858 0.252485513 0.503116071
7238658 0.261434137 0.49408856
7250458 0.25533542 0.498116433
7262358 0.263559043 0.487036108
7274158 0.257625162 0.491592586
7286058 0.26564449 0.481545001
7297858 0.26059392 0.48624143
7309758 0.269655704 0.477136552
7321558 0.261537045 0.479354083
7333358 0.272612869 0.472546309
7345258 0.264375537 0.473245501
7357058 0.273773133 0.464696079
7368958 0.267037361 0.46797505
7380758 0.275714129 0.458091378
