# Hz S RI R 50
50000 1.000167727 -0.032493721
61800 0.996579647 -0.040877345
73600 0.995828747 -0.049333114
85500 0.994443833 -0.056617885
97300 0.994217872 -0.063985526
109200 0.993756294 -0.0720243
121000 0.99298501 -0.079921528
132900 0.991796255 -0.088010057
144700 0.991020917 -0.09614145
156500 0.988289475 -0.103780388
168400 0.986850023 -0.111030973
180200 0.98505181 -0.118582665
192100 0.983056545 -0.127343505
203900 0.978774964 -0.135129153
215800 0.973440706 -0.138951539
227600 0.970865905 -0.140801995
239400 0.972774565 -0.143817245
251300 0.975244224 -0.15117754
263100 0.975539267 -0.158658429
275000 0.974924683 -0.166172713
286800 0.973811209 -0.174175381
298700 0.972446441 -0.181430906
310500 0.970777034 -0.187774762
322300 0.96898359 -0.195098161
334200 0.967888951 -0.201521888
346000 0.966068744 -0.208825796
357900 0.964663565 -0.215271815
369700 0.962971687 -0.22188659
381600 0.961132884 -0.229051545
393400 0.959503173 -0.235635131
405200 0.957923769 -0.242062658
417100 0.955969214 -0.248898372
428900 0.954516589 -0.255757153
440800 0.952862262 -0.262393504
452600 0.950482904 -0.269082397
464500 0.948868691 -0.276071578
476300 0.946764767 -0.282892644
488100 0.944356441 -0.289774119
500000 0.942220985 -0.29646036
511800 0.939898192 -0.303231
523700 0.937375783 -0.31014198
535500 0.934670269 -0.316845715
547400 0.932090103 -0.323501557
559200 0.929083287 -0.329970806
571000 0.926010012 -0.335977405
582900 0.92366743 -0.34239453
594700 0.920305311 -0.348340332
606600 0.918335855 -0.354171782
618400 0.915684401 -0.360262572
630300 0.912927448 -0.366532504
642100 0.910777568 -0.372823417
653900 0.908120453 -0.379328101
665800 0.904998481 -0.385467916
677600 0.902600228 -0.391848921
689500 0.899566709 -0.398380964
701300 0.896345198 -0.404583275
713200 0.89339441 -0.410823345
725000 0.890205919 -0.417226374
736800 0.886690318 -0.423245042
748700 0.883450984 -0.428980171
760500 0.880253434 -0.435688644
772400 0.87641859 -0.441625446
784200 0.873095154 -0.447260946
796100 0.869417667 -0.45349875
807900 0.865426361 -0.459222108
819700 0.862309515 -0.464776813
831600 0.858356893 -0.47044292
843400 0.85453087 -0.476012557
855300 0.851090848 -0.481128066
867100 0.847305119 -0.486739754
879000 0.84347403 -0.491982996
890800 0.84027481 -0.497141391
902600 0.837284862 -0.502429962
914500 0.833286464 -0.507994234
926300 0.830031812 -0.51313281
938200 0.826673567 -0.519168794
950000 0.822812974 -0.524434745
961900 0.819160759 -0.529774606
973700 0.81566137 -0.535536229
985500 0.811751246 -0.541166782
997400 0.807512402 -0.546567559
1009200 0.803958654 -0.551927983
1021100 0.799771606 -0.557462453
1032900 0.795659899 -0.562681615
1044800 0.79194796 -0.568055629
1056600 0.787673115 -0.574062764
1068400 0.78329885 -0.578734815
1080300 0.779067814 -0.584219098
1092100 0.774437963 -0.589751958
1104000 0.769873201 -0.594412982
1115800 0.765659511 -0.599539756
1127700 0.760719656 -0.604814887
1139500 0.756181716 -0.60949552
1151300 0.751846849 -0.614075839
1163200 0.746815919 -0.619329094
1175000 0.742306053 -0.623290359
1186900 0.738080024 -0.628194391
1198700 0.732942402 -0.63282299
1210600 0.72824347 -0.637028038
1222400 0.72396624 -0.641546428
1234300 0.718994498 -0.645850598
1246143 0.714299917 -0.650042593
1257943 0.710598468 -0.654366433
1269743 0.705737888 -0.658629894
1281643 0.701165676 -0.662573635
1293443 0.697075605 -0.666791498
1305343 0.692246198 -0.671244561
1317143 0.687716603 -0.675500929
1329043 0.6834625 -0.679856359
1340843 0.678619742 -0.684267938
1352643 0.673975825 -0.688527584
1364543 0.668983399 -0.692949354
1376343 0.664331555 -0.69756031
1388243 0.659353256 -0.70137763
1400043 0.654832005 -0.705880343
1411943 0.649542033 -0.710427343
1423743 0.644089818 -0.714067876
1435543 0.63919568 -0.717862308
1447443 0.634150683 -0.721792995
1459243 0.628989279 -0.725730836
1471143 0.624043405 -0.729602694
1482943 0.618660807 -0.733543872
1494843 0.61319983 -0.736724495
1506643 0.608432888 -0.740504622
1518443 0.603332877 -0.744255363
1530343 0.597859859 -0.74788767
1542143 0.592919468 -0.750985741
1554043 0.587667405 -0.75483781
1565843 0.582099616 -0.758285105
1577743 0.576854228 -0.761443734
1589543 0.571798861 -0.76484096
1601343 0.566479265 -0.768059611
1613243 0.561228811 -0.771142423
1625043 0.555831313 -0.77474451
1636943 0.550312936 -0.777532875
1648743 0.545165777 -0.780390441
1660643 0.539981067 -0.783986806
1672443 0.534514546 -0.787068426
1684243 0.528866052 -0.790169596
1696143 0.523579061 -0.792736589
1707943 0.517810046 -0.795737504
1719843 0.512743592 -0.79820007
1731643 0.50731945 -0.801131486
1743543 0.501890897 -0.803780019
1755343 0.49643886 -0.806098043
1767143 0.491266131 -0.808753132
1779043 0.485949993 -0.81152594
1790843 0.480563521 -0.813746869
1802743 0.475232183 -0.816568791
1814543 0.469970077 -0.818839848
1826443 0.46465674 -0.821398556
1838243 0.459274828 -0.823907017
1850043 0.453727751 -0.82628411
1861943 0.448447883 -0.828276276
1873743 0.443622857 -0.831123352
1885643 0.437684834 -0.83336097
1897443 0.432301104 -0.83551836
1909343 0.427023172 -0.837278425
1921143 0.421740055 -0.840168654
1932943 0.416448682 -0.841873407
1944843 0.410879015 -0.844493031
1956643 0.405406355 -0.846669197
1968543 0.39986366 -0.848392307
1980343 0.39460507 -0.850489437
1992243 0.388969093 -0.853012979
2004043 0.383314847 -0.854633212
2015843 0.378019154 -0.856612801
2027743 0.372235059 -0.858544051
2039543 0.36678493 -0.860307097
2051443 0.361584067 -0.862029194
2063243 0.355655401 -0.863986849
2075143 0.349960446 -0.865719437
2086943 0.344734966 -0.867179334
2098743 0.33912459 -0.868891179
2110643 0.333496958 -0.870468378
2122443 0.328008264 -0.871623218
2134343 0.322415709 -0.873097717
2146143 0.316930711 -0.874477446
2158043 0.311373561 -0.875791788
2169843 0.305905938 -0.87711668
2181643 0.300245702 -0.877985
2193543 0.295101106 -0.879266142
2205343 0.28957957 -0.880479276
2217243 0.284269779 -0.881671249
2229043 0.27857396 -0.882675111
2240943 0.273244708 -0.883760452
2252743 0.267658025 -0.884751737
2264543 0.262880891 -0.885823845
2276443 0.256860822 -0.886956393
2288243 0.25185278 -0.888087213
2300143 0.246119216 -0.888774096
2311943 0.240952596 -0.889731287
2323843 0.235350474 -0.890591681
2335643 0.230458259 -0.891716957
2347443 0.22461526 -0.892544567
2359343 0.219686612 -0.893298149
2371143 0.213689804 -0.894042491
2383043 0.208901539 -0.894959211
2394843 0.203029125 -0.895698666
2406743 0.197896644 -0.896618008
2418543 0.192030549 -0.896910548
2430443 0.186997175 -0.897877871
2442286 0.181160479 -0.898280441
2454086 0.176283136 -0.898934245
2465886 0.170028254 -0.899485945
2477786 0.164970383 -0.899973273
2489586 0.159094765 -0.90006572
2501486 0.154159501 -0.900637686
2513286 0.148487791 -0.900693416
2525186 0.143226295 -0.901234388
2536986 0.137289658 -0.901096224
2548786 0.132483959 -0.901577055
2560686 0.126706883 -0.901472926
2572486 0.121723547 -0.901732385
2584386 0.11583507 -0.901465117
2596186 0.110731527 -0.901593387
2608086 0.105558566 -0.901360929
2619886 0.1002075 -0.901389956
2631686 0.095003113 -0.901154518
2643586 0.089703939 -0.900804579
2655386 0.08471366 -0.900784432
2667286 0.07932078 -0.900826692
2679086 0.074496857 -0.90065068
2690986 0.068866811 -0.900229334
2702786 0.064373597 -0.900419771
2714586 0.058644935 -0.899766266
2726486 0.054057441 -0.900084674
2738286 0.048316847 -0.899238646
2750186 0.044077094 -0.899471521
2761986 0.038211308 -0.898517549
2773886 0.033623792 -0.898692905
2785686 0.027713935 -0.897640943
2797486 0.023374667 -0.897725999
2809386 0.017378276 -0.896921694
2821186 0.013114019 -0.897052586
2833086 0.007033475 -0.895782709
2844886 0.002950452 -0.896053969
2856786 -0.003230722 -0.894497871
2868586 -0.007185666 -0.894593417
2880386 -0.013490323 -0.892890453
2892286 -0.017381247 -0.893122136
2904086 -0.023225968 -0.891327679
2915986 -0.027408912 -0.891628921
2927786 -0.033165138 -0.889949381
2939686 -0.037604723 -0.890000045
2951486 -0.043484866 -0.888301253
2963286 -0.047308161 -0.888055562
2975186 -0.053025193 -0.886485636
2986986 -0.057057563 -0.886215925
2998886 -0.062896832 -0.884439349
3010686 -0.067086994 -0.884451031
3022586 -0.072867803 -0.882402002
3034386 -0.076758407 -0.882120668
3046186 -0.082462891 -0.880618155
3058086 -0.086584649 -0.879836499
3069886 -0.092466972 -0.877944052
3081786 -0.096392557 -0.877876996
3093586 -0.102397747 -0.875485718
3105486 -0.106112807 -0.874755978
3117286 -0.111589856 -0.872867643
3129086 -0.115731619 -0.872318506
3140986 -0.121485285 -0.869897484
3152786 -0.124965451 -0.869389593
3164686 -0.130999594 -0.867259919
3176486 -0.134265422 -0.866152346
3188386 -0.140122443 -0.86441183
3200186 -0.143831074 -0.863746523
3211986 -0.149603992 -0.860731899
3223886 -0.152636811 -0.8603971
3235686 -0.158696725 -0.858029663
3247586 -0.162179172 -0.856972396
3259386 -0.167657464 -0.854892253
3271286 -0.171581462 -0.853968739
3283086 -0.177374079 -0.85084933
3294886 -0.179615467 -0.850095868
3306786 -0.18610838 -0.848132848
3318586 -0.189229577 -0.846525132
3330486 -0.194844827 -0.844276845
3342286 -0.1982771 -0.843449234
3354186 -0.204161986 -0.840096652
3365986 -0.206266298 -0.839056015
3377786 -0.212732031 -0.837406992
3389686 -0.215773418 -0.835000455
3401486 -0.221436336 -0.83293718
3413386 -0.224379405 -0.831509649
3425186 -0.230740487 -0.828422725
3437086 -0.232184201 -0.826587975
3448886 -0.238814264 -0.825105726
3460686 -0.241898581 -0.822483718
3472586 -0.247196301 -0.820077598
3484386 -0.249780535 -0.818183362
3496286 -0.256077319 -0.815600931
3508086 -0.25719887 -0.812529742
3519986 -0.263326346 -0.811944901
3531786 -0.266485631 -0.808605015
3543586 -0.27153635 -0.806762814
3555486 -0.273769915 -0.804277718
3567286 -0.280097305 -0.802179813
3579186 -0.281251549 -0.798211038
3590986 -0.287079691 -0.798746466
3602886 -0.290542304 -0.794092893
3614686 -0.295198589 -0.792936503
3626586 -0.297339737 -0.789251327
3638429 -0.303254932 -0.788658738
3650229 -0.305138289 -0.78307861
3662029 -0.309880673 -0.784336209
3673929 -0.313669383 -0.778852522
3685729 -0.318247199 -0.778467714
3697629 -0.320529699 -0.773745179
3709429 -0.326101273 -0.773683428
3721329 -0.32832086 -0.767260551
3733129 -0.331986546 -0.769094109
3744929 -0.336639493 -0.762989521
3756829 -0.339736878 -0.762751698
3768629 -0.343215525 -0.757237076
3780529 -0.347612589 -0.758040428
3792329 -0.350756317 -0.750536382
3804229 -0.353496134 -0.752988457
3816029 -0.358805 -0.745955288
3827829 -0.360841095 -0.746310055
3839729 -0.364694356 -0.7399742
3851529 -0.367921024 -0.741281509
3863429 -0.372189581 -0.733093321
3875229 -0.37342146 -0.735652863
3887129 -0.379644989 -0.728151082
3898929 -0.380456864 -0.728928387
3910729 -0.385525465 -0.722035586
3922629 -0.38714829 -0.723427236
3934429 -0.392463654 -0.715299367
3946329 -0.392365157 -0.71765244
3958129 -0.399302095 -0.710524618
3970029 -0.399272531 -0.710532128
3981829 -0.405078172 -0.704164505
3993629 -0.405303806 -0.704771995
4005529 -0.411638289 -0.697335243
4017329 -0.41034922 -0.698349297
4029229 -0.41810584 -0.692475616
4041029 -0.417089015 -0.691102027
4052929 -0.423588037 -0.685547769
4064729 -0.422810256 -0.684719026
4076529 -0.429942876 -0.678880155
4088429 -0.427351802 -0.678484439
4100229 -0.436128497 -0.673464953
4112129 -0.433587819 -0.670761048
4123929 -0.441239088 -0.666374504
4135829 -0.439290434 -0.664373517
4147629 -0.446614474 -0.659650862
4159429 -0.443588316 -0.65744239
4171329 -0.452405929 -0.653918206
4183129 -0.449593365 -0.649637043
4195029 -0.456942945 -0.647052466
4206829 -0.454741001 -0.642959535
4218729 -0.462025403 -0.640083134
4230529 -0.458915203 -0.63651055
4242329 -0.467375248 -0.633897662
4254229 -0.464663803 -0.628130376
4266029 -0.471332848 -0.626931786
4277929 -0.46965456 -0.621198713
4289729 -0.475751876 -0.619980156
4301629 -0.473466336 -0.614435613
4313429 -0.481029838 -0.613532304
4325229 -0.478844553 -0.605965435
4337129 -0.484515547 -0.606351137
4348929 -0.483278751 -0.598993062
4360829 -0.48836717 -0.598594069
4372629 -0.486936986 -0.592034995
4384529 -0.493204712 -0.59229058
4396329 -0.49169445 -0.583436727
4408129 -0.495356291 -0.585035145
4420029 -0.496094644 -0.576723873
4431829 -0.499050348 -0.577330291
4443729 -0.499016672 -0.569388747
4455529 -0.503391683 -0.57108885
4467429 -0.503488123 -0.560771465
4479229 -0.505326271 -0.563545048
4491029 -0.507731795 -0.554395675
4502929 -0.508653044 -0.554928958
4514729 -0.509853124 -0.546914279
4526629 -0.512407243 -0.548581838
4538429 -0.513855516 -0.538033008
4550329 -0.513258039 -0.541490197
4562129 -0.517763078 -0.531864166
4573929 -0.516762554 -0.532290756
4585829 -0.519174993 -0.524138092
4597629 -0.519377052 -0.526473701
4609529 -0.522731184 -0.515582323
4621329 -0.519914805 -0.518817663
4633229 -0.526371777 -0.509834229
4645029 -0.523252069 -0.509169578
4656829 -0.526987671 -0.501923084
4668729 -0.525414288 -0.503559231
4680529 -0.530550837 -0.493668615
4692429 -0.525857865 -0.495456159
4704229 -0.533548355 -0.487943232
4716129 -0.528892934 -0.485742092
4727929 -0.533176064 -0.47961083
4739729 -0.53019309 -0.480429053
4751629 -0.536566853 -0.471826732
4763429 -0.530292153 -0.471439838
4775329 -0.538629531 -0.465982079
4787129 -0.533479928 -0.461938619
4799029 -0.537699043 -0.457731187
4810829 -0.533542156 -0.456753641
4822729 -0.541144907 -0.450387239
4834572 -0.533845484 -0.447685986
4846372 -0.5418756 -0.444690138
4858172 -0.536518216 -0.438529789
4870072 -0.540637969 -0.436038702
4881872 -0.535854816 -0.432664185
4893772 -0.543540537 -0.429104775
4905572 -0.535624563 -0.423478364
4917472 -0.543720483 -0.423183947
4929272 -0.53792864 -0.415297716
4941072 -0.542047739 -0.414496451
4952972 -0.536885321 -0.40914914
4964772 -0.543823361 -0.408319026
4976672 -0.536934018 -0.399801433
4988472 -0.542823255 -0.401927471
5000372 -0.538341045 -0.392099171
5012172 -0.541722655 -0.393160879
5023972 -0.536337971 -0.385603278
5035872 -0.542243063 -0.387653321
5047672 -0.537049174 -0.376993775
5059572 -0.539855003 -0.380714803
5071372 -0.536985039 -0.369885504
5083272 -0.539014995 -0.372556179
5095072 -0.534668922 -0.363224238
5106872 -0.538873791 -0.367765337
5118772 -0.535306572 -0.354704886
5130572 -0.535514354 -0.360016018
5142472 -0.53431338 -0.3491427
5154272 -0.534938275 -0.352415025
5166172 -0.531431496 -0.341725856
5177972 -0.533630609 -0.347860366
5189772 -0.532290756 -0.333916902
5201672 -0.530089616 -0.339969068
5213472 -0.530321002 -0.329050034
5225372 -0.529400765 -0.332747876
5237172 -0.527751863 -0.321674406
5249072 -0.526997268 -0.328583061
5260872 -0.528410971 -0.314578682
5272672 -0.522789239 -0.320090025
5284572 -0.52524352 -0.310168504
5296372 -0.522356033 -0.31404969
5308272 -0.522394001 -0.302480131
5320072 -0.518630385 -0.309465795
5331972 -0.522609233 -0.296488672
5343772 -0.514664888 -0.300932824
5355572 -0.51887387 -0.29233551
5367472 -0.513524532 -0.295920968
5379272 -0.515833735 -0.28479883
5391172 -0.509141862 -0.291302561
5402972 -0.51513195 -0.279606163
5414872 -0.50534439 -0.282840937
5426672 -0.510290086 -0.275713235
5438472 -0.503655672 -0.278541237
5450372 -0.507833778 -0.268752694
5462172 -0.498548984 -0.273789227
5474072 -0.506364822 -0.264120817
5485872 -0.49462828 -0.266091763
5497772 -0.501032352 -0.2604402
5509572 -0.492722004 -0.262204051
5521372 -0.498162418 -0.254276275
5533272 -0.48720467 -0.257492184
5545072 -0.495974004 -0.250223755
5556972 -0.483008921 -0.250874817
5568772 -0.49038887 -0.247014269
5580672 -0.480877608 -0.247358053
5592472 -0.487418413 -0.241562068
5604272 -0.475761085 -0.242458298
5616172 -0.483936786 -0.237862318
5627972 -0.471509099 -0.236974671
5639872 -0.479110866 -0.235073208
5651672 -0.46830821 -0.233387351
5663572 -0.475037217 -0.230524525
5675372 -0.463986754 -0.2289135
5687172 -0.470826804 -0.227429151
5699072 -0.459105044 -0.224550575
5710872 -0.466070234 -0.224969208
5722772 -0.455363988 -0.220909208
5734572 -0.461935639 -0.221655264
5746472 -0.451210618 -0.217004537
5758272 -0.457167118 -0.218332096
5770072 -0.446162462 -0.213698208
5781972 -0.452761441 -0.216605857
5793772 -0.442018181 -0.210139766
5805672 -0.447609931 -0.214537546
5817472 -0.438382536 -0.207053571
5829372 -0.442875117 -0.21078515
5841172 -0.432837188 -0.204654425
5852972 -0.438664346 -0.209691658
5864872 -0.428711175 -0.201064869
5876672 -0.43280518 -0.208194032
5888572 -0.425754129 -0.198933362
5900372 -0.427745461 -0.204821676
5912272 -0.419115573 -0.197376325
5924072 -0.423526763 -0.204497456
5935872 -0.415664494 -0.194300293
5947772 -0.417450249 -0.203786015
5959572 -0.412795871 -0.193071171
5971472 -0.412387073 -0.200630307
5983272 -0.40586102 -0.191808536
5995172 -0.408342331 -0.201564982
6006972 -0.402457624 -0.189239561
6018872 -0.401853203 -0.201048031
6030715 -0.399779438 -0.189377769
6042515 -0.3971439 -0.198305577
6054315 -0.393092662 -0.188519701
6066215 -0.3928231 -0.19994165
6078015 -0.390170365 -0.186693504
6089915 -0.386245995 -0.199336484
6101715 -0.386834144 -0.187827602
6113615 -0.382067561 -0.197422757
6125415 -0.380820363 -0.187236845
6137215 -0.377360284 -0.199813142
6149115 -0.378346562 -0.18599072
6160915 -0.371135115 -0.199625924
6172815 -0.374631911 -0.187847301
6184615 -0.367769509 -0.198540285
6196515 -0.368503987 -0.188251361
6208315 -0.363306105 -0.201375186
6220115 -0.366335153 -0.188320621
6232015 -0.357008516 -0.201452404
6243815 -0.36266002 -0.19085142
6255715 -0.354032516 -0.201469063
6267515 -0.357415974 -0.191533148
6279415 -0.349672526 -0.204514607
6291215 -0.355197787 -0.192802071
6303015 -0.344192117 -0.204447224
6314915 -0.351228982 -0.196220427
6326715 -0.341322004 -0.205697834
6338615 -0.346684724 -0.197219401
6350415 -0.336575776 -0.208511069
6362315 -0.344646096 -0.199464902
6374115 -0.331990599 -0.209244683
6385915 -0.340670675 -0.203070476
6397815 -0.329605937 -0.210751116
6409615 -0.33665958 -0.204224124
6421515 -0.324722886 -0.21353273
6433315 -0.334477156 -0.207154154
6445215 -0.320898711 -0.214169874
6457015 -0.331032752 -0.210912734
6468815 -0.318571239 -0.21614632
6480715 -0.327470839 -0.212145373
6492515 -0.313989192 -0.218595907
6504415 -0.325291663 -0.215909451
6516215 -0.310833811 -0.21948558
6528115 -0.321941047 -0.219216138
6539915 -0.308520048 -0.221581473
6551715 -0.319255739 -0.220946609
6563615 -0.304060816 -0.224004358
6575415 -0.317018955 -0.224990814
6587315 -0.301682651 -0.225606083
6599115 -0.313412636 -0.228428974
6611015 -0.299759835 -0.228493541
6622815 -0.310876667 -0.230710059
6634615 -0.29613167 -0.230548456
6646515 -0.308438092 -0.234800755
6658315 -0.293973058 -0.232574656
6670215 -0.305768966 -0.238462328
6682015 -0.292266607 -0.2356451
6693915 -0.303170084 -0.24138318
6705715 -0.289287954 -0.238543272
6717515 -0.300814509 -0.245916336
6729415 -0.287505209 -0.241278588
6741215 -0.298238277 -0.249944433
6753115 -0.286289662 -0.244438335
6764915 -0.296301424 -0.253041148
6776815 -0.28377369 -0.247711688
6788615 -0.2941657 -0.257531255
6800415 -0.282620698 -0.250987976
6812315 -0.291590452 -0.261805832
6824115 -0.281651765 -0.254580438
6836015 -0.289711773 -0.265728622
6847815 -0.280210644 -0.258114308
6859715 -0.287799835 -0.270323336
6871515 -0.279418915 -0.262028515
6883315 -0.286112695 -0.274958431
6895215 -0.279210001 -0.265911728
6907015 -0.284339964 -0.279065549
6918915 -0.278305113 -0.269728839
6930715 -0.282604575 -0.283713579
6942615 -0.277567744 -0.274067461
6954415 -0.281775265 -0.28887093
6966215 -0.277977705 -0.278034955
6978115 -0.280476123 -0.293233841
6989915 -0.277730166 -0.282726138
7001815 -0.279187679 -0.297817349
7013615 -0.277588427 -0.287688761
7025515 -0.278997689 -0.30294606
7037315 -0.278460532 -0.291858494
7049115 -0.277496188 -0.307491332
7061015 -0.278796166 -0.297002106
7072815 -0.277156203 -0.312412381
7084715 -0.279342979 -0.302270352
7096515 -0.27773869 -0.317413598
7108415 -0.280625283 -0.30680871
7120215 -0.276816517 -0.322062164
7132015 -0.281904757 -0.312503993
7143915 -0.277172774 -0.326622813
7155715 -0.283207654 -0.317729353
