# Hz S RI R 50
50000 -0.981738567 0.010133946
61800 -0.982248604 0.013755162
73600 -0.982294857 0.017230067
85500 -0.98200494 0.020240627
97300 -0.981820344 0.023217763
109200 -0.981737971 0.026361467
121000 -0.981729209 0.029165295
132900 -0.981542944 0.032262243
144700 -0.981574237 0.035324361
156500 -0.98109132 0.038037441
168400 -0.980868637 0.040906958
180200 -0.980588793 0.043939832
192100 -0.980465829 0.046482205
203900 -0.98015964 0.04945087
215800 -0.980078637 0.052278395
227600 -0.979638993 0.055043887
239400 -0.979490935 0.057761706
251300 -0.979333162 0.060526151
263100 -0.978883981 0.06333933
275000 -0.978589832 0.065995909
286800 -0.978442251 0.06869892
298700 -0.978068232 0.071534536
310500 -0.977864801 0.074115499
322300 -0.977719843 0.076940193
334200 -0.97711414 0.079612135
346000 -0.976909339 0.08235564
357900 -0.97669506 0.085187308
369700 -0.97641164 0.087861955
381600 -0.975845873 0.090538956
393400 -0.975499629 0.093358613
405200 -0.975227236 0.095914192
417100 -0.974774658 0.09874396
428900 -0.974456548 0.101344563
440800 -0.974088847 0.104049362
452600 -0.973425388 0.106915988
464500 -0.97320789 0.109511904
476300 -0.972861409 0.112152926
488100 -0.972510397 0.11503598
500000 -0.972119152 0.117543071
511800 -0.971646904 0.120449692
523700 -0.971196651 0.123126953
535500 -0.970771729 0.12564969
547400 -0.970401704 0.128163859
559200 -0.969842731 0.131236791
571000 -0.969481527 0.133684992
582900 -0.968981921 0.136389464
594700 -0.968367218 0.139076486
606600 -0.967851459 0.141563862
618400 -0.96737957 0.144437953
630300 -0.967000544 0.147157475
642100 -0.966475486 0.149868577
653900 -0.965992867 0.152507886
665800 -0.9651317 0.155231565
677600 -0.965049028 0.157998636
689500 -0.964315414 0.160569459
701300 -0.963545441 0.163499712
713200 -0.963294327 0.165842413
725000 -0.962881565 0.168566137
736800 -0.962040901 0.171517446
748700 -0.961586475 0.173955187
760500 -0.960834741 0.176763385
772400 -0.96020317 0.179633557
784200 -0.959718525 0.181924536
796100 -0.95906043 0.184689432
807900 -0.958548724 0.187588214
819700 -0.957852363 0.190257012
831600 -0.957064509 0.192958831
843400 -0.956739008 0.195518195
855300 -0.956117928 0.198183789
867100 -0.955137133 0.200819686
879000 -0.954607427 0.20357801
890800 -0.953995823 0.206365644
902600 -0.95307064 0.209048271
914500 -0.952434599 0.211578547
926300 -0.951835215 0.214100956
938200 -0.951228559 0.217171594
950000 -0.950382769 0.219682633
961900 -0.949569225 0.222436323
973700 -0.948923051 0.225323066
985500 -0.948027253 0.227923795
997400 -0.947109282 0.230656772
1009200 -0.946706116 0.23319216
1021100 -0.945714354 0.236052423
1032900 -0.944960117 0.238780528
1044800 -0.944235086 0.24137704
1056600 -0.94359225 0.24416922
1068400 -0.942366003 0.246874943
1080300 -0.941839993 0.249458551
1092100 -0.941032171 0.252250373
1104000 -0.940070748 0.255100876
1115800 -0.939410388 0.257666498
1127700 -0.938433647 0.260415613
1139500 -0.93741405 0.263284325
1151300 -0.936565458 0.265831649
1163200 -0.935581445 0.268644124
1175000 -0.934893369 0.271552294
1186900 -0.933820903 0.274098455
1198700 -0.932948589 0.276684939
1210600 -0.932191729 0.279408872
1222400 -0.93123579 0.282337069
1234300 -0.930027842 0.285131007
1246143 -0.92919135 0.287722498
1257943 -0.928242504 0.290264725
1269743 -0.927300453 0.293084949
1281643 -0.926466643 0.295804947
1293443 -0.92541182 0.298505216
1305343 -0.924372494 0.301421463
1317143 -0.923355102 0.303660333
1329043 -0.922297418 0.306996703
1340843 -0.920999586 0.309656381
1352643 -0.919868767 0.312533289
1364543 -0.918978393 0.315322309
1376343 -0.917681515 0.317940294
1388243 -0.916609466 0.320633709
1400043 -0.915545344 0.323500066
1411943 -0.9146654 0.326105922
1423743 -0.913296341 0.328884959
1435543 -0.912414491 0.331688106
1447443 -0.91110301 0.334365367
1459243 -0.910092413 0.337194055
1471143 -0.908849596 0.340082466
1482943 -0.907788753 0.342914104
1494843 -0.90646547 0.345550209
1506643 -0.905238091 0.348650813
1518443 -0.903903961 0.351349949
1530343 -0.902504205 0.354094475
1542143 -0.90135312 0.356757164
1554043 -0.900024652 0.359627097
1565843 -0.898908972 0.362128943
1577743 -0.897523403 0.365035176
1589543 -0.896401166 0.36784473
1601343 -0.894894778 0.37070021
1613243 -0.893641471 0.373431622
1625043 -0.892205297 0.376325935
1636943 -0.891011953 0.37923634
1648743 -0.889504015 0.381998062
1660643 -0.888028383 0.3850739
1672443 -0.88664925 0.38777408
1684243 -0.885493516 0.390623778
1696143 -0.883931457 0.393316715
1707943 -0.882407426 0.39629352
1719843 -0.880809366 0.398979902
1731643 -0.879262208 0.401849031
1743543 -0.877765476 0.40450558
1755343 -0.876264214 0.407357454
1767143 -0.874860584 0.410098791
1779043 -0.873314619 0.413001149
1790843 -0.871813237 0.415600389
1802743 -0.870090305 0.4186275
1814543 -0.868708789 0.421619594
1826443 -0.867059111 0.424387872
1838243 -0.865593373 0.427344024
1850043 -0.863803923 0.430197924
1861943 -0.862305939 0.433245241
1873743 -0.860654652 0.435953915
1885643 -0.858833849 0.439047455
1897443 -0.857211887 0.441701263
1909343 -0.855410993 0.444813102
1921143 -0.853704154 0.447434544
1932943 -0.851827204 0.450204014
1944843 -0.850198686 0.453175634
1956643 -0.848452329 0.456148743
1968543 -0.84659636 0.458907097
1980343 -0.844779908 0.461863398
1992243 -0.842936992 0.464649558
2004043 -0.840982377 0.467691123
2015843 -0.839233517 0.47039318
2027743 -0.837214469 0.473472297
2039543 -0.835408091 0.476131081
2051443 -0.833478331 0.479147642
2063243 -0.831783294 0.482137471
2075143 -0.829781591 0.485147833
2086943 -0.82788074 0.488084614
2098743 -0.825875997 0.490800946
2110643 -0.823918819 0.493907153
2122443 -0.821589946 0.496637493
2134343 -0.819693505 0.499765038
2146143 -0.817638337 0.502534747
2158043 -0.81542164 0.50553441
2169843 -0.813274383 0.50839138
2181643 -0.811085999 0.511349797
2193543 -0.808962523 0.514164865
2205343 -0.806554436 0.517144322
2217243 -0.80435574 0.520188808
2229043 -0.801998138 0.523027956
2240943 -0.799800097 0.525721967
2252743 -0.797423183 0.528894066
2264543 -0.795368731 0.531567037
2276443 -0.792787909 0.534541845
2288243 -0.790711462 0.537443876
2300143 -0.787934958 0.54051274
2311943 -0.785628616 0.54327917
2323843 -0.783244788 0.546339273
2335643 -0.780921578 0.549177885
2347443 -0.778187692 0.552200853
2359343 -0.775951385 0.555162489
2371143 -0.773197352 0.558235466
2383043 -0.770850598 0.561324357
2394843 -0.768134415 0.564234852
2406743 -0.765659213 0.56717509
2418543 -0.762686669 0.570153951
2430443 -0.760126948 0.573121786
2442286 -0.757183432 0.575996637
2454086 -0.754662394 0.578824996
2465886 -0.751735687 0.581807196
2477786 -0.748984694 0.584785044
2489586 -0.746055781 0.587638139
2501486 -0.743460237 0.590828895
2513286 -0.740303933 0.59390366
2525186 -0.737607359 0.596796989
2536986 -0.734480977 0.599542796
2548786 -0.731455683 0.60270673
2560686 -0.728283047 0.605532944
2572486 -0.725278258 0.608648896
2584386 -0.721846759 0.611427843
2596186 -0.718989074 0.614344656
2608086 -0.715752065 0.617022097
2619886 -0.712517023 0.619921624
2631686 -0.709437251 0.622871339
2643586 -0.706008315 0.625842034
2655386 -0.702906012 0.62888354
2667286 -0.699518263 0.631896793
2679086 -0.69631505 0.634908854
2690986 -0.692548692 0.637785494
2702786 -0.689260363 0.640677154
2714586 -0.685566127 0.643290758
2726486 -0.682350158 0.646315157
2738286 -0.678533434 0.649022042
2750186 -0.675073623 0.652043342
2761986 -0.671224176 0.654712796
2773886 -0.66780132 0.657836079
2785686 -0.66399151 0.660309731
2797486 -0.66023463 0.663334548
2809386 -0.656297862 0.666161477
2821186 -0.65271908 0.668887674
2833086 -0.648572146 0.671741843
2844886 -0.644770085 0.674640059
2856786 -0.640584349 0.677433192
2868586 -0.636709153 0.680302977
2880386 -0.632582485 0.682960212
2892286 -0.628563821 0.685909807
2904086 -0.624137818 0.688625156
2915986 -0.620063245 0.691399812
2927786 -0.61578691 0.694040834
2939686 -0.611384034 0.697027802
2951486 -0.606893599 0.699536561
2963286 -0.602793872 0.702262997
2975186 -0.598153233 0.704988002
2986986 -0.593590378 0.707366585
2998886 -0.588882148 0.710135757
3010686 -0.584277331 0.712771117
3022586 -0.579364538 0.7152794
3034386 -0.575043201 0.717917561
3046186 -0.569841444 0.720357239
3058086 -0.565433025 0.722992956
3069886 -0.560046076 0.725355625
3081786 -0.555496752 0.72786206
3093586 -0.549875736 0.730202257
3105486 -0.545347511 0.732692837
3117286 -0.539773225 0.735012233
3129086 -0.535075902 0.737529635
3140986 -0.529150068 0.739634513
3152786 -0.524464488 0.742231667
3164686 -0.518295168 0.744398117
3176486 -0.513600289 0.746650874
3188386 -0.507544338 0.748593628
3200186 -0.50231868 0.750995039
3211986 -0.49601829 0.752767205
3223886 -0.490987271 0.755113661
3235686 -0.484483361 0.757180869
3247586 -0.479115068 0.759207904
3259386 -0.472830325 0.760965704
3271286 -0.46710819 0.763068199
3283086 -0.460424721 0.764342486
3294886 -0.45558393 0.766423523
3306786 -0.448339968 0.768203854
3318586 -0.442729055 0.769843459
3330486 -0.435899645 0.771203935
3342286 -0.42998299 0.773096978
3354186 -0.422832399 0.774187982
3365986 -0.417560279 0.775765299
3377786 -0.410028249 0.777445375
3389686 -0.403951436 0.778424382
3401486 -0.396648555 0.779675185
3413386 -0.390378117 0.781321883
3425186 -0.382415622 0.781777858
3437086 -0.377025365 0.782878875
3448886 -0.368807524 0.784418106
3460686 -0.362312048 0.784503459
3472586 -0.354324042 0.785543441
3484386 -0.348134189 0.786143422
3496286 -0.33967638 0.786576807
3508086 -0.334134846 0.786527097
3519986 -0.32536 0.788160204
3531786 -0.318347126 0.787208735
3543586 -0.310393065 0.788050174
3555486 -0.303811997 0.787620842
3567286 -0.294708639 0.788009345
3579186 -0.289195567 0.786612689
3590986 -0.279855281 0.788655042
3602886 -0.272405624 0.786334693
3614686 -0.263961851 0.786988854
3626586 -0.257247626 0.785151898
3638429 -0.247403666 0.78584516
3650229 -0.241755008 0.783032536
3662029 -0.232113763 0.784805536
3673929 -0.223982378 0.781209826
3685729 -0.215389236 0.781637549
3697629 -0.208886981 0.778370976
3709429 -0.198061674 0.779189586
3721329 -0.19259113 0.774137616
3733129 -0.182677358 0.776525199
3744929 -0.17438437 0.77108401
3756829 -0.16548337 0.771287798
3768629 -0.158373579 0.766520917
3780529 -0.147739455 0.767201781
3792329 -0.141455963 0.759411036
3804229 -0.131606325 0.762398004
3816029 -0.123093403 0.754686236
3827829 -0.114614866 0.754697263
3839729 -0.107187464 0.747732162
3851529 -0.097075231 0.748654723
3863429 -0.089873693 0.738789916
3875229 -0.081124141 0.741531133
3887129 -0.071971863 0.73162502
3898929 -0.063809998 0.731896162
3910729 -0.056713033 0.722567558
3922629 -0.046704646 0.723093509
3934429 -0.039262041 0.711411833
3946329 -0.031833432 0.713881671
3958129 -0.021818198 0.701907098
3970029 -0.01463229 0.701806187
3981829 -0.006985665 0.690226495
3993629 0.001745563 0.690814793
4005529 0.009623688 0.677221298
4017329 0.015957642 0.678348422
4029229 0.026595117 0.665368139
4041029 0.031668931 0.663545072
4052929 0.040160525 0.65082705
4064729 0.046936042 0.650276243
4076529 0.055400054 0.63514626
4088429 0.059766292 0.635539412
4100229 0.070389479 0.621258676
4112129 0.073408447 0.618124723
4123929 0.082758411 0.604135274
4135829 0.086788527 0.602292895
4147629 0.09590286 0.586540162
4159429 0.097609043 0.585222423
4171329 0.10847456 0.570097208
4183129 0.109257958 0.565248131
4195029 0.118537291 0.551086008
4206829 0.119503192 0.547622919
4218729 0.129354447 0.531898558
4230529 0.128357917 0.528403937
4242329 0.139009922 0.51360917
4254229 0.13705483 0.506617724
4266029 0.146490618 0.493139892
4277929 0.144152075 0.487317949
4289729 0.154068827 0.472245544
4301629 0.149992197 0.466834276
4313429 0.160180091 0.451751351
4325229 0.155523389 0.443541914
4337129 0.164217874 0.431466549
4348929 0.158805906 0.422507226
4360829 0.168917074 0.410270422
4372629 0.160828113 0.402143657
4384529 0.171275913 0.388181596
4396329 0.163376599 0.3789981
4408129 0.171284154 0.368243336
4420029 0.164023712 0.356890261
4431829 0.171966925 0.348060131
4443729 0.161779463 0.33573088
4455529 0.172264546 0.325752854
4467429 0.160069555 0.314645588
4479229 0.167811542 0.305434167
4491029 0.158687919 0.293138742
4502929 0.16320315 0.286698073
4514729 0.152727067 0.271892875
4526629 0.161341905 0.266602516
4538429 0.146263271 0.252233952
4550329 0.155365839 0.247537165
4562129 0.142131209 0.233378946
4573929 0.145206049 0.228907302
4585829 0.134584233 0.214983001
4597629 0.140580162 0.212730079
4609529 0.124652154 0.195296898
4621329 0.133162319 0.1961952
4633229 0.117698013 0.178642451
4645029 0.119602166 0.17772156
4656829 0.109148494 0.164222463
4668729 0.112323187 0.163258865
4680529 0.097420059 0.146397754
4692429 0.102440066 0.150378197
4704229 0.087353914 0.13116616
4716129 0.087226733 0.134377062
4727929 0.076893836 0.1206735
4739729 0.077902115 0.121550947
4751629 0.064246758 0.104684449
4763429 0.065576955 0.112491033
4775329 0.052076354 0.092303663
4787129 0.050045333 0.099340215
4799029 0.040865603 0.08594489
4810829 0.039192974 0.088304847
4822729 0.027919502 0.071778915
4834572 0.027955243 0.080898985
4846372 0.0148447 0.063314288
4858172 0.008902388 0.072942391
4870072 0.002726103 0.055862743
4881872 -0.000227254 0.068661205
4893772 -0.013956754 0.045992344
4905572 -0.012873889 0.061073105
4917472 -0.024502616 0.041872091
4929272 -0.030850257 0.052941869
4941072 -0.034891895 0.038439158
4952972 -0.042718533 0.050869047
4964772 -0.049678053 0.029116198
4976672 -0.054808847 0.04787594
4988472 -0.062724664 0.028081271
5000372 -0.069896027 0.041620802
5012172 -0.073309801 0.028071107
5023972 -0.083095632 0.040302686
5035872 -0.084902092 0.021602969
5047672 -0.095837578 0.04015946
5059572 -0.097703807 0.022210216
5071372 -0.107415579 0.037098474
5083272 -0.108423925 0.023768223
5095072 -0.119673423 0.03702566
5106872 -0.117680571 0.020119477
5118772 -0.132361441 0.037724751
5130572 -0.129856109 0.022732129
5142472 -0.141416847 0.036879669
5154272 -0.140446707 0.024909351
5166172 -0.152743071 0.038306709
5177972 -0.147698909 0.023848412
5189772 -0.165284693 0.040117196
5201672 -0.158731788 0.02750157
5213472 -0.17198643 0.040701657
5225372 -0.169424831 0.031092628
5237172 -0.182191982 0.042097084
5249072 -0.17440474 0.032922971
5260872 -0.194117128 0.044575486
5272672 -0.183550208 0.03722129
5284572 -0.199096664 0.048049516
5296372 -0.194492548 0.039584554
5308272 -0.207395851 0.050767477
5320072 -0.198450177 0.044917788
5331972 -0.218343958 0.051721286
5343772 -0.205667316 0.05077397
5355572 -0.222785219 0.056444674
5367472 -0.214600816 0.052015502
5379272 -0.229611903 0.06151957
5391172 -0.21898052 0.057818785
5402972 -0.23757781 0.063123501
5414872 -0.225188702 0.065477587
5426672 -0.240739107 0.067360103
5438472 -0.231384605 0.066901989
5450372 -0.247685506 0.073180682
5462172 -0.234686985 0.072818994
5474072 -0.253388077 0.07584165
5485872 -0.241344153 0.080318003
5497772 -0.254791647 0.080188103
5509572 -0.246784925 0.082873679
5521372 -0.260872215 0.085404366
5533272 -0.248234257 0.089534677
5545072 -0.266458779 0.088186733
5556972 -0.252557754 0.095922864
5568772 -0.266477555 0.093980297
5580672 -0.257927298 0.098363548
5592472 -0.270367801 0.099397614
5604272 -0.26007837 0.106162965
5616172 -0.273681908 0.102016896
5627972 -0.262206196 0.112685792
5639872 -0.274869352 0.10736595
5651672 -0.265552729 0.114703916
5663572 -0.276364684 0.113991066
5675372 -0.268485844 0.121068306
5687172 -0.277439296 0.116508603
5699072 -0.269630819 0.128157526
5710872 -0.278968125 0.120648182
5722772 -0.271216362 0.131545245
5734572 -0.279894709 0.127119839
5746472 -0.273829787 0.136462256
5758272 -0.279350966 0.131009742
5770072 -0.274336993 0.143370032
5781972 -0.279952853 0.134148329
5793772 -0.274418443 0.1475818
5805672 -0.27967444 0.140021845
5817472 -0.276543498 0.151094168
5829372 -0.278557747 0.144994199
5841172 -0.276702851 0.157590836
5852972 -0.278324037 0.147451192
5864872 -0.275731891 0.16273728
5876672 -0.277905285 0.153017207
5888572 -0.27685514 0.164381831
5900372 -0.275779098 0.159105837
5912272 -0.276588857 0.170736581
5924072 -0.273671567 0.160308346
5935872 -0.275705248 0.176875889
5947772 -0.273456394 0.165034636
5959572 -0.274560302 0.177711024
5971472 -0.270948529 0.172655448
5983272 -0.273926526 0.182441189
5995172 -0.266753137 0.173309668
6006972 -0.273292452 0.188893422
6018872 -0.265585482 0.176702231
6030715 -0.271740198 0.191002175
6042515 -0.264538049 0.183654487
6054315 -0.2668581 0.193599
6066215 -0.262016862 0.184831947
6078015 -0.268213957 0.198839187
6089915 -0.256220877 0.188169866
6101715 -0.26655811 0.200344026
6113615 -0.255774259 0.194372415
6125415 -0.260702013 0.203308939
6137215 -0.252492994 0.195317342
6149115 -0.261880427 0.207648456
6160915 -0.246372282 0.199851527
6172815 -0.259314984 0.208330556
6184615 -0.245829313 0.204710364
6196515 -0.253579646 0.211639091
6208315 -0.242162287 0.204747021
6220115 -0.254105955 0.21489641
6232015 -0.235628008 0.209020748
6243815 -0.250768721 0.215020745
6255715 -0.234857678 0.21255435
6267515 -0.244796007 0.218008324
6279415 -0.231210097 0.213077381
6291215 -0.244617745 0.220151618
6303015 -0.225112184 0.217426627
6314915 -0.240720435 0.219913467
6326715 -0.224175155 0.219865277
6338615 -0.235042423 0.222573652
6350415 -0.219850301 0.220641583
6362315 -0.233818247 0.223533049
6374115 -0.214600399 0.224323481
6385915 -0.229593172 0.222998306
6397815 -0.212755873 0.225455418
6409615 -0.223995968 0.225981831
6421515 -0.208017751 0.226537391
6433315 -0.221436068 0.225416734
6445215 -0.203506886 0.230452626
6457015 -0.216583967 0.225179448
6468815 -0.200761005 0.230919182
6480715 -0.211453542 0.227793082
6492515 -0.195397898 0.231794878
6504415 -0.207408353 0.226445883
6516215 -0.1908001 0.235011145
6528115 -0.202259317 0.225597843
6539915 -0.187056317 0.235021442
6551715 -0.197229683 0.227938011
6563615 -0.181574925 0.23572205
6575415 -0.192186415 0.226098373
6587315 -0.177573069 0.237890839
6599115 -0.186389163 0.22545737
6611015 -0.173307165 0.236962988
6622815 -0.18177095 0.226896986
6634615 -0.167772889 0.23761937
6646515 -0.175985708 0.224715337
6658315 -0.164086714 0.23885107
6670215 -0.170195341 0.224070727
6682015 -0.159511953 0.23749575
6693915 -0.165403142 0.224988251
6705715 -0.154030263 0.237829446
6717515 -0.158763736 0.222587257
6729415 -0.150014236 0.238081902
6741215 -0.152706548 0.221498101
6753115 -0.14507547 0.236577481
6764915 -0.147701293 0.221817091
6776815 -0.13969618 0.236278474
6788615 -0.140889376 0.219495624
6800415 -0.135828062 0.236062765
6812315 -0.134543165 0.218177035
6824115 -0.130641743 0.233828678
6836015 -0.129369884 0.217580005
6847815 -0.125040024 0.232642427
6859715 -0.122025966 0.215623795
6871515 -0.121048919 0.230967476
6883315 -0.115328803 0.213584631
6895215 -0.115960054 0.228911861
6907015 -0.109888523 0.212454766
6918915 -0.110175505 0.227000862
6930715 -0.102955728 0.210410043
6942615 -0.105336517 0.224503949
6954415 -0.096101865 0.20781055
6966215 -0.100436568 0.222015023
6978115 -0.089968539 0.206084415
6989915 -0.094830065 0.219113811
7001815 -0.082953348 0.203713476
7013615 -0.089494302 0.215576991
7025515 -0.076824024 0.200415968
7037315 -0.084578745 0.212514117
7049115 -0.069990329 0.198174044
7061015 -0.07845091 0.208996444
7072815 -0.063094995 0.195081502
7084715 -0.072772413 0.204616591
7096515 -0.056992195 0.191658213
7108415 -0.067361697 0.200758203
7120215 -0.050176769 0.188619688
7132015 -0.061683032 0.195532962
7143915 -0.043310862 0.184676691
7155715 -0.055870458 0.190115362
7167615 -0.037388902 0.180408418
7179415 -0.050498135 0.185475945
7191315 -0.030605517 0.176629945
7203115 -0.044519364 0.179091796
7215015 -0.024537499 0.172180652
7226858 -0.038733273 0.173389628
7238658 -0.018652083 0.16688165
7250458 -0.033593792 0.167493596
7262358 -0.012055092 0.162469148
7274158 -0.027613854 0.159954816
7286058 -0.006642434 0.157125473
7297858 -0.021906716 0.153632074
7309758 -0.000962119 0.151010915
