# Hz S RI R 50
50000 -0.867231905 0.029948461
67700 -0.862805426 0.040900174
85500 -0.861594498 0.052091244
103200 -0.860825836 0.063334651
121000 -0.859512746 0.074328944
138700 -0.858592867 0.085202477
156500 -0.857352197 0.096030928
174200 -0.855840981 0.106881096
192000 -0.854357182 0.117647804
209800 -0.852527618 0.128281891
227500 -0.850825071 0.138851851
245300 -0.848873615 0.149724334
263000 -0.846699655 0.160121679
280800 -0.84453547 0.170819625
298500 -0.842381894 0.181482449
316300 -0.83993268 0.192062214
334100 -0.837319731 0.202444687
351800 -0.834501564 0.212811365
369600 -0.831815898 0.223630487
387300 -0.828847527 0.234007641
405100 -0.825293719 0.244410872
422800 -0.822084784 0.254575431
440600 -0.818472862 0.264874339
458400 -0.814903736 0.275028318
476100 -0.811493515 0.284961372
493900 -0.808029651 0.295206576
511600 -0.804092645 0.305606424
529400 -0.800045967 0.315827667
547100 -0.795817136 0.325751125
564900 -0.791470587 0.336024224
582700 -0.786894321 0.346194237
600400 -0.782223761 0.356036484
618200 -0.777717471 0.365945786
635900 -0.772783756 0.375882238
653700 -0.767630934 0.385826379
671400 -0.76252079 0.395721852
689200 -0.75689429 0.405671596
707000 -0.751224517 0.415149956
724700 -0.745926141 0.424400866
742500 -0.740469813 0.433793932
760200 -0.734872937 0.443614244
778000 -0.728786647 0.45313844
795700 -0.722809493 0.462680965
813500 -0.716437637 0.47204861
831300 -0.710138976 0.481471836
849000 -0.703713595 0.490858286
866800 -0.696952283 0.500396609
884500 -0.690018415 0.509525835
902300 -0.683103084 0.518749475
920000 -0.675787627 0.527638852
937800 -0.668185055 0.536669194
955600 -0.660431385 0.545179963
973300 -0.652666211 0.553797543
991100 -0.645157277 0.562241435
1008800 -0.637651383 0.570219695
1026600 -0.630142211 0.579275906
1044300 -0.622310161 0.588001906
1062100 -0.613990306 0.59602648
1079900 -0.605872333 0.60456258
1097600 -0.597688019 0.613429725
1115400 -0.588933825 0.621821105
1133100 -0.580057799 0.630076467
1150900 -0.570359408 0.638373494
1168600 -0.560996353 0.646373629
1186400 -0.551028847 0.654062509
1204200 -0.54124099 0.661400675
1221900 -0.532630562 0.668719351
1239700 -0.522164881 0.676252901
1257400 -0.512108862 0.682880043
1275200 -0.502891302 0.689917922
1292900 -0.493138909 0.696924388
1310700 -0.483163207 0.704562962
1328500 -0.472964346 0.711888134
1346200 -0.461998403 0.718898892
1364000 -0.45138958 0.725741803
1381700 -0.440013438 0.732974946
1399500 -0.428580701 0.739400267
1417200 -0.416941702 0.745729446
1435000 -0.405275017 0.751774013
1452800 -0.39394471 0.757662475
1470500 -0.381691664 0.763374865
1488300 -0.369461596 0.769132375
1506000 -0.357278436 0.774123907
1523800 -0.345675706 0.779530286
1541500 -0.332801759 0.785347342
1559300 -0.320257455 0.789691686
1577100 -0.30807349 0.795125663
1594800 -0.294851273 0.79954034
1612600 -0.281913638 0.80422461
1630300 -0.268354266 0.808677494
1648100 -0.254893273 0.812684357
1665800 -0.241346105 0.816146194
1683600 -0.228073835 0.820254504
1701400 -0.214325413 0.823145925
1719100 -0.200636923 0.82714188
1736900 -0.185991883 0.830453157
1754600 -0.172164827 0.833144307
1772400 -0.156885176 0.835870265
1790100 -0.142693504 0.837786912
1807900 -0.128543645 0.83998245
1825700 -0.114106528 0.841964066
1843457 -0.09911479 0.844610571
1861157 -0.083488568 0.846569001
1878957 -0.06774348 0.84699887
1896657 -0.052238371 0.848076105
1914457 -0.036301456 0.848834812
1932157 -0.021231958 0.848636865
1949957 -0.005395171 0.849439442
1967657 0.011904059 0.849512875
1985457 0.027778301 0.848486244
2003257 0.045541059 0.847213566
2020957 0.062142647 0.844130277
2038757 0.07708992 0.84036082
2056457 0.090815573 0.840204238
2074257 0.108059376 0.839560985
2091957 0.125924557 0.837261974
2109757 0.143293991 0.833122014
2127557 0.159582689 0.828847944
2145257 0.176046416 0.825755119
2163057 0.192881271 0.822716474
2180757 0.211681574 0.816833257
2198557 0.227856874 0.810618102
2216257 0.244040235 0.806030154
2234057 0.261731743 0.799121499
2251857 0.278512746 0.792780816
2269557 0.294852554 0.785489737
2287357 0.309890717 0.778991758
2305057 0.327254146 0.77350229
2322857 0.34645909 0.765889942
2340557 0.364038228 0.756526172
2358357 0.380843758 0.747007548
2376157 0.398399263 0.738888025
2393857 0.417688667 0.72854799
2411657 0.435430377 0.714104354
2429357 0.44933483 0.701453804
2447157 0.464142829 0.691266596
2464857 0.481418162 0.681462943
2482657 0.501706361 0.666979372
2500457 0.517011165 0.648801147
2518157 0.526714801 0.635086238
2535957 0.543415486 0.623716473
2553657 0.559975385 0.608806252
2571457 0.576660096 0.591385602
2589157 0.589264512 0.572612762
2606957 0.601604938 0.556515514
2624757 0.615887284 0.539971649
2642457 0.629198193 0.520538449
2660257 0.638725697 0.50145775
2677957 0.649389863 0.487658292
2695757 0.667951166 0.469954669
2713457 0.680583894 0.44428122
2731257 0.687607824 0.421552002
2749057 0.693586349 0.403730213
2766757 0.707288324 0.388281792
2784557 0.723998785 0.364287376
2802257 0.73453921 0.332838296
2820057 0.733905911 0.303172975
2837757 0.73223561 0.28527823
2855557 0.74314332 0.271216839
2873357 0.75543332 0.244645148
2891057 0.761039614 0.213486701
2908857 0.759268045 0.185429096
2926557 0.761753916 0.164095595
2944357 0.766481041 0.137718915
2962057 0.766472339 0.106107681
2979857 0.756946086 0.078993372
2997657 0.753791272 0.062684044
3015357 0.759867787 0.03863006
3033157 0.758307933 0.005886575
3050857 0.747813642 -0.022586356
3068657 0.73952794 -0.041918527
3086357 0.740298151 -0.066156439
3104157 0.733558237 -0.100346565
3121957 0.715851962 -0.128344044
3139657 0.698945105 -0.144117191
3157457 0.697034776 -0.157715544
3175157 0.695988059 -0.189802736
3192957 0.679031372 -0.223338291
3210657 0.655590236 -0.24605
3228457 0.640179038 -0.260364174
3246257 0.628646492 -0.281935751
3263957 0.610494017 -0.305476337
3281757 0.58883965 -0.323223501
3299457 0.573092758 -0.334950745
3317257 0.563523113 -0.356184124
3334957 0.542543232 -0.38222602
3352757 0.514425396 -0.401014715
3370557 0.487949579 -0.411680161
3388257 0.467432856 -0.419737875
3406057 0.449126958 -0.431436806
3423757 0.428197264 -0.443808406
3441557 0.406428456 -0.453063189
3459257 0.389910936 -0.463802456
3477057 0.367969751 -0.480268925
3494857 0.339611202 -0.493517994
3512557 0.307387113 -0.498278468
3530357 0.282569289 -0.496126681
3548057 0.265155404 -0.495663553
3565857 0.247937321 -0.506935298
3583557 0.216125041 -0.513590216
3601357 0.189770177 -0.507863759
3619157 0.171304062 -0.506094574
3636914 0.151398479 -0.509261965
3654614 0.124194242 -0.513952076
3672414 0.092350006 -0.505074799
3690114 0.074313692 -0.491356283
3707914 0.062613859 -0.485023289
3725614 0.044648922 -0.490906745
3743414 0.014612682 -0.484621733
3761114 -0.005597836 -0.469799607
3778914 -0.017909182 -0.459158957
3796714 -0.031673509 -0.458515435
3814414 -0.060001604 -0.455322533
3832214 -0.085311412 -0.432820796
3849914 -0.089751645 -0.412021011
3867714 -0.093765303 -0.410339385
3885414 -0.117055281 -0.411549121
3903214 -0.1442575 -0.391736418
3921014 -0.151897653 -0.364807009
3938714 -0.14986898 -0.356229037
3956514 -0.166662365 -0.357146441
3974214 -0.193510726 -0.337798476
3992014 -0.199507981 -0.303480744
4009714 -0.185839831 -0.289345383
4027514 -0.191253423 -0.296858131
4045314 -0.216556563 -0.285053968
4063014 -0.226439699 -0.254835009
4080814 -0.215716615 -0.234329715
4098514 -0.211568579 -0.236852183
4116314 -0.232021331 -0.233132794
4134014 -0.246954813 -0.203309103
4151814 -0.233380913 -0.175347834
4169614 -0.219053894 -0.177896827
4187314 -0.234106808 -0.180456683
4205114 -0.249761924 -0.156730294
4222814 -0.241297796 -0.127824768
4240614 -0.221721768 -0.122686646
4258314 -0.226611822 -0.131436362
4276114 -0.245931193 -0.115218199
4293914 -0.240979596 -0.082612209
4311614 -0.216672718 -0.07272917
4329414 -0.213437274 -0.084881551
4347114 -0.231343969 -0.076740182
4364914 -0.232388123 -0.046364918
4382614 -0.208244815 -0.029073107
4400414 -0.192412838 -0.039110966
4418214 -0.205417826 -0.043762184
4435914 -0.214115664 -0.019142925
4453714 -0.191650748 0.003832403
4471414 -0.16877304 -0.006979695
4489214 -0.180277258 -0.018715173
4506914 -0.193468272 0.002599321
4524714 -0.174747079 0.027921037
4542514 -0.147763475 0.023823356
4560214 -0.148344829 0.006965357
4578014 -0.162942484 0.017894525
4595714 -0.149292975 0.042229644
4613514 -0.119938701 0.038510132
4631214 -0.119336254 0.015557781
4649014 -0.139122784 0.022022675
4666814 -0.131363511 0.048671152
4684514 -0.101599462 0.050963126
4702314 -0.091967746 0.029338032
4720014 -0.107477627 0.025282023
4737814 -0.106873624 0.046363055
4755514 -0.079580813 0.051163267
4773314 -0.067349851 0.027319332
4791114 -0.085525885 0.017016768
4808814 -0.091555051 0.037014868
4826614 -0.068986997 0.046575073
4844314 -0.053288422 0.028527427
4862114 -0.065112806 0.014244798
4879814 -0.07364469 0.026757335
4897614 -0.05613517 0.035915583
4915414 -0.041967991 0.018819576
4933114 -0.054381415 0.002930993
4950914 -0.067883752 0.014016161
4968614 -0.055306263 0.02715907
4986414 -0.039306294 0.016526432
5004114 -0.045395076 0.000414499
5021914 -0.058052767 0.005089937
5039714 -0.051773205 0.016065012
5057414 -0.038373172 0.00937421
5075214 -0.042404934 -0.005490621
5092914 -0.055788926 -0.003633861
5110714 -0.053647525 0.008668734
5128414 -0.040935691 0.006698208
5146214 -0.040220033 -0.006078595
5164014 -0.051082331 -0.009100197
5181714 -0.052877996 -0.000499707
5199514 -0.044715855 -0.000189569
5217214 -0.043809924 -0.009418923
5235014 -0.052804023 -0.012337928
5252714 -0.057248886 -0.005305846
5270514 -0.051238395 -0.001568943
5288314 -0.048901703 -0.008064131
5306014 -0.056103307 -0.010671451
5323814 -0.059839192 -0.003678314
5341514 -0.054209563 0.000605758
5359314 -0.050626538 -0.004000218
5377014 -0.054855611 -0.008335648
5394814 -0.060659162 -0.005543599
5412614 -0.060084976 7.97e-07
5430371 -0.058141123 6.074e-05
5448071 -0.060951255 0.00029671
5465871 -0.062367789 0.006093889
5483571 -0.057581525 0.010271264
5501371 -0.053103208 0.008355158
5519071 -0.054315049 0.004880561
5536871 -0.058558758 0.006608491
5554571 -0.059808488 0.012128995
5572371 -0.057138342 0.016215208
5590171 -0.055327501 0.017534455
5607871 -0.054421171 0.020669866
5625671 -0.050899084 0.024729309
5643371 -0.04591849 0.025538625
5661171 -0.043868169 0.024118049
5678871 -0.044704217 0.024948239
5696671 -0.044004119 0.029634471
5714471 -0.03853717 0.033617079
5732171 -0.033117633 0.033297665
5749971 -0.031018303 0.032660119
5767671 -0.029475495 0.034942716
5785471 -0.023998687 0.037988964
5803171 -0.01791129 0.037157367
5820971 -0.015233369 0.03532724
5838771 -0.013872799 0.036685965
5856471 -0.008898108 0.039794877
5874271 -0.001354511 0.039743479
5891971 0.003909104 0.036633908
5909771 0.006345469 0.035275325
5927471 0.010730291 0.036388464
5945271 0.017773719 0.035607628
5963071 0.022972617 0.032020058
5980771 0.025971192 0.029195049
5998571 0.030139273 0.030186286
6016271 0.038501236 0.028947241
6034071 0.045284263 0.023849437
6051771 0.04877004 0.019061023
6069571 0.053101964 0.017209332
6087371 0.060577124 0.014382725
6105071 0.067392393 0.007483963
6122871 0.070574291 0.000484716
6140571 0.073560453 -0.003682303
6158371 0.079615689 -0.007648511
6176071 0.085795797 -0.015407572
6193871 0.088518299 -0.023420896
6211671 0.090404659 -0.028641803
6229371 0.096239864 -0.033548176
6247171 0.102830231 -0.04305116
6264871 0.104841202 -0.054351758
6282671 0.104226581 -0.06212629
6300371 0.106775738 -0.067560851
6318171 0.111797668 -0.076640352
6335971 0.113368213 -0.088836893
6353671 0.111665569 -0.097723461
6371471 0.112669222 -0.103715546
6389171 0.1174822 -0.113077662
6406971 0.119160719 -0.127702429
6424671 0.114782594 -0.140075251
6442471 0.111403934 -0.147735878
6460271 0.112916909 -0.155721724
6477971 0.114014737 -0.170150235
6495771 0.108225919 -0.184993669
6513471 0.100749053 -0.194042369
6531271 0.098568089 -0.201037392
6548971 0.097601376 -0.213539689
6566771 0.091275639 -0.228775873
6584571 0.081018351 -0.239690348
6602271 0.073987394 -0.246322989
6620071 0.0703765 -0.255954265
6637771 0.063248246 -0.270350158
6655571 0.050816249 -0.281194537
6673271 0.040715008 -0.287174731
6691071 0.035464782 -0.29505074
6708871 0.027676319 -0.308338224
6726571 0.013964628 -0.320490062
6744371 -0.000446407 -0.327069431
6762071 -0.0106135 -0.333254635
6779871 -0.021722456 -0.342985808
6797571 -0.036990568 -0.352254629
6815371 -0.053366109 -0.356733322
6833171 -0.065459512 -0.360055714
6850871 -0.076694428 -0.367374688
6868671 -0.093332231 -0.376379907
6886371 -0.112312518 -0.380052298
6904171 -0.128863483 -0.380250394
6921871 -0.142786324 -0.382431089
6939671 -0.159788131 -0.38639602
6957471 -0.17876996 -0.386865645
6975171 -0.195251703 -0.383597314
6992971 -0.20882906 -0.382430046
7010671 -0.224303826 -0.384080231
7028471 -0.243492528 -0.383588016
7046171 -0.261753082 -0.379485189
7063971 -0.277702718 -0.374533385
7081771 -0.293781727 -0.370914906
7099471 -0.31174165 -0.366601079
7117271 -0.329420685 -0.358759194
7134971 -0.34396699 -0.350160479
7152771 -0.358331143 -0.34381172
7170471 -0.374603152 -0.33673802
7188271 -0.39095655 -0.327157706
7206071 -0.405775368 -0.316075146
7223828 -0.418899297 -0.305967509
7241528 -0.432959198 -0.295462906
7259328 -0.447260081 -0.283311367
7277028 -0.459553152 -0.269697576
7294828 -0.469825267 -0.25705406
7312528 -0.481417119 -0.245242655
7330328 -0.493199855 -0.232343703
7348028 -0.503745555 -0.217423275
7365828 -0.512800395 -0.203101575
7383628 -0.521774172 -0.189310297
7401328 -0.531198322 -0.174743831
7419128 -0.539520084 -0.158887878
7436828 -0.546298503 -0.143070548
7454628 -0.552193403 -0.128200948
7472328 -0.559049606 -0.113262973
7490128 -0.565425276 -0.09699545
7507928 -0.570074021 -0.080206602
7525628 -0.573897898 -0.064300693
7543428 -0.577467918 -0.048557452
7561128 -0.581467926 -0.0323328
7578928 -0.583803415 -0.015526294
7596628 -0.585274577 0.00068283
7614428 -0.586655139 0.016123885
7632228 -0.587951421 0.032274283
7649928 -0.588306128 0.048541795
7667728 -0.587638676 0.06475076
7685428 -0.586673438 0.080157704
7703228 -0.585720658 0.095267616
7720928 -0.584285438 0.110790148
7738728 -0.582132518 0.12646082
7756528 -0.579364061 0.141354575
7774228 -0.576668381 0.156168073
7792028 -0.573558092 0.171088084
7809728 -0.569722652 0.185933277
7827528 -0.565245985 0.200279265
7845228 -0.560525596 0.213831439
7863028 -0.555681109 0.227890118
7880828 -0.55060023 0.241790592
7898528 -0.544900834 0.255315452
7916328 -0.5385589 0.268347382
7934028 -0.532372891 0.281284421
7951828 -0.525800824 0.293868124
7969528 -0.518890619 0.306196898
7987328 -0.511760413 0.318334549
8005128 -0.504345953 0.330208927
8022828 -0.496822774 0.341633737
8040628 -0.488981217 0.353277176
8058328 -0.480829179 0.364387124
8076128 -0.47233051 0.374999254
8093828 -0.463973999 0.385621547
8111628 -0.455194085 0.39572221
8129428 -0.446438878 0.4055458
8147128 -0.437323451 0.415254622
8164928 -0.427968591 0.424884915
8182628 -0.418528676 0.434003084
8200428 -0.409017354 0.443029135
8218128 -0.399235755 0.451775074
8235928 -0.389210104 0.459943175
8253728 -0.379400461 0.46798712
8271428 -0.369214177 0.475622355
8289228 -0.358769744 0.483116984
8306928 -0.348942846 0.490189671
8324728 -0.338533401 0.497297704
8342428 -0.327879279 0.504006266
8360228 -0.317159503 0.510723173
8378028 -0.306603968 0.516910016
8395728 -0.295850038 0.522795855
8413528 -0.284798592 0.52827239
8431228 -0.274251401 0.533717036
8449028 -0.26345694 0.538377285
8466728 -0.252783745 0.543234586
8484528 -0.241871714 0.548259854
8502328 -0.230825647 0.553056657
8520028 -0.219732433 0.557270765
8537828 -0.208832725 0.561363101
8555528 -0.197656989 0.565104842
8573328 -0.186630234 0.568797647
8591028 -0.175798311 0.572100222
8608828 -0.164738848 0.575050532
8626628 -0.153602525 0.578108072
8644328 -0.142542973 0.581124782
8662128 -0.131328701 0.583496153
8679828 -0.120238572 0.585928022
8697628 -0.108866624 0.587848424
8715328 -0.097885206 0.589799582
8733128 -0.086700625 0.591683924
8750928 -0.075676888 0.592872619
8768628 -0.064656585 0.594092309
8786428 -0.053332671 0.595311343
8804128 -0.042625728 0.596231877
8821928 -0.031283698 0.596805334
8839628 -0.020273094 0.597283244
8857428 -0.009310344 0.597438514
8875228 0.001542347 0.597593069
8892928 0.012409698 0.597217082
8910728 0.023409616 0.59698373
8928428 0.034070223 0.596287786
8946228 0.044946614 0.595621526
8963928 0.055635962 0.594914317
8981728 0.066033437 0.593841016
8999528 0.076774992 0.592771589
