# Hz S RI R 50
50000 -0.849930644 0.028005303
67700 -0.852503359 0.040111098
85500 -0.851726531 0.051824063
103200 -0.850864112 0.062569916
121000 -0.849632024 0.073378048
138700 -0.848643779 0.084427975
156500 -0.847655832 0.094775669
174200 -0.846045553 0.105685852
192000 -0.844794809 0.116242364
209800 -0.842654347 0.127052456
227500 -0.841401338 0.137485042
245300 -0.839787065 0.148321926
263000 -0.837329387 0.158670023
280800 -0.835365772 0.169101536
298500 -0.833174407 0.179507464
316300 -0.830619215 0.189903661
334100 -0.828314483 0.200367614
351800 -0.825737357 0.210337266
369600 -0.822621107 0.220919162
387300 -0.819824457 0.231156259
405100 -0.817011117 0.241426184
422800 -0.813528597 0.251613229
440600 -0.81023848 0.261516898
458400 -0.806805253 0.271576166
476100 -0.803671658 0.281632393
493900 -0.800236046 0.291573584
511600 -0.796717941 0.301703721
529400 -0.792804121 0.311543375
547100 -0.788895606 0.321549713
564900 -0.785075962 0.33135727
582700 -0.780353665 0.341314703
600400 -0.77604407 0.351002871
618200 -0.771450817 0.360686331
635900 -0.766979038 0.370740443
653700 -0.762417972 0.380143672
671400 -0.757108151 0.389651536
689200 -0.751991748 0.399383574
707000 -0.74695605 0.408807843
724700 -0.741728842 0.417842209
742500 -0.736693322 0.427168935
760200 -0.731465637 0.436456024
778000 -0.726325571 0.445910245
795700 -0.720434069 0.455014616
813500 -0.714479506 0.464125335
831300 -0.708585083 0.473617434
849000 -0.702757596 0.482752144
866800 -0.69612652 0.491646826
884500 -0.689902007 0.500625073
902300 -0.683515667 0.509522736
920000 -0.676787137 0.518240094
937800 -0.670026659 0.526954829
955600 -0.663091361 0.535448729
973300 -0.655951321 0.54371649
991100 -0.649073898 0.551678895
1008800 -0.642199456 0.559366703
1026600 -0.635649561 0.567879676
1044300 -0.628120005 0.57640022
1062100 -0.621097028 0.58466345
1079900 -0.613866686 0.59265685
1097600 -0.605867862 0.601193547
1115400 -0.598110437 0.609492003
1133100 -0.590019404 0.617507696
1150900 -0.581615746 0.625182509
1168600 -0.573119819 0.632874369
1186400 -0.564138829 0.640728473
1204200 -0.555618047 0.647383689
1221900 -0.547863543 0.655176818
1239700 -0.538399875 0.662172257
1257400 -0.529934406 0.668934226
1275200 -0.521628022 0.675446569
1292900 -0.513060986 0.68227899
1310700 -0.504006326 0.689746558
1328500 -0.495227217 0.696960687
1346200 -0.485586225 0.704096436
1364000 -0.476213544 0.710364103
1381700 -0.46647033 0.717370271
1399500 -0.456598073 0.723947465
1417200 -0.446438431 0.730246722
1435000 -0.436134189 0.736364603
1452800 -0.426471143 0.742520928
1470500 -0.415581941 0.748649418
1488300 -0.405116915 0.754402637
1506000 -0.394676238 0.759293079
1523800 -0.384527385 0.764868736
1541500 -0.373650372 0.770890176
1559300 -0.36265853 0.77536267
1577100 -0.351983219 0.780827939
1594800 -0.340895205 0.785726428
1612600 -0.329825282 0.790997266
1630300 -0.318499535 0.79567945
1648100 -0.306929528 0.800097346
1665800 -0.29545024 0.804350137
1683600 -0.284237831 0.808636724
1701400 -0.272372454 0.81223005
1719100 -0.260684728 0.816796958
1736900 -0.248139053 0.821225047
1754600 -0.236564025 0.824544847
1772400 -0.223678633 0.828350543
1790100 -0.211634233 0.830613434
1807900 -0.199240773 0.833796858
1825700 -0.187341809 0.837117791
1843457 -0.174636468 0.840615928
1861157 -0.161308273 0.84359312
1878957 -0.148377999 0.845839619
1896657 -0.134878233 0.848103225
1914457 -0.121804311 0.850333452
1932157 -0.10906773 0.851738333
1949957 -0.095829524 0.854337275
1967657 -0.081305019 0.855858027
1985457 -0.067617326 0.856767714
2003257 -0.052578467 0.857783615
2020957 -0.038220766 0.856693983
2038757 -0.025364521 0.855646371
2056457 -0.014075482 0.85684657
2074257 0.000629364 0.858301043
2091957 0.015762336 0.858672618
2109757 0.030618958 0.857783198
2127557 0.044526427 0.856397747
2145257 0.058306735 0.855930387
2163057 0.073090307 0.855492472
2180757 0.089226186 0.852916061
2198557 0.103312067 0.849921524
2216257 0.117137968 0.848497569
2234057 0.132867947 0.845449626
2251857 0.147458881 0.842258095
2269557 0.161702945 0.838546574
2287357 0.175066307 0.836069762
2305057 0.190214827 0.834451735
2322857 0.20704244 0.830937147
2340557 0.222606822 0.826466202
2358357 0.237895607 0.821169495
2376157 0.25385636 0.817317485
2393857 0.27115339 0.812290072
2411657 0.287856578 0.803323805
2429357 0.301415324 0.795273721
2447157 0.314978808 0.789841175
2464857 0.331036746 0.785024344
2482657 0.35004121 0.777341008
2500457 0.365858405 0.76484394
2518157 0.376023411 0.755655288
2535957 0.391767591 0.749874293
2553657 0.408185362 0.740993618
2571457 0.424908012 0.730332672
2589157 0.438906252 0.717344403
2606957 0.451837152 0.7068578
2624757 0.466963142 0.696351826
2642457 0.481901228 0.683486521
2660257 0.49358049 0.669963955
2677957 0.505133032 0.661204636
2695757 0.52405256 0.650687158
2713457 0.540378928 0.632781565
2731257 0.551403462 0.615604221
2749057 0.55967617 0.602694928
2766757 0.574568629 0.593510985
2784557 0.594326019 0.577941358
2802257 0.611210167 0.554639637
2820057 0.617256641 0.529368817
2837757 0.619823098 0.514497756
2855557 0.632295131 0.506120145
2873357 0.650097548 0.487197518
2891057 0.662846028 0.462424784
2908857 0.668320178 0.438655585
2926557 0.675427138 0.421691656
2944357 0.686845958 0.400744408
2962057 0.695775389 0.373473346
2979857 0.694800198 0.347974061
2997657 0.695788502 0.33372876
3015357 0.708348095 0.315201073
3033157 0.716435968 0.286710858
3050857 0.715243577 0.258599221
3068657 0.713745951 0.239631667
3086357 0.721841096 0.219393342
3104157 0.725849092 0.187225401
3121957 0.71841228 0.15664269
3139657 0.707574307 0.138200804
3157457 0.709852755 0.126520946
3175157 0.7195611 0.097565807
3192957 0.714642047 0.061868485
3210657 0.699830353 0.03399175
3228457 0.689735233 0.01652592
3246257 0.686040997 -0.006938488
3263957 0.677012145 -0.033990915
3281757 0.661947607 -0.056912351
3299457 0.650635302 -0.072429053
3317257 0.64849627 -0.094932131
3334957 0.637066721 -0.126241892
3352757 0.616363525 -0.153198793
3370557 0.593761622 -0.171466723
3388257 0.576252579 -0.185259059
3406057 0.562234997 -0.201594531
3423757 0.545884191 -0.219669014
3441557 0.527347803 -0.235533863
3459257 0.514379203 -0.250471085
3477057 0.498082667 -0.273183524
3494857 0.473856598 -0.295385271
3512557 0.442928761 -0.310082793
3530357 0.416656017 -0.314667344
3548057 0.398734241 -0.318693578
3565857 0.385394245 -0.334611207
3583557 0.354564309 -0.351372539
3601357 0.325464159 -0.352481991
3619157 0.306345283 -0.355287641
3636914 0.286768078 -0.363517701
3654614 0.260737389 -0.376042991
3672414 0.224309012 -0.376139432
3690114 0.201506659 -0.365784257
3707914 0.187485471 -0.36158362
3725614 0.171570986 -0.371522396
3743414 0.13822788 -0.373574674
3761114 0.112772189 -0.362636655
3778914 0.097050808 -0.354191511
3796714 0.083003602 -0.356054008
3814414 0.052850335 -0.359979689
3832214 0.02014118 -0.342657059
3849914 0.009901279 -0.320637822
3867714 0.006208813 -0.318731755
3885414 -0.017459332 -0.325571119
3903214 -0.050762262 -0.311123788
3921014 -0.065431602 -0.284151971
3938714 -0.065034069 -0.273449748
3956514 -0.081295587 -0.278062582
3974214 -0.114031665 -0.264079153
3992014 -0.128544971 -0.229400917
4009714 -0.117125935 -0.210139304
4027514 -0.12019518 -0.218290403
4045314 -0.148602262 -0.212132915
4063014 -0.165748149 -0.183108687
4080814 -0.159377425 -0.15858969
4098514 -0.153817519 -0.159242063
4116314 -0.174406453 -0.160187646
4134014 -0.19654648 -0.133069574
4151814 -0.189347371 -0.100824281
4169614 -0.173684492 -0.098878949
4187314 -0.18714632 -0.104490026
4205114 -0.208374112 -0.08460047
4222814 -0.206336274 -0.053356308
4240614 -0.187671288 -0.041958212
4258314 -0.189560666 -0.051700942
4276114 -0.212354466 -0.040700815
4293914 -0.215032279 -0.007014852
4311614 -0.193496435 0.009655397
4329414 -0.185836791 -0.000623676
4347114 -0.20525667 0.00233274
4364914 -0.21361424 0.032147753
4382614 -0.194077998 0.055734422
4400414 -0.175401389 0.050240579
4418214 -0.186256423 0.042377769
4435914 -0.200892359 0.064111262
4453714 -0.185105293 0.091937594
4471414 -0.159881889 0.088589392
4489214 -0.167274236 0.073744311
4506914 -0.185243114 0.090957269
4524714 -0.17426683 0.120222263
4542514 -0.146914839 0.123751081
4560214 -0.142926126 0.108078703
4578014 -0.159071668 0.114457808
4595714 -0.153359174 0.140832975
4613514 -0.124694086 0.146212324
4631214 -0.11697214 0.12534146
4649014 -0.137425824 0.125002115
4666814 -0.137821912 0.152810752
4684514 -0.11088144 0.164165273
4702314 -0.094977706 0.146961793
4720014 -0.108534321 0.138322323
4737814 -0.11410585 0.15844874
4755514 -0.090529896 0.171482816
4773314 -0.071827299 0.153767496
4791114 -0.085107572 0.138383284
4808814 -0.097365945 0.155051752
4826614 -0.079734824 0.171578928
4844314 -0.059787716 0.160279065
4862114 -0.065678499 0.143741682
4879814 -0.07791946 0.15242891
4897614 -0.065392836 0.166961371
4915414 -0.046536702 0.156619712
4933114 -0.05261594 0.13799405
4950914 -0.068593703 0.144177868
4968614 -0.06212503 0.16071397
4986414 -0.043833144 0.157033041
5004114 -0.043961383 0.140346288
5021914 -0.057301528 0.140449404
5039714 -0.055410671 0.153247192
5057414 -0.041152153 0.152289032
5075214 -0.039522062 0.138011351
5092914 -0.052659891 0.135358586
5110714 -0.055373191 0.147914871
5128414 -0.043041601 0.151220649
5146214 -0.03785621 0.140271246
5164014 -0.046808216 0.134352892
5181714 -0.051568511 0.141597136
5199514 -0.044768508 0.145452603
5217214 -0.040517758 0.138059347
5235014 -0.047503795 0.132477223
5252714 -0.054260276 0.138128444
5270514 -0.050365831 0.144124463
5288314 -0.04593515 0.139859572
5306014 -0.051031369 0.135815918
5323814 -0.057235069 0.140906646
5341514 -0.053852051 0.147259831
5359314 -0.048821814 0.144999668
5377014 -0.050885524 0.140332356
5394814 -0.057291407 0.141213521
5412614 -0.058976504 0.146731615
5430371 -0.057259473 0.148381918
5448071 -0.059490051 0.148186519
5465871 -0.062729366 0.153119415
5483571 -0.060020528 0.159471541
5501371 -0.055251188 0.159870937
5519071 -0.055267445 0.157171145
5536871 -0.059459161 0.157238319
5554571 -0.062516227 0.162210077
5572371 -0.061271782 0.167273178
5590171 -0.060137312 0.170111969
5607871 -0.060581911 0.173682138
5625671 -0.058829832 0.178635463
5643371 -0.054976385 0.181781113
5661171 -0.052262261 0.181780263
5678871 -0.053026597 0.182568997
5696671 -0.053881242 0.18750067
5714471 -0.050807777 0.193387478
5732171 -0.045774746 0.195760682
5749971 -0.043401286 0.196343779
5767671 -0.043008554 0.198852509
5785471 -0.039518445 0.204228833
5803171 -0.033847067 0.20620945
5820971 -0.030478291 0.205950364
5838771 -0.030054938 0.20787917
5856471 -0.027008857 0.212969437
5874271 -0.020210297 0.2164433
5891971 -0.014427131 0.215991944
5909771 -0.01197202 0.215996876
5927471 -0.008879219 0.219003096
5945271 -0.002453026 0.221505001
5963071 0.003731895 0.221182107
5980771 0.007280247 0.220354959
5998571 0.010355074 0.222531408
6016271 0.017723536 0.225294187
6034071 0.025893447 0.224277913
6051771 0.03077528 0.221710711
6069571 0.034627277 0.222296074
6087371 0.041995674 0.223381593
6105071 0.050637178 0.220886856
6122871 0.056170646 0.216844514
6140571 0.060452099 0.214775726
6158371 0.066759206 0.214167967
6176071 0.074868738 0.211227864
6193871 0.080984354 0.205706715
6211671 0.084754601 0.20259875
6229371 0.091167643 0.201614096
6247171 0.100611507 0.196812048
6264871 0.107115902 0.188891515
6282671 0.110043987 0.182296559
6300371 0.114109247 0.179306596
6318171 0.121890589 0.174818664
6335971 0.12859328 0.165830135
6353671 0.131186693 0.157830998
6371471 0.134216472 0.153761968
6389171 0.142089813 0.148347407
6406971 0.150183871 0.137834131
6424671 0.152854591 0.125390663
6442471 0.152721151 0.117543272
6460271 0.157629579 0.112220779
6477971 0.165165051 0.100935675
6495771 0.167527914 0.086487412
6513471 0.165191873 0.075051531
6531271 0.166095867 0.067807264
6548971 0.171647876 0.0574545
6566771 0.17417401 0.04156015
6584571 0.170625314 0.027004407
6602271 0.166841 0.017648162
6620071 0.168700844 0.008314155
6637771 0.169686362 -0.00734209
6655571 0.164346396 -0.023419162
6673271 0.157678052 -0.033992704
6691071 0.156270295 -0.042921129
6708871 0.156436741 -0.058400083
6726571 0.150267735 -0.076600275
6744371 0.140172213 -0.089824534
6762071 0.133146464 -0.100543387
6779871 0.128098994 -0.114044189
6797571 0.118248671 -0.130864292
6815371 0.104933857 -0.143249496
6833171 0.094193391 -0.152102917
6850871 0.086865954 -0.163932725
6868671 0.075696133 -0.180527478
6886371 0.058502968 -0.19418925
6904171 0.041646223 -0.202100291
6921871 0.028635498 -0.210566237
6939671 0.013803179 -0.222157344
6957471 -0.005620225 -0.231993943
6975171 -0.024484653 -0.236566722
6992971 -0.039287492 -0.240836411
7010671 -0.054371867 -0.249044507
7028471 -0.07426574 -0.257222384
7046171 -0.095910556 -0.261313617
7063971 -0.115266285 -0.262364178
7081771 -0.133800297 -0.265162736
7099471 -0.154886215 -0.267920255
7117271 -0.177316218 -0.266609489
7134971 -0.196865633 -0.26346904
7152771 -0.215089067 -0.261433482
7170471 -0.235078737 -0.260159224
7188271 -0.257025986 -0.255761712
7206071 -0.277157753 -0.248622924
7223828 -0.295625865 -0.241923853
7241528 -0.314376652 -0.235213518
7259328 -0.334241837 -0.226729646
7277028 -0.352158755 -0.215859547
7294828 -0.367754876 -0.20487225
7312528 -0.383426547 -0.19562681
7330328 -0.40075311 -0.184376865
7348028 -0.416764378 -0.171670332
7365828 -0.431010484 -0.158322274
7383628 -0.444034963 -0.145377755
7401328 -0.458436459 -0.132662802
7419128 -0.471481651 -0.117640532
7436828 -0.482739061 -0.102187804
7454628 -0.493360131 -0.087730258
7472328 -0.503884315 -0.073344431
7490128 -0.514647185 -0.057968817
7507928 -0.523272514 -0.041223205
7525628 -0.530985772 -0.025252405
7543428 -0.538292169 -0.009447472
7561128 -0.545670807 0.006110946
7578928 -0.552055239 0.023075239
7596628 -0.557040691 0.039536606
7614428 -0.5614928 0.054875262
7632228 -0.566004872 0.070678673
7649928 -0.569501817 0.087008357
7667728 -0.572356164 0.103040583
7685428 -0.574106991 0.118620328
7703228 -0.576190769 0.133456647
7720928 -0.577869296 0.148924618
7738728 -0.578647553 0.164215698
7756528 -0.579136013 0.179005742
7774228 -0.579394936 0.193702787
7792028 -0.578947067 0.208192855
7809728 -0.578350782 0.223102778
7827528 -0.577111661 0.237052083
7845228 -0.575315833 0.2504673
7863028 -0.573903739 0.26391521
7880828 -0.571767568 0.277333438
7898528 -0.569315969 0.290300875
7916328 -0.566359877 0.303350776
7934028 -0.562995493 0.315894752
7951828 -0.559696316 0.32828474
7969528 -0.556385993 0.340399026
7987328 -0.552277386 0.352065026
8005128 -0.548855602 0.363713532
8022828 -0.544615805 0.374995708
8040628 -0.5401178 0.385762512
8058328 -0.535857677 0.396624565
8076128 -0.530870199 0.407049953
8093828 -0.526121258 0.41756916
8111628 -0.521333754 0.427974432
8129428 -0.516272306 0.437557071
8147128 -0.511132895 0.44719699
8164928 -0.505833089 0.456657975
8182628 -0.500544369 0.465815156
8200428 -0.494920492 0.474839329
8218128 -0.489370673 0.483868122
8235928 -0.483415901 0.492092281
8253728 -0.477890104 0.500681757
8271428 -0.471931606 0.508653044
8289228 -0.466030269 0.51638323
8306928 -0.460172146 0.524048268
8324728 -0.45412755 0.531764745
8342428 -0.448433458 0.539232611
8360228 -0.442031681 0.546309232
8378028 -0.436013072 0.553402304
8395728 -0.429689168 0.560144245
8413528 -0.423349678 0.566751062
8431228 -0.41717413 0.573326289
8449028 -0.411044031 0.579298853
8466728 -0.404948055 0.585462331
8484528 -0.398985683 0.591400146
8502328 -0.392774313 0.597281575
8520028 -0.386610358 0.60311973
8537828 -0.380351155 0.608775019
8555528 -0.374169468 0.614060044
8573328 -0.368053436 0.619455575
8591028 -0.36150667 0.624311029
8608828 -0.355228513 0.629553675
8626628 -0.349093407 0.634794116
8644328 -0.34320876 0.639419078
8662128 -0.336838364 0.644192218
8679828 -0.330564737 0.648996114
8697628 -0.324087351 0.653683185
8715328 -0.318208396 0.657597601
8733128 -0.311705768 0.662056028
8750928 -0.305556237 0.666034221
8768628 -0.299330353 0.670372068
8786428 -0.292765825 0.674138128
8804128 -0.286826401 0.677942931
8821928 -0.280540734 0.681676506
8839628 -0.274367153 0.685322523
8857428 -0.268325567 0.688596904
8875228 -0.262249499 0.692085146
8892928 -0.256091028 0.695354759
8910728 -0.249918133 0.698815703
8928428 -0.244157597 0.701770424
8946228 -0.237985506 0.704813301
8963928 -0.232103884 0.707618772
8981728 -0.225953966 0.71066761
8999528 -0.219815298 0.713241338
