# Hz S RI R 50
2000000 0.424274325 -0.827106058
2110000 0.377427339 -0.842945516
2220000 0.333569079 -0.855174779
2330000 0.289513349 -0.866614997
2440000 0.244937673 -0.875738859
2550000 0.20022431 -0.881399869
2660000 0.15775828 -0.884676575
2770000 0.11517135 -0.887057423
2880000 0.072181358 -0.886750996
2990000 0.030164562 -0.883094489
3100000 -0.010578108 -0.877603232
3210000 -0.05071938 -0.870016217
3320000 -0.089304909 -0.859723627
3430000 -0.126838952 -0.847690224
3540000 -0.163122817 -0.833944678
3650000 -0.19937928 -0.818030178
3760000 -0.234332025 -0.799314677
3870000 -0.268024176 -0.777382493
3980000 -0.300030738 -0.752374529
4090000 -0.329803287 -0.723873674
4200000 -0.356285333 -0.692042648
4310000 -0.379534333 -0.656242609
4420000 -0.397766381 -0.616575717
4530000 -0.40944311 -0.572501003
4640000 -0.41192016 -0.525765717
4750000 -0.402943789 -0.478126019
4860000 -0.37995103 -0.433371573
4970000 -0.342519938 -0.39872536
5080000 -0.294806957 -0.381465613
5190000 -0.246560513 -0.384728521
5300000 -0.203670918 -0.406354874
5410000 -0.173299223 -0.445737391
5520000 -0.1642064 -0.496714621
5630000 -0.18061082 -0.546788573
5740000 -0.216673612 -0.58383429
5850000 -0.262053191 -0.603156566
5960000 -0.309275358 -0.605445325
6070000 -0.353130638 -0.594269931
6180000 -0.391389191 -0.573599338
6290000 -0.423334389 -0.546153426
6400000 -0.447274029 -0.511869251
6510000 -0.461544245 -0.470859736
6620000 -0.465868651 -0.424715906
6730000 -0.457606762 -0.377799659
6840000 -0.436708539 -0.334163188
6950000 -0.404319137 -0.296385794
7060000 -0.360906481 -0.268237233
7170000 -0.308817118 -0.252650439
7280000 -0.251615732 -0.253845721
7390000 -0.196122676 -0.273065447
7500000 -0.147946923 -0.308594495
7610000 -0.112087272 -0.35685116
7720000 -0.090964831 -0.412337392
7830000 -0.084820076 -0.47123146
7940000 -0.093871951 -0.528715908
8050000 -0.115969009 -0.580052196
8160000 -0.146912947 -0.622214496
8270000 -0.183424666 -0.655677258
8380000 -0.22233203 -0.679708361
8490000 -0.261647105 -0.696104705
8600000 -0.299432784 -0.706089019
8710000 -0.335376739 -0.710511982
8820000 -0.368672758 -0.71132791
8930000 -0.399679094 -0.709532201
9040000 -0.428281813 -0.705150723
9150000 -0.455356508 -0.699094951
9260000 -0.480115741 -0.691572248
9370000 -0.503475368 -0.683001458
9480000 -0.524958908 -0.673847854
9590000 -0.544852018 -0.664127409
9700000 -0.563773274 -0.653853058
9810000 -0.581384003 -0.643322467
9920000 -0.59775263 -0.63223803
10030000 -0.613333344 -0.621050715
10140000 -0.627864718 -0.609624445
10250000 -0.641532063 -0.5980376
10360000 -0.654562294 -0.586239755
10470000 -0.666374981 -0.574540257
10580000 -0.677619516 -0.56255716
10690000 -0.68814975 -0.550795733
10800000 -0.6976704 -0.538961112
10910000 -0.706840932 -0.527097344
11020000 -0.715066552 -0.514989972
11130000 -0.722534894 -0.503380715
11240000 -0.728775799 -0.492064177
11350000 -0.734685957 -0.481408685
11460000 -0.740696012 -0.471579134
11570000 -0.74653089 -0.462364852
11680000 -0.752838253 -0.452895313
11790000 -0.759257853 -0.443252652
11900000 -0.765498459 -0.4332439
12010000 -0.771233677 -0.422562211
12120000 -0.776501893 -0.411658138
12230000 -0.780813097 -0.400794833
12340000 -0.784250557 -0.389868021
12450000 -0.786934733 -0.37899056
12560000 -0.788101673 -0.368916809
12670000 -0.788697779 -0.360254704
12780000 -0.788681149 -0.352369546
12890000 -0.789099991 -0.346482276
13000000 -0.790364384 -0.341689735
