# Hz S RI R 50
2000000 0.431350469 -0.836428046
2110000 0.385087281 -0.853307604
2220000 0.340448677 -0.866766989
2330000 0.296976447 -0.878653705
2440000 0.252451688 -0.889028489
2550000 0.208258271 -0.895859003
2660000 0.165104523 -0.900039911
2770000 0.122792743 -0.903167963
2880000 0.080461919 -0.903456628
2990000 0.039231784 -0.901806652
3100000 -0.001579905 -0.897603631
3210000 -0.040904019 -0.891057372
3320000 -0.079152807 -0.882928669
3430000 -0.116491049 -0.872551023
3540000 -0.152487412 -0.859529674
3650000 -0.186220288 -0.845828771
3760000 -0.219387739 -0.830315291
3870000 -0.251170217 -0.812187731
3980000 -0.279986798 -0.793000996
4090000 -0.307990819 -0.772689878
4200000 -0.334759473 -0.749394714
4310000 -0.357294499 -0.724742114
4420000 -0.378729492 -0.700423657
4530000 -0.398463398 -0.673129916
4640000 -0.413332402 -0.644607901
4750000 -0.42570424 -0.617237091
4860000 -0.436750173 -0.5885939
4970000 -0.442898273 -0.558751583
5080000 -0.445535928 -0.530773937
5190000 -0.446548074 -0.503228724
5300000 -0.443063199 -0.475390911
5410000 -0.43599683 -0.450579702
5520000 -0.427117109 -0.427472084
5630000 -0.415195226 -0.406498461
5740000 -0.400570124 -0.388693332
5850000 -0.385615766 -0.373208045
5960000 -0.368805676 -0.360142409
6070000 -0.348804265 -0.351372271
6180000 -0.33083561 -0.3458364
6290000 -0.311859905 -0.343107163
6400000 -0.2915183 -0.34585613
6510000 -0.27391088 -0.349500209
6620000 -0.25522378 -0.352901816
6730000 -0.235338732 -0.360448211
6840000 -0.217184171 -0.373057574
6950000 -0.201020345 -0.388235032
7060000 -0.185232341 -0.407684504
7170000 -0.174026682 -0.43187344
7280000 -0.166941463 -0.457808047
7390000 -0.164005741 -0.48601222
7500000 -0.166419804 -0.515330433
7610000 -0.173398509 -0.543943941
7720000 -0.185110434 -0.57160288
7830000 -0.200150564 -0.596909582
7940000 -0.218455195 -0.62009418
8050000 -0.23996748 -0.640980184
8160000 -0.263500541 -0.658475518
8270000 -0.288543015 -0.673192739
8380000 -0.314658939 -0.684479534
8490000 -0.341049194 -0.692769169
8600000 -0.367122948 -0.698592543
8710000 -0.392989575 -0.701928973
8820000 -0.418403893 -0.703050553
8930000 -0.442798048 -0.702179491
9040000 -0.466416686 -0.699647247
9150000 -0.489121407 -0.695634067
9260000 -0.510934472 -0.690174102
9370000 -0.531778216 -0.684239625
9480000 -0.551471114 -0.677118241
9590000 -0.570469737 -0.669127345
9700000 -0.588323652 -0.660684347
9810000 -0.605158209 -0.651397824
9920000 -0.621246695 -0.642408192
10030000 -0.636419236 -0.632577061
10140000 -0.651380538 -0.622566521
10250000 -0.665223717 -0.612056016
10360000 -0.678324759 -0.601551771
10470000 -0.69081825 -0.590630114
10580000 -0.702499568 -0.579393148
10690000 -0.713611066 -0.568024516
10800000 -0.724161148 -0.556705415
10910000 -0.733706653 -0.545142412
11020000 -0.742489635 -0.533672213
11130000 -0.751038551 -0.521748304
11240000 -0.758057057 -0.510105669
11350000 -0.763963758 -0.498934477
11460000 -0.768948793 -0.488848417
11570000 -0.774220347 -0.480403184
11680000 -0.780281722 -0.472277462
11790000 -0.787218093 -0.463572472
11900000 -0.794386625 -0.454556047
12010000 -0.801068305 -0.444611608
12120000 -0.80693829 -0.434352308
12230000 -0.812304437 -0.424241781
12340000 -0.816654324 -0.413835108
12450000 -0.820638477 -0.404220551
12560000 -0.824045956 -0.394936412
12670000 -0.827259898 -0.386036694
12780000 -0.830226778 -0.377755403
12890000 -0.832901 -0.369733631
13000000 -0.836159765 -0.362432301
