# HZ S RI R 50
1000000 0.121305502 -0.886936724
1050000 0.081828437 -0.889903664
1100000 0.038285128 -0.898597478
1150000 -0.009743103 -0.896562755
1200000 -0.05036557 -0.889842629
1250000 -0.086468361 -0.886884093
1300000 -0.12783946 -0.883946239
1350000 -0.168860971 -0.873747289
1400000 -0.203194573 -0.859660685
1450000 -0.233013674 -0.849477469
1500000 -0.265365868 -0.838189482
1550000 -0.294228941 -0.824964642
1600000 -0.322555512 -0.814533054
1650000 -0.351116299 -0.800699651
1700000 -0.38007912 -0.785045206
1750000 -0.403599679 -0.767046689
1800000 -0.425339102 -0.749588727
1850000 -0.443011701 -0.733422458
1900000 -0.462488025 -0.718302309
1950000 -0.481754124 -0.70325613
2000000 -0.498272031 -0.684983968
2050000 -0.515615105 -0.667653501
2100000 -0.530691385 -0.649530947
2150000 -0.542677938 -0.633763372
2200000 -0.555373072 -0.618843376
2250000 -0.565661549 -0.601512968
2300000 -0.57685244 -0.584863483
2350000 -0.587327361 -0.566075325
2400000 -0.596351504 -0.550214111
2450000 -0.601482987 -0.531041026
2500000 -0.606443762 -0.515794992
2550000 -0.610962748 -0.500306725
2600000 -0.614792466 -0.487383127
2650000 -0.617392778 -0.472730666
2700000 -0.619250833 -0.457349985
2750000 -0.619710743 -0.442266285
2800000 -0.619806945 -0.428594559
2850000 -0.616581439 -0.41769582
2900000 -0.615547657 -0.406953155
2950000 -0.612488806 -0.39743638
3000000 -0.609865248 -0.390573263
3050000 -0.606266677 -0.382530629
3100000 -0.604778349 -0.375199675
3150000 -0.601600706 -0.369694143
3200000 -0.6015594 -0.362627655
3250000 -0.59800738 -0.359600961
3300000 -0.597002089 -0.356935173
3350000 -0.598926424 -0.351751118
3400000 -0.596115291 -0.345413506
3450000 -0.595242261 -0.34070447
3500000 -0.595570027 -0.335882335
3550000 -0.594742 -0.330269008
3600000 -0.591789841 -0.322279989
3650000 -0.588176071 -0.316898643
3700000 -0.584306895 -0.313186109
3750000 -0.57671386 -0.308404564
3800000 -0.568451225 -0.303980976
3850000 -0.557275474 -0.300953865
3900000 -0.544622719 -0.303382158
3950000 -0.534706711 -0.307789742
4000000 -0.523640096 -0.316362649
4050000 -0.51542294 -0.329742491
4100000 -0.511063694 -0.344026505
4150000 -0.509490251 -0.360269814
4200000 -0.511714696 -0.375926792
4250000 -0.517493844 -0.392815709
4300000 -0.527442157 -0.407814502
4350000 -0.539018929 -0.421903103
4400000 -0.552934288 -0.433805733
4450000 -0.567762672 -0.443781644
4500000 -0.584442257 -0.451267391
4550000 -0.601635932 -0.45520386
4600000 -0.618881404 -0.457807123
4650000 -0.635395586 -0.457997381
4700000 -0.651721417 -0.457046449
4750000 -0.668204903 -0.455016314
4800000 -0.682866394 -0.451455682
4850000 -0.697544395 -0.447346895
4900000 -0.711656272 -0.441387772
4950000 -0.72465229 -0.434924602
5000000 -0.736741006 -0.427593231
5050000 -0.747743248 -0.420044422
5100000 -0.75781089 -0.412599205
5150000 -0.768033325 -0.404505461
5200000 -0.777329385 -0.396844625
5250000 -0.78537774 -0.388550311
5300000 -0.793035805 -0.38011083
5350000 -0.800899565 -0.371806502
5400000 -0.807690382 -0.362963706
5450000 -0.813467085 -0.355310916
5500000 -0.819624066 -0.347039997
5550000 -0.82499516 -0.338757723
5600000 -0.830618023 -0.331015676
5650000 -0.835509955 -0.322477012
5700000 -0.839769899 -0.314566671
5750000 -0.844168961 -0.306838005
5800000 -0.848164796 -0.298910021
5850000 -0.851134896 -0.290967017
5900000 -0.855262279 -0.283125072
5950000 -0.858746528 -0.27567178
6000000 -0.861677587 -0.268333941
