# HZ S RI R 50
1000000 0.553581774 -0.734310805
1075000 0.501995325 -0.775446414
1150000 0.439634919 -0.796688973
1225000 0.388038158 -0.793670833
1300000 0.368185073 -0.815341413
1375000 0.323347896 -0.843559026
1450000 0.267974257 -0.861004769
1525000 0.222235292 -0.865932941
1600000 0.177201926 -0.872641623
1675000 0.136065453 -0.878346383
1750000 0.08967702 -0.878431141
1825000 0.049843266 -0.875714421
1900000 0.014340203 -0.875236392
1975000 -0.021299777 -0.877085626
2050000 -0.062675788 -0.873531281
2125000 -0.102101668 -0.868210017
2200000 -0.135865941 -0.857675433
2275000 -0.169686213 -0.845981597
2350000 -0.201315864 -0.836463451
2425000 -0.2305222 -0.825069367
2500000 -0.257143467 -0.812074601
2575000 -0.287052333 -0.798904776
2650000 -0.315368622 -0.788854837
2725000 -0.341803282 -0.773156583
2800000 -0.368391543 -0.755116701
2875000 -0.390238821 -0.737343668
2950000 -0.410153359 -0.716566801
3025000 -0.43010354 -0.698999583
3100000 -0.445887953 -0.681939959
3175000 -0.460249423 -0.662739932
3250000 -0.475547999 -0.643607199
3325000 -0.491931557 -0.628472506
3400000 -0.503846526 -0.606954097
3475000 -0.518546342 -0.584483981
3550000 -0.526091873 -0.567124307
3625000 -0.529158413 -0.547717988
3700000 -0.539055347 -0.526132643
3775000 -0.54836893 -0.511329174
3850000 -0.548492848 -0.490509003
3925000 -0.553353369 -0.464168518
4000000 -0.556963741 -0.448513507
4075000 -0.552883565 -0.432127207
4150000 -0.548263907 -0.408966302
4225000 -0.550310492 -0.391532123
4300000 -0.538254559 -0.379881352
4375000 -0.52285844 -0.363067477
4450000 -0.518917441 -0.350345879
4525000 -0.513262033 -0.351517707
4600000 -0.493582934 -0.343222498
4675000 -0.490547716 -0.340502053
4750000 -0.471808284 -0.338520824
4825000 -0.468785017 -0.336572021
4900000 -0.467706352 -0.339519441
4975000 -0.462805658 -0.339630573
5050000 -0.455301463 -0.343580245
5125000 -0.443388313 -0.33966726
5200000 -0.435784608 -0.339044928
5275000 -0.431724369 -0.342539638
5350000 -0.418247252 -0.353134632
5425000 -0.409286975 -0.361332535
5500000 -0.406455338 -0.376104593
5575000 -0.402223408 -0.386151641
5650000 -0.401470184 -0.40787065
5725000 -0.399751931 -0.417983651
5800000 -0.408601671 -0.434716552
5875000 -0.41658017 -0.455909609
5950000 -0.42512539 -0.474892735
6025000 -0.437855035 -0.485316187
6100000 -0.459460675 -0.495943844
6175000 -0.474635958 -0.510692954
6250000 -0.493324309 -0.514828979
6325000 -0.513659656 -0.524215221
6400000 -0.53325814 -0.529559671
6475000 -0.553802132 -0.530128598
6550000 -0.573680043 -0.527991056
6625000 -0.591249585 -0.523181855
6700000 -0.607339262 -0.519065499
6775000 -0.62286967 -0.513310968
6850000 -0.638303756 -0.50843054
6925000 -0.65435487 -0.50180751
7000000 -0.668779611 -0.496504426
7075000 -0.683109164 -0.49006623
7150000 -0.697142481 -0.482097417
7225000 -0.7112208 -0.474249839
7300000 -0.723087906 -0.463799148
7375000 -0.73516798 -0.454285919
7450000 -0.745029747 -0.444726407
7525000 -0.755388498 -0.43540731
7600000 -0.764640212 -0.425554633
7675000 -0.774428367 -0.415370523
7750000 -0.782301604 -0.405675083
7825000 -0.789998769 -0.395966082
7900000 -0.797649621 -0.385479032
7975000 -0.805139839 -0.375425726
8050000 -0.810683727 -0.365591764
8125000 -0.817057847 -0.355256825
8200000 -0.822888791 -0.345514684
8275000 -0.827923715 -0.335459887
8350000 -0.832785129 -0.326041281
8425000 -0.837544858 -0.316313415
8500000 -0.841574192 -0.307237595
