# HZ S RI R 50
2000000 0.274924933 -0.871065437
2130000 0.205445408 -0.887426912
2260000 0.147238597 -0.884405314
2390000 0.097885176 -0.889742434
2520000 0.046048581 -0.89228636
2650000 -0.004115839 -0.893019378
2780000 -0.052532263 -0.88973546
2910000 -0.104650728 -0.887161254
3040000 -0.15507698 -0.871523737
3170000 -0.193284094 -0.855281174
3300000 -0.229271173 -0.843866229
3430000 -0.268995612 -0.835332155
3560000 -0.311699658 -0.820154786
3690000 -0.350856244 -0.798790574
3820000 -0.383797138 -0.771689772
3950000 -0.408238828 -0.749926507
4080000 -0.43297702 -0.732903182
4210000 -0.462059646 -0.715548157
4340000 -0.492094814 -0.692237913
4470000 -0.516528606 -0.662814021
4600000 -0.532126903 -0.632998049
4730000 -0.543060302 -0.611226797
4860000 -0.557616412 -0.594214975
4990000 -0.577939987 -0.574041008
5120000 -0.595446288 -0.547939419
5250000 -0.606766819 -0.518789291
5380000 -0.61237514 -0.493537455
5510000 -0.617416918 -0.472284197
5640000 -0.625559508 -0.450621187
5770000 -0.631977677 -0.426618546
5900000 -0.633833944 -0.400857627
6030000 -0.631897687 -0.377043157
6160000 -0.628506064 -0.357136189
6290000 -0.624009788 -0.341870188
6420000 -0.621012449 -0.327903717
6550000 -0.615642607 -0.307180255
6680000 -0.603267312 -0.288651227
6810000 -0.588406562 -0.276050031
6940000 -0.575418353 -0.2702789
7070000 -0.566613137 -0.266476452
7200000 -0.558537602 -0.261019796
7330000 -0.548157811 -0.257271617
7460000 -0.536919772 -0.25762993
7590000 -0.529627144 -0.260408908
7720000 -0.523915231 -0.266150802
7850000 -0.521089851 -0.270020693
7980000 -0.518768489 -0.271276026
8110000 -0.512371361 -0.276167958
8240000 -0.506378471 -0.284632772
8370000 -0.504433572 -0.294536232
8500000 -0.504451334 -0.30690968
8630000 -0.508519887 -0.319614648
8760000 -0.513686418 -0.333280891
8890000 -0.523119866 -0.348321855
9020000 -0.537031531 -0.361131578
9150000 -0.554444193 -0.371629536
9280000 -0.57338351 -0.378369927
9410000 -0.59379816 -0.382644027
9540000 -0.61476165 -0.383931338
9670000 -0.636532723 -0.382400065
9800000 -0.656644701 -0.378185898
9930000 -0.675534963 -0.371679693
10060000 -0.693895697 -0.364072263
10190000 -0.710370779 -0.355247467
10320000 -0.726997673 -0.346464812
10450000 -0.743181705 -0.33593288
10580000 -0.759132087 -0.324024289
10710000 -0.773148417 -0.310716927
10840000 -0.786099731 -0.296691447
10970000 -0.796720206 -0.28304407
11100000 -0.806913733 -0.268230557
11230000 -0.81621325 -0.254343599
11360000 -0.824725568 -0.239768669
11490000 -0.831489801 -0.225606426
11620000 -0.8381868 -0.211502075
11750000 -0.843543946 -0.197448611
11880000 -0.849177956 -0.183952391
12010000 -0.853172957 -0.170817658
12140000 -0.857882976 -0.156692042
12270000 -0.861060202 -0.143464624
12400000 -0.864217579 -0.130478948
12530000 -0.867462038 -0.11811418
12660000 -0.870031297 -0.105538226
12790000 -0.871693611 -0.093361884
12920000 -0.873832941 -0.080606795
13050000 -0.875006675 -0.068465963
13180000 -0.876551806 -0.056584194
13310000 -0.877234876 -0.045723345
13440000 -0.877801537 -0.034252732
13570000 -0.878056466 -0.023473495
13700000 -0.878763616 -0.012831871
13830000 -0.878628253 -0.001913061
13960000 -0.879601061 0.008538785
14090000 -0.879936814 0.019039995
14220000 -0.879670977 0.029467957
14350000 -0.878644526 0.039712328
14480000 -0.878408908 0.049450471
14610000 -0.877698004 0.059084143
14740000 -0.877821564 0.068978615
14870000 -0.876872599 0.078768059
15000000 -0.875487506 0.088567972
